!Agilent Technologies,N5242A,US46520174,A.09.00.04
!Agilent N5242A: A.09.00.04
!Date: Monday, September 25, 2017 14:29:41
!Correction: S11(Full 2 Port(1,2)) 
!S21(Full 2 Port(1,2)) 
!S12(Full 2 Port(1,2)) 
!S22(Full 2 Port(1,2)) 
!S2P File: Measurements: S11, S21, S12, S22:Log Frequency Sweep
# Hz S  RI   R 50
62153938.543231 -9.902836e-001 1.146419e-001 7.297009e-005 8.956909e-006 2.639148e-004 -3.847105e-005 -9.942787e-001 9.369687e-002
63023324.811754 -9.894081e-001 1.162517e-001 -3.483021e-005 1.545948e-004 2.779608e-005 4.372666e-005 -9.933316e-001 9.434494e-002
63904871.733352 -9.880986e-001 1.174965e-001 -9.009496e-007 1.909605e-004 -7.038058e-005 -9.531042e-005 -9.918568e-001 9.565526e-002
64798749.406737 -9.884180e-001 1.195026e-001 4.740518e-005 1.421777e-004 -2.903376e-005 2.246484e-005 -9.919943e-001 9.742223e-002
65705130.309895 -9.889739e-001 1.214142e-001 9.371781e-005 1.079998e-004 -6.847877e-005 2.238546e-004 -9.921798e-001 9.905108e-002
66624189.333374 -9.889067e-001 1.231522e-001 -1.870581e-004 3.741227e-005 2.349523e-005 -5.950752e-005 -9.919463e-001 1.005123e-001
67556103.814025 -9.885542e-001 1.246969e-001 3.144454e-005 5.572008e-005 1.010348e-004 1.027299e-004 -9.915903e-001 1.021075e-001
68501053.56922 -9.878136e-001 1.266965e-001 9.160247e-005 2.158463e-005 -1.044093e-004 6.161113e-005 -9.905999e-001 1.036791e-001
69459220.931551 -9.868004e-001 1.281984e-001 -1.301915e-004 -3.147225e-005 1.277730e-004 1.876030e-004 -9.894011e-001 1.051335e-001
70430790.78401 -9.865623e-001 1.302044e-001 7.835104e-005 3.489989e-007 7.204843e-005 -3.918575e-005 -9.900386e-001 1.067358e-001
71415950.595664 -9.863946e-001 1.320230e-001 -1.064098e-004 9.452065e-005 1.379371e-004 7.050004e-005 -9.904120e-001 1.081716e-001
72414890.457829 -9.855909e-001 1.337912e-001 2.733115e-005 1.203096e-005 1.697175e-004 9.460440e-005 -9.901920e-001 1.101205e-001
73427803.120747 -9.843900e-001 1.354035e-001 -2.398644e-005 1.632972e-004 1.281668e-004 1.955839e-005 -9.898754e-001 1.119520e-001
74454884.030777 -9.829845e-001 1.371763e-001 -9.865946e-005 1.591055e-004 -3.930478e-005 -1.398226e-005 -9.891708e-001 1.131148e-001
75496331.368114 -9.823514e-001 1.391319e-001 -9.718657e-005 5.172164e-005 4.847441e-005 -2.475153e-005 -9.896129e-001 1.148707e-001
76552346.08502 -9.834358e-001 1.412314e-001 -6.591912e-005 -8.054351e-007 9.623175e-005 1.151229e-004 -9.903752e-001 1.165313e-001
77623131.944603 -9.842606e-001 1.434866e-001 -8.695582e-005 -6.552075e-005 2.129524e-005 8.574680e-005 -9.911798e-001 1.185622e-001
78708895.560137 -9.851450e-001 1.457685e-001 2.751505e-005 5.574293e-005 1.130148e-004 -1.279057e-004 -9.918604e-001 1.199948e-001
79809846.434924 -9.849930e-001 1.482558e-001 1.824253e-005 1.280024e-007 1.564754e-004 2.741233e-005 -9.916061e-001 1.222154e-001
80926197.002719 -9.849163e-001 1.505578e-001 -2.169198e-005 1.646017e-004 3.478088e-005 -9.244205e-006 -9.914203e-001 1.241669e-001
82058162.668725 -9.841790e-001 1.525908e-001 4.392595e-005 9.718759e-006 -1.380450e-005 4.027740e-005 -9.904652e-001 1.258051e-001
83205961.85115 -9.842987e-001 1.549234e-001 -9.931661e-005 6.263555e-005 -1.022675e-004 -1.392391e-004 -9.907566e-001 1.276781e-001
84369816.023357 -9.846970e-001 1.574290e-001 7.599256e-005 1.109680e-004 8.919431e-005 -4.231992e-005 -9.908126e-001 1.297584e-001
85549949.756595 -9.843642e-001 1.597184e-001 -7.120163e-006 4.690625e-005 1.075780e-005 5.925230e-005 -9.910403e-001 1.316473e-001
86746590.763335 -9.840476e-001 1.620089e-001 -1.231557e-004 4.712202e-005 1.566387e-004 -1.024179e-004 -9.903416e-001 1.333040e-001
87959969.941203 -9.827526e-001 1.640627e-001 1.318779e-005 -3.141011e-005 -1.996899e-005 -9.527870e-005 -9.897825e-001 1.351604e-001
89190321.417536 -9.815151e-001 1.662484e-001 2.744700e-005 1.055708e-005 -4.469172e-005 1.300650e-004 -9.889895e-001 1.368784e-001
90437882.594558 -9.803481e-001 1.684045e-001 -2.532058e-005 4.461768e-005 1.948032e-005 3.428188e-005 -9.882268e-001 1.388484e-001
91702894.195187 -9.805644e-001 1.710065e-001 -2.610935e-006 5.383278e-005 4.342163e-005 -6.994639e-005 -9.890097e-001 1.405978e-001
92985600.309485 -9.798316e-001 1.733309e-001 -7.555621e-005 1.059124e-004 -7.020417e-005 -2.956728e-005 -9.892904e-001 1.426432e-001
94286248.441755 -9.791392e-001 1.755224e-001 -5.766967e-005 -1.933576e-005 -1.005661e-004 4.021670e-005 -9.894083e-001 1.442876e-001
95605089.558296 -9.776503e-001 1.776280e-001 4.475408e-005 -3.033096e-005 3.091805e-005 8.895300e-005 -9.885484e-001 1.463499e-001
96942378.135835 -9.760634e-001 1.797857e-001 -6.175607e-005 3.768496e-005 8.856830e-005 -9.006978e-007 -9.878951e-001 1.483032e-001
98298372.210621 -9.745022e-001 1.820545e-001 -3.306606e-005 -1.374463e-005 -3.756187e-005 9.556633e-006 -9.869483e-001 1.499471e-001
99673333.428221 -9.731862e-001 1.844649e-001 -1.158276e-005 6.227857e-005 -7.091175e-005 4.751688e-005 -9.858002e-001 1.517439e-001
101067527.094 -9.737551e-001 1.858789e-001 7.120560e-005 -2.388225e-005 4.200660e-005 -9.055098e-005 -9.846660e-001 1.546955e-001
102481222.22433 -9.709696e-001 1.879277e-001 4.415151e-005 -3.999563e-005 -1.061013e-004 -5.131909e-006 -9.826701e-001 1.570033e-001
103914691.59846 -9.676943e-001 1.899782e-001 -1.958342e-005 -4.809445e-005 -2.024744e-005 -8.212974e-005 -9.798931e-001 1.590890e-001
105368211.81119 -9.720012e-001 1.933937e-001 1.901174e-006 -3.755800e-005 6.482266e-005 -6.213902e-005 -9.740775e-001 1.602116e-001
106842063.32623 -9.726086e-001 1.962082e-001 -1.335705e-004 -7.322391e-005 -2.539911e-005 2.622306e-004 -9.756112e-001 1.630522e-001
108336530.5303 -9.724324e-001 1.993858e-001 -1.028415e-004 9.790602e-005 2.464152e-006 1.756529e-005 -9.770839e-001 1.656529e-001
109851901.78802 -9.723172e-001 2.022596e-001 -3.006747e-005 -5.844674e-005 9.358140e-005 -9.549646e-005 -9.778574e-001 1.682549e-001
111388469.49754 -9.717921e-001 2.051118e-001 -1.069026e-004 4.531328e-005 -1.618802e-004 -1.955700e-004 -9.783786e-001 1.709872e-001
112946530.147 -9.710642e-001 2.077987e-001 -4.871460e-005 -5.509889e-005 5.002703e-005 1.570370e-004 -9.788349e-001 1.731545e-001
114526384.37167 -9.699340e-001 2.107939e-001 -9.555366e-006 1.016132e-004 -2.460416e-005 -2.896921e-004 -9.789773e-001 1.755625e-001
116128337.012 -9.693201e-001 2.137549e-001 -7.481817e-005 -1.829100e-004 8.879050e-005 -4.388424e-005 -9.789096e-001 1.782794e-001
117752697.17245 -9.688014e-001 2.170133e-001 1.023895e-004 -1.098719e-004 -3.663864e-005 7.786535e-005 -9.796562e-001 1.808134e-001
119399778.28111 -9.680433e-001 2.200282e-001 -5.430526e-006 -1.124540e-004 -2.850591e-005 -1.590778e-004 -9.801684e-001 1.834230e-001
121069898.15018 -9.671686e-001 2.232601e-001 -7.195977e-006 -9.697292e-006 3.291108e-005 -9.264520e-005 -9.798102e-001 1.858999e-001
122763379.03732 -9.662719e-001 2.264178e-001 -2.938264e-005 1.326822e-005 2.719656e-005 7.039852e-005 -9.797453e-001 1.884823e-001
124480547.70778 -9.652463e-001 2.298188e-001 -3.505054e-005 -1.055869e-004 8.364485e-005 4.298836e-005 -9.787118e-001 1.918553e-001
126221735.49752 -9.646381e-001 2.335261e-001 4.113283e-005 -1.130772e-004 -5.571968e-005 -1.406590e-007 -9.786593e-001 1.948204e-001
127987278.37706 -9.646853e-001 2.375636e-001 1.880844e-004 -3.715165e-005 -1.530421e-005 -1.668679e-004 -9.789546e-001 1.983903e-001
129777517.01639 -9.646166e-001 2.416514e-001 -5.665399e-005 -6.079086e-005 5.845894e-005 -3.912348e-005 -9.792445e-001 2.019678e-001
131592796.85065 -9.638075e-001 2.455439e-001 1.069283e-004 -6.287908e-005 -1.360242e-005 4.568017e-005 -9.788537e-001 2.050585e-001
133433468.14679 -9.627910e-001 2.490891e-001 1.067084e-004 -2.918745e-005 -1.218435e-004 -8.003101e-005 -9.780563e-001 2.080950e-001
135299886.07117 -9.610396e-001 2.526876e-001 -4.948065e-005 -6.590527e-005 -1.244057e-004 -6.391171e-005 -9.768870e-001 2.114095e-001
137192410.7581 -9.603052e-001 2.561669e-001 -2.457638e-006 -2.156198e-004 -7.444822e-005 -1.809895e-004 -9.764463e-001 2.144413e-001
139111407.3793 -9.594806e-001 2.592888e-001 -1.251871e-004 -1.027588e-004 6.423849e-006 -6.332715e-005 -9.756857e-001 2.173256e-001
141057246.21438 -9.578133e-001 2.624973e-001 -4.567719e-005 -1.518528e-004 -1.616581e-004 -8.296657e-005 -9.746541e-001 2.197936e-001
143030302.72228 -9.562050e-001 2.655795e-001 -9.249269e-005 2.812569e-005 -2.635903e-005 2.861106e-006 -9.729380e-001 2.223938e-001
145030957.61373 -9.538142e-001 2.683720e-001 -9.779589e-005 -8.703460e-005 5.736021e-005 -3.112798e-005 -9.709973e-001 2.245815e-001
147059596.9247 -9.517369e-001 2.719950e-001 -7.662469e-005 -1.460440e-004 -1.135177e-004 -2.748641e-004 -9.687647e-001 2.279901e-001
149116612.09087 -9.512464e-001 2.761056e-001 -8.633579e-005 -1.506373e-004 4.042583e-006 -1.427037e-005 -9.685755e-001 2.319817e-001
151202400.0232 -9.506670e-001 2.803249e-001 -9.250473e-005 -2.039710e-004 -4.098695e-005 -6.063882e-005 -9.680796e-001 2.355002e-001
153317363.18449 -9.492374e-001 2.849418e-001 -1.934767e-005 -1.894788e-004 4.598935e-005 -2.770380e-004 -9.678105e-001 2.392519e-001
155461909.66703 -9.478688e-001 2.887824e-001 -5.787935e-005 -2.479627e-004 -5.219943e-005 -1.511540e-004 -9.667382e-001 2.428436e-001
157636453.27135 -9.462311e-001 2.932591e-001 -2.633689e-004 -6.076470e-005 -4.530983e-005 -2.860108e-004 -9.655241e-001 2.466588e-001
159841413.5861 -9.441223e-001 2.974246e-001 -1.329730e-004 -1.975556e-004 -1.212259e-004 -1.281149e-004 -9.640393e-001 2.501389e-001
162077216.06893 -9.426227e-001 3.016877e-001 -1.103360e-004 -2.445161e-004 -5.329071e-005 -2.575308e-004 -9.632064e-001 2.540269e-001
164344292.12869 -9.415953e-001 3.060325e-001 -4.868481e-005 -2.947260e-004 3.595107e-005 -2.444016e-004 -9.623381e-001 2.580601e-001
166643079.20857 -9.402177e-001 3.103698e-001 -5.792599e-005 -2.769719e-004 -9.485202e-005 -2.780964e-004 -9.613866e-001 2.617983e-001
168974020.87058 -9.382932e-001 3.154677e-001 -1.089200e-004 -2.096607e-004 -1.004082e-004 -4.042125e-004 -9.607083e-001 2.661569e-001
171337566.8811 -9.362800e-001 3.199676e-001 -1.829805e-004 -2.810427e-004 -2.653861e-004 -3.632626e-004 -9.591618e-001 2.705015e-001
173734173.29768 -9.339807e-001 3.246610e-001 -6.023688e-005 -2.531556e-004 -1.199846e-004 -1.672341e-004 -9.575576e-001 2.747648e-001
176164302.55703 -9.318783e-001 3.294064e-001 -1.203693e-004 -2.642574e-004 -2.392668e-004 -2.733252e-004 -9.562317e-001 2.790702e-001
178628423.56427 -9.308617e-001 3.346862e-001 -1.653935e-004 -2.974546e-004 -1.858507e-004 -3.444559e-004 -9.557993e-001 2.840929e-001
181127011.78337 -9.296203e-001 3.398279e-001 -2.810165e-004 -4.200192e-004 -2.368097e-004 -3.393356e-004 -9.549808e-001 2.884942e-001
183660549.32892 -9.278780e-001 3.449810e-001 -2.036432e-004 -3.739883e-004 -2.660451e-004 -3.155669e-004 -9.536813e-001 2.930039e-001
186229525.05916 -9.257681e-001 3.499424e-001 -1.347807e-004 -6.100705e-004 -2.500894e-004 -5.403006e-004 -9.517774e-001 2.975392e-001
188834434.67027 -9.237489e-001 3.550490e-001 -1.854372e-004 -4.873080e-004 -3.993506e-004 -5.715089e-004 -9.497213e-001 3.016455e-001
191475780.79209 -9.211220e-001 3.604257e-001 -2.646310e-004 -5.200489e-004 -2.852643e-004 -5.390678e-004 -9.477481e-001 3.063540e-001
194154073.08501 -9.185879e-001 3.660073e-001 -3.786475e-004 -4.643057e-004 -3.573840e-004 -4.204464e-004 -9.450828e-001 3.115445e-001
196869828.33841 -9.151476e-001 3.715004e-001 -1.635244e-004 -5.933390e-004 -4.620443e-004 -5.123671e-004 -9.434801e-001 3.164366e-001
199623570.57028 -9.117461e-001 3.768594e-001 -2.612560e-004 -4.894059e-004 -3.429021e-004 -5.308576e-004 -9.408187e-001 3.210110e-001
202415831.12842 -9.077145e-001 3.815846e-001 -4.074414e-004 -6.708986e-004 -3.952806e-004 -6.613530e-004 -9.377086e-001 3.257016e-001
205247148.79291 -9.050408e-001 3.867185e-001 -3.536906e-004 -6.320456e-004 -2.910143e-004 -5.926637e-004 -9.342382e-001 3.299902e-001
208118069.88007 -9.030890e-001 3.933810e-001 -3.311027e-004 -7.705412e-004 -3.776131e-004 -7.330200e-004 -9.328575e-001 3.354872e-001
211029148.34792 -9.010576e-001 3.994064e-001 -5.703109e-004 -7.653793e-004 -3.947967e-004 -7.567973e-004 -9.308763e-001 3.408341e-001
213980945.90302 -8.997488e-001 4.066831e-001 -5.113644e-004 -9.558075e-004 -4.574882e-004 -7.584516e-004 -9.321007e-001 3.479264e-001
216974032.10888 -8.968214e-001 4.130465e-001 -6.198145e-004 -9.403429e-004 -4.973571e-004 -8.804373e-004 -9.291909e-001 3.537555e-001
220008984.49585 -8.942228e-001 4.193421e-001 -4.827715e-004 -1.027754e-003 -4.976876e-004 -8.812271e-004 -9.275793e-001 3.591149e-001
223086388.67257 -8.905484e-001 4.258966e-001 -5.142899e-004 -1.038980e-003 -6.706124e-004 -8.725926e-004 -9.253673e-001 3.653210e-001
226206838.43894 -8.865762e-001 4.320418e-001 -7.602934e-004 -1.131978e-003 -7.029350e-004 -1.124947e-003 -9.229625e-001 3.713775e-001
229370935.90073 -8.831386e-001 4.387489e-001 -6.364110e-004 -1.220011e-003 -8.389143e-004 -1.174552e-003 -9.202751e-001 3.774906e-001
232579291.58573 -8.799734e-001 4.460772e-001 -7.965888e-004 -1.292645e-003 -1.094065e-003 -1.247464e-003 -9.178466e-001 3.845746e-001
235832524.56157 -8.749993e-001 4.541949e-001 -9.095425e-004 -1.318050e-003 -1.174842e-003 -1.365368e-003 -9.137679e-001 3.926611e-001
239131262.55518 -8.702957e-001 4.609784e-001 -1.058665e-003 -1.454891e-003 -7.714124e-004 -1.488217e-003 -9.104363e-001 3.988083e-001
242476142.07389 -8.656729e-001 4.675901e-001 -9.794722e-004 -1.510461e-003 -1.154534e-003 -1.492128e-003 -9.064944e-001 4.054203e-001
245867808.52825 -8.607283e-001 4.741936e-001 -1.154049e-003 -1.632602e-003 -1.153772e-003 -1.709746e-003 -9.019692e-001 4.114305e-001
249306916.35659 -8.553396e-001 4.808025e-001 -1.187623e-003 -1.798649e-003 -1.292962e-003 -1.705312e-003 -8.968956e-001 4.176700e-001
252794129.15128 -8.516418e-001 4.908254e-001 -1.352877e-003 -1.835763e-003 -1.682163e-003 -1.901384e-003 -8.950540e-001 4.266095e-001
256330119.78676 -8.471370e-001 5.010256e-001 -1.492648e-003 -2.131159e-003 -1.592148e-003 -2.049177e-003 -8.919566e-001 4.363222e-001
259915570.54941 -8.421453e-001 5.100384e-001 -1.562697e-003 -2.294206e-003 -1.843630e-003 -2.176662e-003 -8.878503e-001 4.450904e-001
263551173.26916 -8.373069e-001 5.188439e-001 -1.847144e-003 -2.577177e-003 -1.859159e-003 -2.451680e-003 -8.845126e-001 4.540184e-001
267237629.45301 -8.315955e-001 5.279316e-001 -1.912103e-003 -2.786542e-003 -1.936057e-003 -2.584885e-003 -8.801953e-001 4.625485e-001
270975650.42038 -8.252363e-001 5.373595e-001 -2.096512e-003 -2.747535e-003 -1.899857e-003 -2.789193e-003 -8.748227e-001 4.720405e-001
274765957.44035 -8.177808e-001 5.461892e-001 -2.445686e-003 -2.849217e-003 -2.452273e-003 -2.877279e-003 -8.687789e-001 4.804480e-001
278609281.87087 -8.105287e-001 5.555246e-001 -2.596657e-003 -3.201880e-003 -2.651121e-003 -3.316754e-003 -8.625643e-001 4.895599e-001
282506365.29984 -8.024348e-001 5.649140e-001 -2.941899e-003 -3.524106e-003 -2.895437e-003 -3.666485e-003 -8.565540e-001 4.987757e-001
286457959.6882 -7.942611e-001 5.737149e-001 -3.464636e-003 -3.789568e-003 -3.234342e-003 -3.689034e-003 -8.489109e-001 5.080696e-001
290464827.51507 -7.857046e-001 5.851571e-001 -3.777838e-003 -3.959329e-003 -3.743210e-003 -4.128745e-003 -8.425035e-001 5.193639e-001
294527741.92482 -7.767674e-001 5.962610e-001 -4.001083e-003 -4.188765e-003 -3.998309e-003 -4.435631e-003 -8.356789e-001 5.306419e-001
298647486.87631 -7.677753e-001 6.074688e-001 -4.601705e-003 -4.737355e-003 -4.165104e-003 -4.609122e-003 -8.276771e-001 5.420492e-001
302824857.29409 -7.579075e-001 6.193622e-001 -4.939852e-003 -4.986051e-003 -4.821963e-003 -5.104904e-003 -8.195193e-001 5.536712e-001
307060659.22185 -7.470169e-001 6.320267e-001 -5.792146e-003 -5.496320e-003 -5.541558e-003 -5.379697e-003 -8.108782e-001 5.665837e-001
311355709.97789 -7.355990e-001 6.446710e-001 -6.316772e-003 -5.849529e-003 -6.352503e-003 -6.067265e-003 -8.008887e-001 5.793551e-001
315710838.31288 -7.233142e-001 6.575111e-001 -7.222292e-003 -6.425278e-003 -7.547942e-003 -6.577761e-003 -7.906908e-001 5.919281e-001
320126884.56974 -7.092150e-001 6.695887e-001 -8.279420e-003 -6.946553e-003 -8.408505e-003 -6.967147e-003 -7.789844e-001 6.041660e-001
324604700.8458 -6.949881e-001 6.817621e-001 -9.565433e-003 -7.797856e-003 -9.739571e-003 -7.808363e-003 -7.669941e-001 6.175014e-001
329145151.1572 -6.793905e-001 6.960017e-001 -1.105112e-002 -8.387236e-003 -1.108456e-002 -8.455533e-003 -7.540897e-001 6.317853e-001
333749111.60563 -6.620231e-001 7.104564e-001 -1.291606e-002 -9.093718e-003 -1.288804e-002 -9.062165e-003 -7.392408e-001 6.468890e-001
338417470.54735 -6.430208e-001 7.247814e-001 -1.453133e-002 -9.690492e-003 -1.497771e-002 -9.796971e-003 -7.233159e-001 6.620507e-001
343151128.76464 -6.225923e-001 7.390016e-001 -1.719145e-002 -1.070141e-002 -1.714263e-002 -1.086706e-002 -7.067094e-001 6.778837e-001
347950999.63958 -5.998812e-001 7.544661e-001 -1.999163e-002 -1.138033e-002 -2.033845e-002 -1.152859e-002 -6.874270e-001 6.941338e-001
352818009.33028 -5.747617e-001 7.695837e-001 -2.357939e-002 -1.230650e-002 -2.338573e-002 -1.226631e-002 -6.662306e-001 7.110764e-001
357753096.94965 -5.457819e-001 7.851686e-001 -2.801193e-002 -1.334767e-002 -2.815762e-002 -1.310635e-002 -6.427487e-001 7.283165e-001
362757214.74651 -5.136318e-001 8.015431e-001 -3.380039e-002 -1.432523e-002 -3.371885e-002 -1.413004e-002 -6.168023e-001 7.470552e-001
367831328.28944 -4.769288e-001 8.181345e-001 -4.134416e-002 -1.491468e-002 -4.125047e-002 -1.509683e-002 -5.879974e-001 7.655368e-001
372976416.65298 -4.340101e-001 8.339967e-001 -5.101955e-002 -1.504082e-002 -5.108039e-002 -1.500121e-002 -5.545434e-001 7.859701e-001
378193472.60665 -3.835718e-001 8.479217e-001 -6.420891e-002 -1.388275e-002 -6.434742e-002 -1.393421e-002 -5.153204e-001 8.052312e-001
383483502.80644 -3.234546e-001 8.568736e-001 -8.215052e-002 -1.037408e-002 -8.206613e-002 -1.040816e-002 -4.686653e-001 8.225470e-001
388847527.98906 -2.495614e-001 8.565198e-001 -1.066733e-001 -1.579049e-003 -1.069003e-001 -1.867930e-003 -4.147991e-001 8.358532e-001
394286583.16893 -1.585768e-001 8.384382e-001 -1.398229e-001 1.839766e-002 -1.400382e-001 1.805684e-002 -3.489017e-001 8.402032e-001
399801717.83785 -5.051157e-002 7.830671e-001 -1.818653e-001 6.299213e-002 -1.819975e-001 6.273097e-002 -2.717592e-001 8.295929e-001
405393996.16754 4.727853e-002 6.516822e-001 -2.157754e-001 1.572467e-001 -2.163073e-001 1.570825e-001 -1.930644e-001 7.849246e-001
411064497.21494 3.243510e-002 4.355979e-001 -1.724769e-001 3.094367e-001 -1.737046e-001 3.090633e-001 -1.568413e-001 6.969951e-001
416814315.13046 -1.754730e-001 3.159601e-001 6.563381e-003 3.988062e-001 5.771456e-003 3.994814e-001 -2.038742e-001 6.426253e-001
422644559.36907 -3.515821e-001 4.219489e-001 1.745303e-001 3.347415e-001 1.739854e-001 3.343991e-001 -2.404214e-001 6.860027e-001
428556354.90437 -3.715730e-001 5.796201e-001 2.473375e-001 2.282326e-001 2.456006e-001 2.275673e-001 -2.031816e-001 7.526798e-001
434550842.4457 -3.055845e-001 6.935045e-001 2.685476e-001 1.411299e-001 2.663926e-001 1.420775e-001 -1.211164e-001 7.972348e-001
440629178.65821 -2.042637e-001 7.616584e-001 2.719034e-001 7.383754e-002 2.726268e-001 7.364302e-002 -1.223461e-002 8.154973e-001
446792536.38605 -8.612698e-002 7.936515e-001 2.681984e-001 1.748218e-002 2.687322e-001 1.704088e-002 1.090625e-001 8.035930e-001
453042104.87868 4.511421e-002 7.951880e-001 2.601320e-001 -3.581581e-002 2.607767e-001 -3.621576e-002 2.395814e-001 7.616885e-001
459379090.02034 1.864804e-001 7.622394e-001 2.444263e-001 -8.898157e-002 2.438446e-001 -8.943440e-002 3.735719e-001 6.846935e-001
465804714.56274 3.309907e-001 6.921039e-001 2.178830e-001 -1.415869e-001 2.172317e-001 -1.414324e-001 5.013108e-001 5.686730e-001
472320218.36098 4.716896e-001 5.769296e-001 1.756209e-001 -1.899064e-001 1.753711e-001 -1.890655e-001 6.094067e-001 4.102558e-001
478926858.6128 5.928650e-001 4.107862e-001 1.166431e-001 -2.259691e-001 1.170099e-001 -2.254878e-001 6.828156e-001 2.142944e-001
