!CSV A.01.01
!Agilent Technologies,N5242A,US46520174,A.09.00.04
!Agilent N5242A: A.09.00.04
!Date: Monday, September 25, 2017 14:28:47

BEGIN CH1_DATA
Freq(Hz),S21,(REAL)S21,(IMAG)
62153938.543231,0.0001549455,3.9358911e-005
63023324.811754,5.3665415e-005,-1.6801529e-005
63904871.733352,9.0803813e-005,-4.8589765e-005
64798749.406737,3.902243e-005,1.0394574e-005
65705130.309895,-0.00014944524,-3.0459414e-005
66624189.333374,-8.1624705e-005,1.6866157e-005
67556103.814025,6.5127504e-005,-5.1735147e-005
68501053.56922,-0.00012958268,-0.00015719428
69459220.931551,4.5243101e-005,-4.2673415e-005
70430790.78401,-6.6039698e-005,7.7354882e-005
71415950.595664,0.00017579805,2.0883477e-005
72414890.457829,-0.00023614283,3.2911237e-006
73427803.120747,1.5470261e-005,5.0798564e-005
74454884.030777,-5.0647614e-005,0.00010225294
75496331.368114,-0.00017302131,-8.8390632e-005
76552346.08502,0.00017654078,5.2187916e-005
77623131.944603,-9.968654e-006,3.4790432e-005
78708895.560137,4.890787e-005,0.00014749086
79809846.434924,1.3239534e-005,7.9495061e-005
80926197.002719,-6.8895934e-005,3.0253772e-005
82058162.668725,6.2432249e-005,0.00013954497
83205961.85115,4.5677338e-005,3.1858359e-005
84369816.023357,-1.8911391e-005,-8.9842324e-006
85549949.756595,-2.5312351e-005,0.00010141559
86746590.763335,-2.7471386e-005,8.1189399e-005
87959969.941203,2.3450837e-005,-7.5048294e-005
89190321.417536,0.00010314478,4.768763e-005
90437882.594558,7.8181263e-005,-6.2136646e-006
91702894.195187,6.4547196e-005,-3.0125335e-005
92985600.309485,6.6679066e-005,0.00013112449
94286248.441755,1.7968357e-005,6.9497291e-005
95605089.558296,-0.00015412096,-5.7662106e-005
96942378.135835,-7.5022283e-005,-0.0001229912
98298372.210621,-4.132203e-005,-7.9745623e-005
99673333.428221,6.1150924e-005,8.0128382e-005
101067527.094,2.6021369e-005,-1.1624535e-006
102481222.22433,1.6938786e-005,1.6736119e-006
103914691.59846,3.6598565e-006,-9.3263443e-005
105368211.81119,-2.4784283e-006,-0.0001045497
106842063.32623,5.2041611e-005,2.3727504e-005
108336530.5303,-0.00015507379,-9.4063231e-005
109851901.78802,-5.9442831e-005,-0.00011033162
111388469.49754,-5.6216337e-005,2.6905016e-005
112946530.147,7.9318954e-007,5.3365286e-005
114526384.37167,-8.5855834e-005,3.4915574e-005
116128337.012,-0.00011036739,0.00011709314
117752697.17245,-6.4226479e-005,1.1632023e-005
119399778.28111,-3.9878676e-005,-1.3823181e-005
121069898.15018,-9.1443408e-006,1.9656585e-005
122763379.03732,-2.1759886e-005,-0.00016774944
124480547.70778,-1.2376982e-005,-5.2420164e-005
126221735.49752,-0.00022713661,7.1030816e-005
127987278.37706,-5.5132881e-005,-0.0001046892
129777517.01639,5.4276989e-005,1.3585094e-005
131592796.85065,2.4102797e-005,3.8520029e-006
133433468.14679,-3.2663967e-005,-1.7939195e-005
135299886.07117,-1.6780254e-005,-0.00014938832
137192410.7581,2.256249e-005,-5.0928054e-005
139111407.3793,-4.1134979e-005,-3.0861636e-005
141057246.21438,1.9967361e-005,-3.4703095e-005
143030302.72228,-0.00010767591,-0.00019766731
145030957.61373,-5.404689e-005,-0.00014487626
147059596.9247,-1.0543633e-005,-3.3634115e-005
149116612.09087,-0.00011659363,-0.00028190226
151202400.0232,4.453006e-007,-0.0001108908
153317363.18449,-1.4393373e-006,-0.0001566202
155461909.66703,-0.00016245959,-0.00020465734
157636453.27135,-9.2610338e-005,-0.00026113872
159841413.5861,-0.0001385849,-0.0001156644
162077216.06893,-0.00020709117,-0.00016359265
164344292.12869,2.2504894e-006,-0.00026243986
166643079.20857,-3.4666027e-005,-0.00020445109
168974020.87058,-7.0511152e-005,-0.00030383593
171337566.8811,-0.00013785483,-0.00024254531
173734173.29768,-0.00016112055,-0.00044498753
176164302.55703,-0.00012050857,-0.00026986332
178628423.56427,-0.00022584654,-0.00033007454
181127011.78337,-0.00010994528,-0.00029681635
183660549.32892,-0.00018972399,-0.00037170693
186229525.05916,-0.00030614797,-0.0004418352
188834434.67027,-0.00023499659,-0.00048887392
191475780.79209,-0.00029551098,-0.00038951184
194154073.08501,-0.00024680948,-0.00054468092
196869828.33841,-0.00024361437,-0.00051936269
199623570.57028,-0.00024867419,-0.00060576614
202415831.12842,-0.00030835188,-0.00055675756
205247148.79291,-0.00033876058,-0.00066108454
208118069.88007,-0.00031858022,-0.00058932701
211029148.34792,-0.00048200169,-0.00075040926
213980945.90302,-0.00044247083,-0.0008613891
216974032.10888,-0.00061123184,-0.00090971118
220008984.49585,-0.00047457751,-0.0009069533
223086388.67257,-0.00063590065,-0.0010431857
226206838.43894,-0.00072380347,-0.0011794028
229370935.90073,-0.00073834514,-0.0011979707
232579291.58573,-0.00082178495,-0.0012826396
235832524.56157,-0.00089507166,-0.0013311177
239131262.55518,-0.00091806095,-0.0015495118
242476142.07389,-0.0011516702,-0.0015298644
245867808.52825,-0.0011397708,-0.00164969
249306916.35659,-0.0013123467,-0.0017195406
252794129.15128,-0.0013352702,-0.0019744446
256330119.78676,-0.0015555613,-0.0022134883
259915570.54941,-0.0015864252,-0.002155245
263551173.26916,-0.0018405881,-0.0022992352
267237629.45301,-0.0020348658,-0.0026331733
270975650.42038,-0.0020133066,-0.0029084971
274765957.44035,-0.0024137686,-0.0028453954
278609281.87087,-0.0026549937,-0.0032239833
282506365.29984,-0.0030818863,-0.0033400189
286457959.6882,-0.0034630385,-0.0037950715
290464827.51507,-0.0038473629,-0.0040149484
294527741.92482,-0.0042023296,-0.004320771
298647486.87631,-0.0044395877,-0.0045598913
302824857.29409,-0.0050312406,-0.0050372728
307060659.22185,-0.0058332351,-0.0054119006
311355709.97789,-0.0064816987,-0.0057444307
315710838.31288,-0.0072772307,-0.0064385748
320126884.56974,-0.0081891241,-0.0072568739
324604700.8458,-0.0098012155,-0.007707641
329145151.1572,-0.011126224,-0.0085008843
333749111.60563,-0.012707072,-0.0092171375
338417470.54735,-0.014872141,-0.0095630866
343151128.76464,-0.017245462,-0.010750024
347950999.63958,-0.019991539,-0.011234155
352818009.33028,-0.023595389,-0.012290798
357753096.94965,-0.028010359,-0.013177423
362757214.74651,-0.033745751,-0.014312794
367831328.28944,-0.041191973,-0.014902964
372976416.65298,-0.050921164,-0.015047122
378193472.60665,-0.064200222,-0.013934666
383483502.80644,-0.082148269,-0.010499917
388847527.98906,-0.10657458,-0.0015927198
394286583.16893,-0.14007434,0.018092582
399801717.83785,-0.18210582,0.062662005
405393996.16754,-0.21621168,0.15732597
411064497.21494,-0.17250857,0.30964246
416814315.13046,0.0067721158,0.39889216
422644559.36907,0.17501386,0.33448067
428556354.90437,0.24759771,0.22807176
434550842.4457,0.26879871,0.14093579
440629178.65821,0.27194056,0.073619418
446792536.38605,0.26827323,0.01668711
453042104.87868,0.25985378,-0.036318917
459379090.02034,0.24390234,-0.088793695
465804714.56274,0.21737948,-0.14131062
472320218.36098,0.17552802,-0.18958201
478926858.6128,0.11692294,-0.22581302
485625910.10115,0.045786504,-0.240739
492418665.44018,-0.026258754,-0.22787975
499306435.32463,-0.084961399,-0.1886967
506290548.78277,-0.12003762,-0.13451208
513372353.43283,-0.12846309,-0.079898767
520553215.743,-0.11828082,-0.035626411
527834521.29514,-0.098719202,-0.0055832197
535217675.05212,-0.077091277,0.011496027
542704101.62889,-0.057977911,0.019806361
550295245.56741,-0.042464327,0.022418095
557992571.61533,-0.03061635,0.022008723
565797565.00867,-0.022030659,0.019897865
573711731.75838,-0.015681628,0.017551359
581736598.94092,-0.011196993,0.015040821
589873714.99294,-0.0078880005,0.012629757
598124650.01005,-0.0056857597,0.010504927
606490996.04977,-0.0041123051,0.0088581052
614974367.43872,-0.0028917328,0.0073099947
623576401.08415,-0.0017948505,0.0059958175
632298756.78974,-0.0013172559,0.0048746704
641143117.5759,-0.00091539684,0.0039578537
650111190.0045,-0.00077103014,0.003187845
659204704.50817,-0.00026878828,0.0027053419
668425415.72419,-0.00033817711,0.0021034006
677775102.83304,-0.00052373204,0.0016469578
687255569.90176,-5.1799794e-005,0.0013900975
696868646.23195,-8.8293244e-005,0.0010826483
706616186.71286,4.4778503e-006,0.00091419101
716500072.17922,9.2099217e-006,0.00067280873
726522209.77417,3.9162614e-006,0.00040418463
736684533.31727,6.3471343e-005,0.00037911726
746989003.67765,-4.5329827e-005,0.00019181549
757437609.15232,-0.00013472495,0.00021137782
768032365.84987,-2.6981073e-005,1.2630941e-005
778775318.07946,-0.00010638597,-2.3609809e-005
789668538.74531,-0.00022162535,-5.7841167e-005
800714129.74663,-0.00013291268,3.5879832e-006
811914222.38323,-0.00020736644,-0.0002231754
823270977.76676,-0.00030344914,-0.00011587254
834786587.23769,-0.00022123037,-0.00012733563
846463272.78814,-0.00018506859,-0.00010611287
858303287.49066,-0.00022844777,4.2542491e-005
870308915.93291,-5.7148376e-005,-2.9557954e-005
882482474.65854,-8.494177e-005,-0.00021905753
894826312.61415,-0.00026458586,0.00010741927
907342811.60252,-0.0001679812,-0.00013739595
920034386.74223,-0.00017921119,7.1393159e-005
932903486.93362,-0.00015126808,7.288481e-005
945952595.33137,-0.0001109505,8.302521e-005
959184229.82357,-0.00024869075,1.9506017e-005
972600943.51762,-0.00014973906,9.7977563e-006
986205325.23284,-0.00010159531,-3.1582936e-006
1000000000,-5.4142118e-005,2.0904256e-005
END

