!Agilent Technologies,E5071C,MY46101273,A.11.02
!Date: Sun Oct 15 21:04:36 2017
!Data & Calibration Information:
!Freq	S11:SOLT2(ON)	S21:SOLT2(ON)	S12:SOLT2(ON)	S22:SOLT2(ON)
!PortZ  Port1:50+j0    Port2:50+j0
!Above PortZ is port z conversion or system Z0 setting when saving the data.
!When reading, reference impedance value at option line is always used.
# Hz S dB R 50
10000000	-3.610998e-002	1.788732e+002	-9.340605e+001	-1.208229e+002	-9.605070e+001	-1.396324e+002	-1.957210e-002	1.789937e+002
10618750	-3.585081e-002	1.788280e+002	-9.728874e+001	-1.326475e+002	-9.286228e+001	-1.044555e+002	-1.957679e-002	1.789553e+002
11237500	-3.574085e-002	1.787748e+002	-9.201863e+001	-1.046687e+002	-9.028425e+001	-1.191422e+002	-1.946983e-002	1.789105e+002
11856250	-2.732689e-002	1.787563e+002	-9.132749e+001	-1.214950e+002	-8.881699e+001	-1.159096e+002	-1.934122e-002	1.788675e+002
12475000	-2.696843e-002	1.787138e+002	-8.792265e+001	-1.114357e+002	-9.066090e+001	-1.149957e+002	-1.963787e-002	1.788309e+002
13093750	-3.472849e-002	1.786379e+002	-8.831706e+001	-1.174956e+002	-8.607194e+001	-1.014666e+002	-1.959224e-002	1.787968e+002
13712500	-3.456116e-002	1.785930e+002	-8.446813e+001	-1.106151e+002	-8.608861e+001	-1.149166e+002	-1.949253e-002	1.787616e+002
14331250	-2.421565e-002	1.785899e+002	-8.504567e+001	-1.165008e+002	-8.544235e+001	-1.149802e+002	-1.936101e-002	1.787293e+002
14950000	-2.349401e-002	1.785498e+002	-8.291947e+001	-1.108295e+002	-8.283175e+001	-1.112075e+002	-1.936714e-002	1.786948e+002
15568750	-2.250209e-002	1.785089e+002	-8.181233e+001	-1.064412e+002	-8.194879e+001	-1.198615e+002	-1.944885e-002	1.786627e+002
16187500	-3.199628e-002	1.784225e+002	-8.132905e+001	-1.096987e+002	-8.098424e+001	-1.062839e+002	-1.937081e-002	1.786324e+002
16806250	-3.105441e-002	1.783773e+002	-7.954743e+001	-1.096406e+002	-7.995352e+001	-1.089817e+002	-1.963444e-002	1.786014e+002
17425000	-1.916635e-002	1.783897e+002	-7.853656e+001	-1.160358e+002	-7.875730e+001	-1.071704e+002	-1.997141e-002	1.785726e+002
18043750	-1.803710e-002	1.783481e+002	-7.737544e+001	-1.133544e+002	-7.794591e+001	-1.081737e+002	-2.028320e-002	1.785434e+002
18662500	-1.674647e-002	1.783084e+002	-7.686029e+001	-1.075719e+002	-7.702065e+001	-1.142115e+002	-2.064721e-002	1.785154e+002
19281250	-2.794900e-002	1.781963e+002	-7.594269e+001	-1.084295e+002	-7.606080e+001	-1.122849e+002	-2.123637e-002	1.784841e+002
19900000	-2.715318e-002	1.781521e+002	-7.493709e+001	-1.109638e+002	-7.454577e+001	-1.124046e+002	-2.175686e-002	1.784569e+002
20518750	-1.406249e-002	1.781788e+002	-7.429538e+001	-1.080304e+002	-7.456924e+001	-1.111064e+002	-2.198552e-002	1.784291e+002
21137500	-1.311492e-002	1.781348e+002	-7.345375e+001	-1.074430e+002	-7.340143e+001	-1.071367e+002	-2.278748e-002	1.784000e+002
21756250	-1.267286e-002	1.780872e+002	-7.252232e+001	-1.108295e+002	-7.228945e+001	-1.118408e+002	-2.357959e-002	1.783741e+002
22375000	-2.546039e-002	1.779605e+002	-7.161990e+001	-1.095410e+002	-7.194446e+001	-1.073073e+002	-2.320097e-002	1.783492e+002
22993750	-2.533169e-002	1.779074e+002	-7.109551e+001	-1.083595e+002	-7.092894e+001	-1.101601e+002	-2.362849e-002	1.783104e+002
23612500	-2.494501e-002	1.778483e+002	-7.036822e+001	-1.101274e+002	-7.018728e+001	-1.085076e+002	-2.314570e-002	1.782664e+002
24231250	-2.522802e-002	1.777903e+002	-6.957400e+001	-1.089757e+002	-6.975113e+001	-1.079341e+002	-2.325985e-002	1.782237e+002
24850000	-2.507535e-002	1.777295e+002	-6.890324e+001	-1.080241e+002	-6.914236e+001	-1.082583e+002	-2.318292e-002	1.781773e+002
25468750	-2.539502e-002	1.776723e+002	-6.824991e+001	-1.077857e+002	-6.820780e+001	-1.077121e+002	-2.330998e-002	1.781344e+002
26087500	-2.528863e-002	1.776110e+002	-6.752379e+001	-1.077219e+002	-6.737077e+001	-1.078051e+002	-2.328348e-002	1.780876e+002
26706250	-2.582244e-002	1.775501e+002	-6.675387e+001	-1.090242e+002	-6.671051e+001	-1.090325e+002	-2.334226e-002	1.780447e+002
27325000	-2.626794e-002	1.774869e+002	-6.634945e+001	-1.089307e+002	-6.616886e+001	-1.092155e+002	-2.363274e-002	1.779976e+002
27943750	-2.692715e-002	1.774267e+002	-6.553920e+001	-1.073161e+002	-6.552254e+001	-1.084361e+002	-2.420331e-002	1.779506e+002
28562500	-2.768934e-002	1.773662e+002	-6.486930e+001	-1.078030e+002	-6.482347e+001	-1.075231e+002	-2.454848e-002	1.779042e+002
29181250	-2.861288e-002	1.773077e+002	-6.432170e+001	-1.078722e+002	-6.433883e+001	-1.075982e+002	-2.567656e-002	1.778587e+002
29800000	-2.946513e-002	1.772445e+002	-6.378487e+001	-1.072219e+002	-6.375922e+001	-1.069483e+002	-2.646687e-002	1.778102e+002
30418750	-3.083169e-002	1.771829e+002	-6.319152e+001	-1.069326e+002	-6.326171e+001	-1.068647e+002	-2.711537e-002	1.777658e+002
31037500	-3.202891e-002	1.771210e+002	-6.272574e+001	-1.077312e+002	-6.267496e+001	-1.075834e+002	-2.816930e-002	1.777182e+002
31656250	-3.366657e-002	1.770617e+002	-6.212708e+001	-1.076101e+002	-6.202883e+001	-1.067565e+002	-2.937541e-002	1.776692e+002
32275000	-3.540955e-002	1.770015e+002	-6.150749e+001	-1.072135e+002	-6.155605e+001	-1.076751e+002	-3.110223e-002	1.776228e+002
32893750	-3.689026e-002	1.769396e+002	-6.101916e+001	-1.070744e+002	-6.099960e+001	-1.070447e+002	-3.258405e-002	1.775746e+002
33512500	-3.839000e-002	1.768788e+002	-6.043716e+001	-1.070106e+002	-6.040784e+001	-1.071510e+002	-3.439407e-002	1.775252e+002
34131250	-4.021935e-002	1.768187e+002	-5.991672e+001	-1.073438e+002	-5.992176e+001	-1.077165e+002	-3.607552e-002	1.774786e+002
34750000	-4.100077e-002	1.767675e+002	-5.937779e+001	-1.070178e+002	-5.943877e+001	-1.071470e+002	-3.660242e-002	1.774319e+002
35368750	-4.149331e-002	1.767136e+002	-5.893470e+001	-1.075565e+002	-5.895394e+001	-1.070339e+002	-3.743396e-002	1.773862e+002
35987500	-4.278527e-002	1.766610e+002	-5.843221e+001	-1.075871e+002	-5.837549e+001	-1.069889e+002	-3.803822e-002	1.773404e+002
36606250	-4.379917e-002	1.766095e+002	-5.797735e+001	-1.071245e+002	-5.794458e+001	-1.069614e+002	-3.888513e-002	1.772943e+002
37225000	-4.428770e-002	1.765562e+002	-5.741942e+001	-1.069560e+002	-5.739620e+001	-1.070607e+002	-3.926339e-002	1.772482e+002
37843750	-4.487866e-002	1.765054e+002	-5.690831e+001	-1.071862e+002	-5.699622e+001	-1.069960e+002	-3.970504e-002	1.772033e+002
38462500	-4.577135e-002	1.764495e+002	-5.643589e+001	-1.070461e+002	-5.644127e+001	-1.068391e+002	-3.981426e-002	1.771576e+002
39081250	-4.627400e-002	1.763987e+002	-5.601358e+001	-1.068973e+002	-5.596771e+001	-1.070211e+002	-4.028625e-002	1.771123e+002
39700000	-4.717872e-002	1.763448e+002	-5.551490e+001	-1.070493e+002	-5.552406e+001	-1.070124e+002	-4.047168e-002	1.770648e+002
40318750	-4.729837e-002	1.762915e+002	-5.505628e+001	-1.068807e+002	-5.500524e+001	-1.068358e+002	-4.061885e-002	1.770189e+002
40937500	-4.800594e-002	1.762359e+002	-5.457802e+001	-1.070865e+002	-5.459509e+001	-1.071923e+002	-4.077561e-002	1.769709e+002
41556250	-4.843617e-002	1.761850e+002	-5.414326e+001	-1.069716e+002	-5.415503e+001	-1.071685e+002	-4.134860e-002	1.769219e+002
42175000	-4.879574e-002	1.761302e+002	-5.363381e+001	-1.070851e+002	-5.368308e+001	-1.069743e+002	-4.200069e-002	1.768729e+002
42793750	-4.930194e-002	1.760799e+002	-5.321609e+001	-1.072027e+002	-5.323290e+001	-1.069205e+002	-4.272453e-002	1.768255e+002
43412500	-4.989900e-002	1.760248e+002	-5.277137e+001	-1.071549e+002	-5.274259e+001	-1.069279e+002	-4.328911e-002	1.767721e+002
44031250	-5.054532e-002	1.759676e+002	-5.233454e+001	-1.071687e+002	-5.233625e+001	-1.072337e+002	-4.368626e-002	1.767250e+002
44650000	-5.076681e-002	1.759134e+002	-5.190256e+001	-1.071097e+002	-5.192872e+001	-1.071736e+002	-4.421692e-002	1.766758e+002
45268750	-5.161747e-002	1.758559e+002	-5.148008e+001	-1.072766e+002	-5.147944e+001	-1.073555e+002	-4.486273e-002	1.766303e+002
45887500	-5.288497e-002	1.757924e+002	-5.103799e+001	-1.071822e+002	-5.106377e+001	-1.073525e+002	-4.522424e-002	1.765771e+002
46506250	-5.374325e-002	1.757320e+002	-5.061156e+001	-1.072028e+002	-5.063068e+001	-1.072777e+002	-4.880533e-002	1.765319e+002
47125000	-5.514632e-002	1.756645e+002	-5.019440e+001	-1.071898e+002	-5.021557e+001	-1.073834e+002	-4.950043e-002	1.764801e+002
47743750	-5.597052e-002	1.756016e+002	-4.977154e+001	-1.073100e+002	-4.980308e+001	-1.074490e+002	-5.058950e-002	1.764319e+002
48362500	-5.701100e-002	1.755351e+002	-4.935879e+001	-1.074046e+002	-4.937865e+001	-1.074128e+002	-5.132330e-002	1.763758e+002
48981250	-5.842876e-002	1.754671e+002	-4.896673e+001	-1.075062e+002	-4.897370e+001	-1.075412e+002	-5.211437e-002	1.763262e+002
49600000	-5.834567e-002	1.754013e+002	-4.852862e+001	-1.076472e+002	-4.854038e+001	-1.075250e+002	-5.220228e-002	1.762745e+002
50218750	-5.866825e-002	1.753355e+002	-4.810197e+001	-1.075009e+002	-4.811037e+001	-1.076965e+002	-5.248368e-002	1.762209e+002
50837500	-5.849927e-002	1.752689e+002	-4.768926e+001	-1.076736e+002	-4.772468e+001	-1.076401e+002	-5.334645e-002	1.761674e+002
51456250	-5.914287e-002	1.752024e+002	-4.728590e+001	-1.078329e+002	-4.732241e+001	-1.077263e+002	-5.372224e-002	1.761140e+002
52075000	-5.924198e-002	1.751351e+002	-4.689116e+001	-1.077439e+002	-4.689822e+001	-1.077945e+002	-5.485332e-002	1.760604e+002
52693750	-5.963168e-002	1.750694e+002	-4.648711e+001	-1.079222e+002	-4.650807e+001	-1.078171e+002	-5.512377e-002	1.760018e+002
53312500	-5.955659e-002	1.750021e+002	-4.606780e+001	-1.079609e+002	-4.607902e+001	-1.081142e+002	-5.626861e-002	1.759461e+002
53931250	-6.007263e-002	1.749337e+002	-4.565625e+001	-1.080163e+002	-4.567810e+001	-1.082154e+002	-5.717019e-002	1.758904e+002
54550000	-6.052241e-002	1.748654e+002	-4.527071e+001	-1.081400e+002	-4.527750e+001	-1.081570e+002	-5.819450e-002	1.758320e+002
55168750	-6.098448e-002	1.747994e+002	-4.485520e+001	-1.081849e+002	-4.486581e+001	-1.082843e+002	-5.893389e-002	1.757724e+002
55787500	-6.214046e-002	1.747268e+002	-4.445125e+001	-1.083574e+002	-4.446021e+001	-1.083036e+002	-6.048745e-002	1.757122e+002
56406250	-6.251564e-002	1.746569e+002	-4.404805e+001	-1.084156e+002	-4.405838e+001	-1.083736e+002	-6.185602e-002	1.756528e+002
57025000	-6.335748e-002	1.745893e+002	-4.364591e+001	-1.084463e+002	-4.365900e+001	-1.085312e+002	-6.375837e-002	1.755943e+002
57643750	-6.384094e-002	1.745157e+002	-4.325019e+001	-1.086605e+002	-4.326096e+001	-1.086805e+002	-6.516836e-002	1.755309e+002
58262500	-6.467333e-002	1.744480e+002	-4.284215e+001	-1.087779e+002	-4.285268e+001	-1.087441e+002	-6.676484e-002	1.754753e+002
58881250	-6.554347e-002	1.743744e+002	-4.244788e+001	-1.089158e+002	-4.245237e+001	-1.089038e+002	-6.829269e-002	1.754136e+002
59500000	-6.664177e-002	1.742994e+002	-4.203547e+001	-1.089604e+002	-4.205696e+001	-1.089942e+002	-7.014496e-002	1.753544e+002
60118750	-6.800609e-002	1.742254e+002	-4.164156e+001	-1.090958e+002	-4.164327e+001	-1.091279e+002	-7.167936e-002	1.752951e+002
60737500	-6.939863e-002	1.741514e+002	-4.123548e+001	-1.092972e+002	-4.125451e+001	-1.092979e+002	-7.359215e-002	1.752357e+002
61356250	-7.096828e-002	1.740733e+002	-4.082145e+001	-1.094194e+002	-4.084854e+001	-1.094189e+002	-7.500317e-002	1.751750e+002
61975000	-7.205067e-002	1.739937e+002	-4.042771e+001	-1.095655e+002	-4.044214e+001	-1.095643e+002	-7.672557e-002	1.751162e+002
62593750	-7.400199e-002	1.739182e+002	-4.000961e+001	-1.097030e+002	-4.003450e+001	-1.097287e+002	-7.900917e-002	1.750519e+002
63212500	-7.619948e-002	1.738360e+002	-3.960380e+001	-1.098750e+002	-3.962393e+001	-1.099132e+002	-8.043035e-002	1.749903e+002
63831250	-7.776010e-002	1.737524e+002	-3.919932e+001	-1.100532e+002	-3.921941e+001	-1.100858e+002	-8.246332e-002	1.749247e+002
64450000	-7.998200e-002	1.736723e+002	-3.878588e+001	-1.102624e+002	-3.880314e+001	-1.102422e+002	-8.409637e-002	1.748613e+002
65068750	-8.104241e-002	1.736232e+002	-3.836501e+001	-1.104326e+002	-3.837726e+001	-1.104787e+002	-7.858349e-002	1.746508e+002
65687500	-8.336910e-002	1.735365e+002	-3.794519e+001	-1.106580e+002	-3.796358e+001	-1.106606e+002	-8.154371e-002	1.745741e+002
66306250	-8.602271e-002	1.734483e+002	-3.752459e+001	-1.108375e+002	-3.754456e+001	-1.108723e+002	-8.312643e-002	1.745155e+002
66925000	-8.881431e-002	1.733535e+002	-3.710934e+001	-1.111324e+002	-3.712622e+001	-1.111042e+002	-8.436116e-002	1.744631e+002
67543750	-9.219594e-002	1.732585e+002	-3.667573e+001	-1.112873e+002	-3.669749e+001	-1.113508e+002	-8.600956e-002	1.744033e+002
68162500	-9.520167e-002	1.731657e+002	-3.624949e+001	-1.115686e+002	-3.626401e+001	-1.116134e+002	-8.870949e-002	1.743100e+002
68781250	-9.657784e-002	1.730766e+002	-3.581294e+001	-1.118147e+002	-3.583640e+001	-1.118771e+002	-9.255253e-002	1.741869e+002
69400000	-9.913485e-002	1.729793e+002	-3.537751e+001	-1.120835e+002	-3.539711e+001	-1.121776e+002	-9.627288e-002	1.740636e+002
70018750	-1.012337e-001	1.728724e+002	-3.493033e+001	-1.123864e+002	-3.495307e+001	-1.124144e+002	-9.873850e-002	1.739698e+002
70637500	-1.047396e-001	1.727593e+002	-3.448731e+001	-1.126839e+002	-3.450121e+001	-1.127374e+002	-1.011387e-001	1.738917e+002
71256250	-1.081594e-001	1.726393e+002	-3.403005e+001	-1.130056e+002	-3.405140e+001	-1.130404e+002	-1.022226e-001	1.738147e+002
71875000	-1.119912e-001	1.725243e+002	-3.357032e+001	-1.133434e+002	-3.358755e+001	-1.133596e+002	-1.048226e-001	1.737341e+002
72493750	-1.151207e-001	1.724104e+002	-3.310526e+001	-1.137159e+002	-3.312515e+001	-1.137465e+002	-1.096336e-001	1.735915e+002
73112500	-1.190699e-001	1.723044e+002	-3.263420e+001	-1.141032e+002	-3.265367e+001	-1.141392e+002	-1.146367e-001	1.734473e+002
73731250	-1.236207e-001	1.721744e+002	-3.215387e+001	-1.145197e+002	-3.217078e+001	-1.145446e+002	-1.198560e-001	1.733189e+002
74350000	-1.282537e-001	1.720419e+002	-3.166749e+001	-1.149660e+002	-3.168514e+001	-1.149915e+002	-1.243114e-001	1.732091e+002
74968750	-1.346346e-001	1.718966e+002	-3.116690e+001	-1.154126e+002	-3.118770e+001	-1.154598e+002	-1.281773e-001	1.731222e+002
75587500	-1.410831e-001	1.717467e+002	-3.066429e+001	-1.159405e+002	-3.068212e+001	-1.159480e+002	-1.344818e-001	1.730086e+002
76206250	-1.474993e-001	1.716119e+002	-3.014690e+001	-1.164836e+002	-3.016609e+001	-1.165105e+002	-1.421120e-001	1.728251e+002
76825000	-1.557699e-001	1.714650e+002	-2.961845e+001	-1.170827e+002	-2.963692e+001	-1.171037e+002	-1.506912e-001	1.726505e+002
77443750	-1.641687e-001	1.713024e+002	-2.907879e+001	-1.177179e+002	-2.909771e+001	-1.177527e+002	-1.612138e-001	1.724815e+002
78062500	-1.742146e-001	1.711213e+002	-2.852926e+001	-1.184076e+002	-2.854550e+001	-1.184191e+002	-1.701536e-001	1.723398e+002
78681250	-1.862409e-001	1.709276e+002	-2.796146e+001	-1.191598e+002	-2.797891e+001	-1.191844e+002	-1.798398e-001	1.722211e+002
79300000	-1.993650e-001	1.707306e+002	-2.737903e+001	-1.199922e+002	-2.739523e+001	-1.200061e+002	-1.937935e-001	1.720227e+002
79918750	-2.139130e-001	1.705398e+002	-2.677849e+001	-1.209064e+002	-2.679615e+001	-1.209316e+002	-2.094141e-001	1.717636e+002
80537500	-2.311210e-001	1.703328e+002	-2.616219e+001	-1.219043e+002	-2.617980e+001	-1.219339e+002	-2.281029e-001	1.715308e+002
81156250	-2.512745e-001	1.700948e+002	-2.552773e+001	-1.230147e+002	-2.554322e+001	-1.230543e+002	-2.488284e-001	1.713029e+002
81775000	-2.756393e-001	1.698172e+002	-2.486787e+001	-1.242610e+002	-2.488490e+001	-1.242809e+002	-2.722823e-001	1.711123e+002
82393750	-3.041376e-001	1.695414e+002	-2.418592e+001	-1.256462e+002	-2.420453e+001	-1.256548e+002	-3.000033e-001	1.708822e+002
83012500	-3.374661e-001	1.692680e+002	-2.348045e+001	-1.272060e+002	-2.349640e+001	-1.272307e+002	-3.352235e-001	1.705609e+002
83631250	-3.776739e-001	1.689698e+002	-2.274746e+001	-1.289943e+002	-2.276335e+001	-1.290217e+002	-3.779339e-001	1.701882e+002
84250000	-4.277096e-001	1.686495e+002	-2.198625e+001	-1.310164e+002	-2.200104e+001	-1.310530e+002	-4.285020e-001	1.698303e+002
84868750	-4.878339e-001	1.682898e+002	-2.119236e+001	-1.333514e+002	-2.120945e+001	-1.333697e+002	-4.900134e-001	1.695424e+002
85487500	-5.629230e-001	1.679069e+002	-2.037030e+001	-1.360414e+002	-2.038612e+001	-1.360542e+002	-5.659531e-001	1.692559e+002
86106250	-6.557448e-001	1.675479e+002	-1.951747e+001	-1.391940e+002	-1.953396e+001	-1.392061e+002	-6.601593e-001	1.688949e+002
86725000	-7.728651e-001	1.672343e+002	-1.863969e+001	-1.429062e+002	-1.865634e+001	-1.429263e+002	-7.798836e-001	1.685023e+002
87343750	-9.184253e-001	1.669897e+002	-1.774487e+001	-1.472920e+002	-1.776105e+001	-1.473280e+002	-9.300460e-001	1.681647e+002
87962500	-1.097692e+000	1.668714e+002	-1.684741e+001	-1.524876e+002	-1.686343e+001	-1.525216e+002	-1.114656e+000	1.680450e+002
88581250	-1.313977e+000	1.669932e+002	-1.597409e+001	-1.586119e+002	-1.598891e+001	-1.586369e+002	-1.335210e+000	1.682994e+002
89200000	-1.557865e+000	1.675653e+002	-1.516207e+001	-1.657974e+002	-1.517730e+001	-1.658089e+002	-1.585198e+000	1.689845e+002
89818750	-1.803419e+000	1.687802e+002	-1.446700e+001	-1.740587e+002	-1.448223e+001	-1.740780e+002	-1.836520e+000	1.702152e+002
90437500	-1.996771e+000	1.707027e+002	-1.395002e+001	1.767533e+002	-1.396506e+001	1.767199e+002	-2.036015e+000	1.720700e+002
91056250	-2.077350e+000	1.731244e+002	-1.366208e+001	1.670175e+002	-1.367656e+001	1.669770e+002	-2.118172e+000	1.744663e+002
91675000	-2.013109e+000	1.755389e+002	-1.362562e+001	1.572729e+002	-1.364041e+001	1.572310e+002	-2.052533e+000	1.770294e+002
92293750	-1.830430e+000	1.774717e+002	-1.382273e+001	1.480349e+002	-1.383734e+001	1.480073e+002	-1.863929e+000	1.791741e+002
92912500	-1.590669e+000	1.787312e+002	-1.420325e+001	1.396792e+002	-1.421751e+001	1.396572e+002	-1.615194e+000	-1.794413e+002
93531250	-1.346910e+000	1.793953e+002	-1.470596e+001	1.323738e+002	-1.471992e+001	1.323427e+002	-1.364192e+000	-1.788345e+002
94150000	-1.128780e+000	1.796169e+002	-1.527646e+001	1.261238e+002	-1.529069e+001	1.260724e+002	-1.141836e+000	-1.787574e+002
94768750	-9.463123e-001	1.795220e+002	-1.587255e+001	1.208398e+002	-1.588761e+001	1.207850e+002	-9.569636e-001	-1.788631e+002
95387500	-8.007872e-001	1.791815e+002	-1.646896e+001	1.163686e+002	-1.648332e+001	1.163194e+002	-8.039108e-001	-1.790800e+002
96006250	-6.817187e-001	1.788555e+002	-1.704748e+001	1.126026e+002	-1.706230e+001	1.125514e+002	-6.822019e-001	-1.794019e+002
96625000	-5.861936e-001	1.784991e+002	-1.760085e+001	1.093891e+002	-1.761533e+001	1.093371e+002	-5.847052e-001	-1.797814e+002
97243750	-5.103182e-001	1.781391e+002	-1.812431e+001	1.066351e+002	-1.813912e+001	1.065753e+002	-5.064669e-001	1.798193e+002
97862500	-4.490386e-001	1.777966e+002	-1.861762e+001	1.042578e+002	-1.863326e+001	1.042026e+002	-4.438610e-001	1.794505e+002
98481250	-3.982183e-001	1.774652e+002	-1.908053e+001	1.022014e+002	-1.909565e+001	1.021320e+002	-3.926592e-001	1.791109e+002
99100000	-3.571155e-001	1.771424e+002	-1.951358e+001	1.003944e+002	-1.952932e+001	1.003263e+002	-3.504750e-001	1.787963e+002
99718750	-3.225164e-001	1.768506e+002	-1.991948e+001	9.879611e+001	-1.993569e+001	9.873383e+001	-3.158441e-001	1.785120e+002
100337500	-2.942723e-001	1.765820e+002	-2.029879e+001	9.739494e+001	-2.031610e+001	9.732397e+001	-2.872200e-001	1.782640e+002
100956250	-2.697588e-001	1.763131e+002	-2.065556e+001	9.612952e+001	-2.067063e+001	9.606725e+001	-2.620125e-001	1.780396e+002
101575000	-2.493877e-001	1.760632e+002	-2.098837e+001	9.500157e+001	-2.100505e+001	9.493941e+001	-2.414043e-001	1.778493e+002
102193750	-2.321953e-001	1.758378e+002	-2.130245e+001	9.399701e+001	-2.131828e+001	9.393087e+001	-2.244972e-001	1.776869e+002
102812500	-2.162483e-001	1.756172e+002	-2.159698e+001	9.305915e+001	-2.161375e+001	9.301018e+001	-2.096185e-001	1.775128e+002
103431250	-2.033708e-001	1.754130e+002	-2.187361e+001	9.220916e+001	-2.189072e+001	9.215889e+001	-1.966948e-001	1.773342e+002
104050000	-1.918603e-001	1.752361e+002	-2.213396e+001	9.143113e+001	-2.215151e+001	9.138980e+001	-1.856180e-001	1.771559e+002
104668750	-1.820211e-001	1.750669e+002	-2.237982e+001	9.072212e+001	-2.239801e+001	9.066826e+001	-1.745214e-001	1.769672e+002
