!Agilent Technologies,E5071C,MY46101273,A.11.02
!Date: Mon Sep 25 13:49:51 2017
!Data & Calibration Information:
!Freq	S11:SOLT2(ON)	S21:SOLT2(ON)	S12:SOLT2(ON)	S22:SOLT2(ON)
!PortZ  Port1:50+j0    Port2:50+j0
!Above PortZ is port z conversion or system Z0 setting when saving the data.
!When reading, reference impedance value at option line is always used.
# Hz S RI R 50
10000000	-8.072568e-003	-3.078702e-002	9.583079e-001	-1.598639e-001	9.579285e-001	-1.605271e-001	1.461107e-002	-3.263173e-002
10330014	-7.348416e-003	-3.174841e-002	9.550412e-001	-1.778333e-001	9.546434e-001	-1.788203e-001	1.663378e-002	-3.435606e-002
10660027	-7.662458e-003	-3.314802e-002	9.511383e-001	-1.962749e-001	9.506493e-001	-1.968986e-001	1.790054e-002	-3.609084e-002
10990041	-7.926893e-003	-3.384791e-002	9.464661e-001	-2.142144e-001	9.460681e-001	-2.152251e-001	1.903070e-002	-3.834308e-002
11320054	-8.449190e-003	-3.542605e-002	9.411814e-001	-2.323687e-001	9.407567e-001	-2.334987e-001	2.019069e-002	-4.075425e-002
11650068	-1.065995e-002	-3.464388e-002	9.370800e-001	-2.514952e-001	9.348089e-001	-2.474160e-001	2.100030e-002	-4.284549e-002
11980081	-1.132988e-002	-3.545577e-002	9.317134e-001	-2.690105e-001	9.295411e-001	-2.651419e-001	2.219716e-002	-4.476289e-002
12310095	-1.208908e-002	-3.595027e-002	9.261685e-001	-2.861268e-001	9.235254e-001	-2.822831e-001	2.235359e-002	-4.677209e-002
12640108	-1.106653e-002	-3.990424e-002	9.190332e-001	-3.029461e-001	9.181112e-001	-3.039816e-001	2.294244e-002	-4.934296e-002
12970122	-1.200891e-002	-4.074785e-002	9.126685e-001	-3.201261e-001	9.116403e-001	-3.210488e-001	2.346618e-002	-5.162536e-002
13300135	-1.279936e-002	-4.114582e-002	9.062497e-001	-3.370562e-001	9.049075e-001	-3.380747e-001	2.365081e-002	-5.383711e-002
13684901	-1.431268e-002	-4.255743e-002	8.978218e-001	-3.570175e-001	8.966905e-001	-3.576320e-001	2.417833e-002	-5.616890e-002
14136522	-1.772769e-002	-4.119827e-002	8.885855e-001	-3.807187e-001	8.861566e-001	-3.764490e-001	2.455915e-002	-5.913238e-002
14588142	-1.931761e-002	-4.177628e-002	8.778983e-001	-4.035346e-001	8.755761e-001	-3.991851e-001	2.497204e-002	-6.226018e-002
15039762	-2.119427e-002	-4.244323e-002	8.665219e-001	-4.258771e-001	8.642608e-001	-4.212311e-001	2.480433e-002	-6.535463e-002
15491382	-2.338914e-002	-4.296918e-002	8.544977e-001	-4.478420e-001	8.524257e-001	-4.430974e-001	2.458106e-002	-6.835949e-002
15943003	-2.338797e-002	-4.558659e-002	8.413555e-001	-4.684447e-001	8.398808e-001	-4.688842e-001	2.443833e-002	-7.174234e-002
16394623	-2.550054e-002	-4.603509e-002	8.280321e-001	-4.897031e-001	8.268224e-001	-4.898856e-001	2.382468e-002	-7.458105e-002
16846243	-2.764458e-002	-4.616625e-002	8.144730e-001	-5.104701e-001	8.133630e-001	-5.106115e-001	2.359580e-002	-7.758300e-002
17297863	-3.175580e-002	-4.329120e-002	8.012266e-001	-5.322307e-001	7.996686e-001	-5.271830e-001	2.305741e-002	-8.057382e-002
17749484	-3.402951e-002	-4.349413e-002	7.864406e-001	-5.523575e-001	7.852116e-001	-5.472878e-001	2.235276e-002	-8.375795e-002
18201104	-3.640121e-002	-4.313579e-002	7.713002e-001	-5.720857e-001	7.701884e-001	-5.668058e-001	2.128646e-002	-8.681262e-002
18727652	-3.879108e-002	-4.234180e-002	7.533540e-001	-5.945049e-001	7.524667e-001	-5.892752e-001	2.041181e-002	-8.991725e-002
19345690	-4.026146e-002	-4.387941e-002	7.302129e-001	-6.189244e-001	7.291432e-001	-6.189206e-001	1.863180e-002	-9.433562e-002
19963728	-4.329723e-002	-4.256400e-002	7.069480e-001	-6.437856e-001	7.061949e-001	-6.436630e-001	1.697714e-002	-9.787243e-002
20581766	-4.831602e-002	-3.877245e-002	6.835127e-001	-6.689230e-001	6.835464e-001	-6.634858e-001	1.483760e-002	-1.017033e-001
21199804	-5.108135e-002	-3.694924e-002	6.588849e-001	-6.919943e-001	6.590608e-001	-6.866693e-001	1.310985e-002	-1.056118e-001
21817842	-5.410570e-002	-3.497938e-002	6.328627e-001	-7.141585e-001	6.336050e-001	-7.085502e-001	1.043637e-002	-1.091748e-001
22435880	-5.488095e-002	-3.476390e-002	6.065741e-001	-7.341500e-001	6.062076e-001	-7.336095e-001	8.457552e-003	-1.122700e-001
23053918	-5.709722e-002	-3.208950e-002	5.859266e-001	-7.492568e-001	5.856370e-001	-7.488074e-001	6.652621e-003	-1.156004e-001
23671955	-5.906424e-002	-2.931353e-002	5.676771e-001	-7.625856e-001	5.670887e-001	-7.620001e-001	5.341818e-003	-1.185327e-001
24289993	-6.109568e-002	-2.603064e-002	5.486080e-001	-7.750703e-001	5.483365e-001	-7.748927e-001	4.374658e-003	-1.211701e-001
24908031	-6.297501e-002	-2.316310e-002	5.292678e-001	-7.870564e-001	5.292519e-001	-7.868785e-001	2.986138e-003	-1.236168e-001
25628607	-6.452292e-002	-1.913906e-002	5.064805e-001	-8.007036e-001	5.064613e-001	-8.004423e-001	1.366112e-003	-1.265120e-001
26487143	-6.621542e-002	-1.363677e-002	4.790578e-001	-8.158596e-001	4.786694e-001	-8.157518e-001	1.613354e-005	-1.302237e-001
27345678	-6.745516e-002	-8.731946e-003	4.508367e-001	-8.302799e-001	4.506866e-001	-8.304662e-001	-1.424417e-003	-1.334488e-001
28204213	-6.785470e-002	-2.738091e-003	4.219683e-001	-8.436814e-001	4.219416e-001	-8.436011e-001	-2.973632e-003	-1.369174e-001
29062749	-6.780646e-002	2.601584e-003	3.927472e-001	-8.560740e-001	3.927618e-001	-8.560870e-001	-4.575965e-003	-1.401411e-001
29921284	-6.753448e-002	8.651844e-003	3.633859e-001	-8.673702e-001	3.634883e-001	-8.675075e-001	-5.841242e-003	-1.430364e-001
30779819	-6.623622e-002	1.452343e-002	3.333223e-001	-8.777312e-001	3.333710e-001	-8.777306e-001	-7.195136e-003	-1.463520e-001
31638355	-6.428699e-002	2.081362e-002	3.030278e-001	-8.870551e-001	3.028416e-001	-8.871135e-001	-8.319020e-003	-1.495042e-001
32496890	-6.197677e-002	2.657588e-002	2.721034e-001	-8.952885e-001	2.723473e-001	-8.954593e-001	-9.288753e-003	-1.524135e-001
33355425	-5.901309e-002	3.270659e-002	2.413538e-001	-9.025197e-001	2.415120e-001	-9.024686e-001	-1.017645e-002	-1.558354e-001
34213961	-5.515552e-002	3.850526e-002	2.102945e-001	-9.086408e-001	2.104024e-001	-9.085605e-001	-1.116210e-002	-1.589416e-001
35072496	-5.092144e-002	4.457125e-002	1.792312e-001	-9.139613e-001	1.792757e-001	-9.138669e-001	-1.189737e-002	-1.620510e-001
36087125	-4.450788e-002	5.122298e-002	1.421370e-001	-9.191039e-001	1.422098e-001	-9.188899e-001	-1.247877e-002	-1.656806e-001
37278049	-3.653297e-002	5.822309e-002	9.843027e-002	-9.227782e-001	9.853847e-002	-9.226086e-001	-1.327858e-002	-1.697896e-001
38468973	-2.756883e-002	6.448854e-002	5.456547e-002	-9.243571e-001	5.451166e-002	-9.244979e-001	-1.361779e-002	-1.743703e-001
39659897	-1.713597e-002	6.997194e-002	1.053923e-002	-9.240295e-001	1.050390e-002	-9.239169e-001	-1.424517e-002	-1.789337e-001
40850821	-5.845687e-003	7.466980e-002	-3.341164e-002	-9.217178e-001	-3.380065e-002	-9.212583e-001	-1.446007e-002	-1.833553e-001
42041745	5.967343e-003	7.790362e-002	-7.723099e-002	-9.167162e-001	-7.767350e-002	-9.164053e-001	-1.493856e-002	-1.884356e-001
43232669	1.914689e-002	8.018452e-002	-1.211316e-001	-9.099925e-001	-1.216922e-001	-9.093384e-001	-1.495548e-002	-1.934325e-001
44423593	3.212555e-002	8.091725e-002	-1.645251e-001	-9.008048e-001	-1.649910e-001	-9.001096e-001	-1.558107e-002	-1.989672e-001
45614517	4.601651e-002	8.063009e-002	-2.076125e-001	-8.896160e-001	-2.083270e-001	-8.887631e-001	-1.556576e-002	-2.043446e-001
46805441	5.991539e-002	7.864345e-002	-2.504076e-001	-8.755643e-001	-2.507278e-001	-8.749518e-001	-1.623089e-002	-2.101702e-001
47996365	7.374534e-002	7.533888e-002	-2.920694e-001	-8.596699e-001	-2.927587e-001	-8.592421e-001	-1.685380e-002	-2.157251e-001
49384874	9.040032e-002	6.937872e-002	-3.403321e-001	-8.385032e-001	-3.405620e-001	-8.380976e-001	-1.739228e-002	-2.225899e-001
51014642	1.097588e-001	6.024689e-002	-3.952348e-001	-8.100892e-001	-3.953912e-001	-8.099270e-001	-1.843284e-002	-2.309863e-001
52644410	1.277117e-001	4.743479e-002	-4.480277e-001	-7.780143e-001	-4.481673e-001	-7.777578e-001	-1.959792e-002	-2.397560e-001
54274177	1.445659e-001	3.201349e-002	-4.985559e-001	-7.418128e-001	-4.985843e-001	-7.418449e-001	-2.109527e-002	-2.489272e-001
55903945	1.593374e-001	1.408963e-002	-5.463564e-001	-7.022180e-001	-5.465210e-001	-7.019749e-001	-2.334554e-002	-2.584757e-001
57533713	1.715826e-001	-6.220026e-003	-5.912965e-001	-6.591652e-001	-5.912390e-001	-6.592325e-001	-2.646489e-002	-2.674123e-001
59163480	1.810628e-001	-2.874995e-002	-6.332593e-001	-6.130305e-001	-6.329345e-001	-6.129675e-001	-3.006300e-002	-2.767847e-001
60793248	1.870739e-001	-5.306900e-002	-6.716794e-001	-5.635753e-001	-6.713731e-001	-5.639503e-001	-3.416061e-002	-2.852396e-001
62423016	1.894304e-001	-7.846948e-002	-7.065672e-001	-5.116372e-001	-7.063258e-001	-5.118126e-001	-3.866894e-002	-2.938634e-001
64052784	1.882211e-001	-1.040829e-001	-7.378450e-001	-4.568976e-001	-7.373053e-001	-4.575632e-001	-4.403498e-002	-3.016877e-001
65682551	1.817998e-001	-1.295745e-001	-7.655407e-001	-4.002050e-001	-7.651369e-001	-4.003028e-001	-4.878757e-002	-3.081417e-001
67582713	1.699003e-001	-1.580109e-001	-7.921824e-001	-3.312768e-001	-7.915918e-001	-3.318538e-001	-5.580863e-002	-3.154499e-001
69813034	1.483324e-001	-1.883749e-001	-8.162429e-001	-2.468758e-001	-8.159942e-001	-2.474661e-001	-6.334094e-002	-3.220218e-001
72043355	1.190781e-001	-2.131484e-001	-8.320730e-001	-1.596474e-001	-8.316413e-001	-1.603633e-001	-7.051783e-002	-3.264982e-001
74273676	8.285992e-002	-2.301152e-001	-8.386744e-001	-6.981228e-002	-8.383022e-001	-7.048781e-002	-7.570353e-002	-3.296716e-001
76503997	4.160907e-002	-2.367605e-001	-8.358997e-001	2.196172e-002	-8.357879e-001	2.120422e-002	-7.919179e-002	-3.309203e-001
78734318	-2.905865e-003	-2.313881e-001	-8.227670e-001	1.150812e-001	-8.230959e-001	1.143436e-001	-7.962786e-002	-3.308999e-001
80964639	-4.768861e-002	-2.115730e-001	-7.983063e-001	2.090930e-001	-7.986245e-001	2.084594e-001	-7.572534e-002	-3.306683e-001
83194960	-8.852565e-002	-1.760808e-001	-7.608470e-001	3.023628e-001	-7.614539e-001	3.016403e-001	-6.773054e-002	-3.315609e-001
85425281	-1.207632e-001	-1.244100e-001	-7.093383e-001	3.928963e-001	-7.103940e-001	3.925806e-001	-5.483003e-002	-3.346578e-001
87655602	-1.378646e-001	-5.763872e-002	-6.423301e-001	4.782646e-001	-6.430607e-001	4.782844e-001	-3.553477e-002	-3.421763e-001
89885923	-1.336913e-001	2.058295e-002	-5.591921e-001	5.538015e-001	-5.602128e-001	5.542066e-001	-1.380870e-002	-3.572664e-001
92486275	-9.482213e-002	1.178615e-001	-4.429302e-001	6.235096e-001	-4.436055e-001	6.242536e-001	1.428286e-002	-3.864061e-001
95538448	3.852911e-003	2.200371e-001	-2.864580e-001	6.693592e-001	-2.867397e-001	6.701765e-001	4.411368e-002	-4.391343e-001
98590620	1.514322e-001	2.807709e-001	-1.247139e-001	6.666685e-001	-1.247028e-001	6.671705e-001	5.877195e-002	-5.111572e-001
101642792	3.251433e-001	2.773926e-001	2.095044e-002	6.157291e-001	2.094082e-002	6.159781e-001	4.901435e-002	-5.948962e-001
104694965	4.896426e-001	2.063615e-001	1.325199e-001	5.304404e-001	1.324004e-001	5.305669e-001	1.242421e-002	-6.769494e-001
107747137	6.163013e-001	8.357778e-002	2.034098e-001	4.297221e-001	2.034403e-001	4.298054e-001	-4.642849e-002	-7.442887e-001
110799309	6.940210e-001	-6.649651e-002	2.369582e-001	3.313926e-001	2.369025e-001	3.314577e-001	-1.175790e-001	-7.941037e-001
113851482	7.241608e-001	-2.204981e-001	2.434280e-001	2.459873e-001	2.433182e-001	2.459908e-001	-1.922808e-001	-8.259219e-001
116903654	7.161712e-001	-3.637514e-001	2.334534e-001	1.766503e-001	2.333715e-001	1.769210e-001	-2.670439e-001	-8.392260e-001
119955826	6.814385e-001	-4.896409e-001	2.144794e-001	1.234825e-001	2.144651e-001	1.236765e-001	-3.350208e-001	-8.412750e-001
123007999	6.287209e-001	-5.957963e-001	1.921124e-001	8.360606e-002	1.921130e-001	8.390477e-002	-3.970013e-001	-8.343602e-001
126566555	5.553752e-001	-6.961145e-001	1.656663e-001	5.038759e-002	1.656842e-001	5.071333e-002	-4.606505e-001	-8.189128e-001
130743422	4.619425e-001	-7.857310e-001	1.372113e-001	2.455943e-002	1.373019e-001	2.476129e-002	-5.250911e-001	-7.944905e-001
134920290	3.670525e-001	-8.511098e-001	1.127713e-001	8.476765e-003	1.128912e-001	8.573063e-003	-5.789035e-001	-7.676354e-001
139097158	2.759531e-001	-8.972315e-001	9.255182e-002	-1.488486e-003	9.261772e-002	-1.419752e-003	-6.259299e-001	-7.377504e-001
143274026	1.887259e-001	-9.286112e-001	7.582823e-002	-7.477328e-003	7.588158e-002	-7.333723e-003	-6.658817e-001	-7.086567e-001
147450893	1.069745e-001	-9.489910e-001	6.240384e-002	-1.077188e-002	6.233239e-002	-1.068038e-002	-6.993901e-001	-6.817209e-001
151627761	3.141359e-002	-9.598806e-001	5.137738e-002	-1.247363e-002	5.140738e-002	-1.227456e-002	-7.292957e-001	-6.534372e-001
155804629	-3.921519e-002	-9.645506e-001	4.248911e-002	-1.303355e-002	4.247222e-002	-1.300468e-002	-7.559610e-001	-6.251299e-001
159981496	-1.041342e-001	-9.630059e-001	3.526709e-002	-1.301116e-002	3.531216e-002	-1.298830e-002	-7.798734e-001	-5.983857e-001
164158364	-1.637421e-001	-9.579239e-001	2.934061e-002	-1.263830e-002	2.933579e-002	-1.249271e-002	-8.005033e-001	-5.722597e-001
168335232	-2.196318e-001	-9.495235e-001	2.437336e-002	-1.195325e-002	2.451294e-002	-1.191668e-002	-8.192843e-001	-5.465015e-001
173205081	-2.789996e-001	-9.370160e-001	1.991771e-002	-1.107520e-002	1.994158e-002	-1.097029e-002	-8.406265e-001	-5.167978e-001
179007296	-3.429403e-001	-9.173843e-001	1.571530e-002	-9.888128e-003	1.573377e-002	-9.881303e-003	-8.590307e-001	-4.853372e-001
184809510	-4.004640e-001	-8.961102e-001	1.246192e-002	-8.773153e-003	1.232871e-002	-8.813292e-003	-8.770946e-001	-4.543356e-001
190611725	-4.528033e-001	-8.717748e-001	9.866769e-003	-7.749569e-003	9.895593e-003	-7.673506e-003	-8.912480e-001	-4.251881e-001
196413940	-4.991669e-001	-8.481026e-001	7.849550e-003	-6.754954e-003	7.940225e-003	-6.853301e-003	-9.045139e-001	-3.973629e-001
202216155	-5.422669e-001	-8.225185e-001	6.307016e-003	-6.020992e-003	6.358728e-003	-5.965189e-003	-9.167075e-001	-3.698303e-001
208018369	-5.815999e-001	-7.966907e-001	5.158441e-003	-5.290422e-003	5.151334e-003	-5.221491e-003	-9.258716e-001	-3.446137e-001
213820584	-6.174696e-001	-7.707185e-001	4.129837e-003	-4.537495e-003	4.101171e-003	-4.583993e-003	-9.356284e-001	-3.196757e-001
219622799	-6.497610e-001	-7.448076e-001	3.361303e-003	-4.039219e-003	3.346926e-003	-4.026801e-003	-9.439590e-001	-2.946333e-001
225425014	-6.801914e-001	-7.186005e-001	2.732395e-003	-3.517395e-003	2.659276e-003	-3.527019e-003	-9.505967e-001	-2.723412e-001
231227228	-7.075795e-001	-6.929820e-001	2.144073e-003	-3.076347e-003	2.199316e-003	-3.077615e-003	-9.569068e-001	-2.513107e-001
237029443	-7.322772e-001	-6.670860e-001	1.771917e-003	-2.750188e-003	1.828231e-003	-2.702500e-003	-9.631204e-001	-2.302214e-001
243886579	-7.584991e-001	-6.380928e-001	1.337706e-003	-2.333313e-003	1.438351e-003	-2.385791e-003	-9.697538e-001	-2.045280e-001
251935167	-7.865376e-001	-6.032005e-001	1.028661e-003	-1.987019e-003	1.023879e-003	-1.960962e-003	-9.739199e-001	-1.767973e-001
259983754	-8.112141e-001	-5.699088e-001	7.204913e-004	-1.648573e-003	8.075923e-004	-1.683627e-003	-9.781734e-001	-1.509907e-001
268032342	-8.334721e-001	-5.370385e-001	5.565519e-004	-1.327523e-003	5.710171e-004	-1.367025e-003	-9.818236e-001	-1.254182e-001
276080929	-8.531157e-001	-5.053898e-001	4.552833e-004	-1.163221e-003	4.356013e-004	-1.220816e-003	-9.844563e-001	-1.010942e-001
284129516	-8.709776e-001	-4.745369e-001	2.835214e-004	-9.920916e-004	2.686804e-004	-1.044112e-003	-9.860140e-001	-7.770097e-002
292178104	-8.869798e-001	-4.449007e-001	1.288868e-004	-7.792750e-004	1.820003e-004	-8.508059e-004	-9.870895e-001	-5.529083e-002
300226691	-9.014035e-001	-4.157081e-001	1.103109e-004	-7.847922e-004	1.259644e-004	-7.265983e-004	-9.882767e-001	-3.306545e-002
308275278	-9.138388e-001	-3.871093e-001	9.302233e-006	-6.130446e-004	5.140647e-005	-5.615941e-004	-9.887399e-001	-1.213586e-002
316323866	-9.248339e-001	-3.592829e-001	-3.155966e-005	-4.921438e-004	-3.489706e-005	-5.737237e-004	-9.893337e-001	7.708321e-003
324372453	-9.346994e-001	-3.322743e-001	-9.974692e-005	-4.378091e-004	-7.867218e-005	-4.146557e-004	-9.883731e-001	2.888784e-002
333756376	-9.448927e-001	-3.022332e-001	-1.163462e-004	-2.775822e-004	-1.185549e-004	-3.131459e-004	-9.861745e-001	5.292072e-002
344770789	-9.555714e-001	-2.678326e-001	-1.048718e-004	-2.118979e-004	-1.614031e-004	-3.038421e-004	-9.855578e-001	7.915523e-002
355785201	-9.646688e-001	-2.337072e-001	-1.300302e-004	-2.203846e-004	-1.606048e-004	-1.883947e-004	-9.843589e-001	1.012124e-001
366799614	-9.721177e-001	-2.027254e-001	-1.464632e-004	-9.633090e-005	-8.626152e-005	-1.730824e-004	-9.793142e-001	1.274778e-001
377814026	-9.783457e-001	-1.717222e-001	-1.674612e-004	-3.136574e-005	-1.946386e-004	-9.867579e-005	-9.746795e-001	1.526931e-001
388828438	-9.821977e-001	-1.386287e-001	-1.734776e-004	-6.095398e-005	-2.262043e-004	-1.349915e-004	-9.712327e-001	1.754379e-001
399842851	-9.852980e-001	-1.095983e-001	-1.919517e-004	-4.611203e-005	-2.461776e-004	-6.095597e-005	-9.688482e-001	1.927219e-001
410857263	-9.875719e-001	-8.109022e-002	-1.668976e-004	-8.708324e-005	-1.804871e-004	-1.966471e-006	-9.644208e-001	2.124400e-001
421871675	-9.891058e-001	-5.267720e-002	-2.350751e-004	-6.579858e-005	-1.806846e-004	-6.571538e-005	-9.579143e-001	2.323626e-001
432886088	-9.905591e-001	-2.489151e-002	-2.181076e-004	-6.714669e-005	-2.299136e-004	-2.906365e-005	-9.524227e-001	2.536698e-001
443900500	-9.913171e-001	1.489869e-003	-2.918779e-004	-3.327845e-005	-2.325035e-004	-3.962171e-005	-9.464327e-001	2.747776e-001
456742306	-9.915711e-001	3.091014e-002	-3.082996e-004	4.450209e-005	-2.854489e-004	1.856525e-005	-9.396421e-001	2.979311e-001
471815421	-9.886469e-001	6.415728e-002	-2.712075e-004	8.038957e-005	-2.868743e-004	1.610724e-005	-9.311480e-001	3.242557e-001
486888536	-9.853192e-001	9.638103e-002	-3.559602e-004	2.738944e-005	-3.419399e-004	6.690584e-005	-9.224306e-001	3.493971e-001
501961650	-9.809919e-001	1.274915e-001	-3.184320e-004	2.740922e-005	-4.096536e-004	1.143253e-004	-9.130940e-001	3.732503e-001
517034765	-9.769237e-001	1.580835e-001	-4.338290e-004	4.376497e-005	-4.325469e-004	1.004656e-004	-9.027981e-001	3.956803e-001
532107880	-9.721354e-001	1.883363e-001	-4.333800e-004	1.801479e-004	-5.072747e-004	7.596002e-005	-8.923053e-001	4.175924e-001
547180994	-9.663155e-001	2.168860e-001	-4.686255e-004	2.590324e-004	-4.476505e-004	2.347321e-004	-8.812318e-001	4.395791e-001
562254109	-9.595966e-001	2.438023e-001	-5.070276e-004	1.801418e-004	-4.282599e-004	2.349710e-004	-8.703059e-001	4.610720e-001
577327223	-9.512857e-001	2.708235e-001	-4.597919e-004	3.005333e-004	-4.342309e-004	2.613944e-004	-8.591443e-001	4.807643e-001
592400338	-9.432800e-001	2.966870e-001	-5.098566e-004	3.179735e-004	-4.812214e-004	2.111342e-004	-8.471512e-001	5.008236e-001
607473453	-9.353307e-001	3.211630e-001	-5.290299e-004	3.825704e-004	-4.778457e-004	3.128920e-004	-8.361071e-001	5.205128e-001
625047338	-9.242075e-001	3.510269e-001	-4.169700e-004	3.474085e-004	-5.313810e-004	3.932633e-004	-8.212067e-001	5.413588e-001
645674746	-9.097789e-001	3.836464e-001	-5.579674e-004	4.285643e-004	-5.650741e-004	3.999583e-004	-8.024961e-001	5.669573e-001
666302155	-8.953942e-001	4.156962e-001	-5.718427e-004	4.245649e-004	-5.721996e-004	4.537396e-004	-7.852182e-001	5.906160e-001
686929563	-8.800968e-001	4.478570e-001	-6.065217e-004	5.104991e-004	-6.084316e-004	4.526095e-004	-7.655859e-001	6.137156e-001
707556972	-8.643148e-001	4.765115e-001	-6.521084e-004	5.820758e-004	-6.008336e-004	5.393159e-004	-7.458851e-001	6.370330e-001
728184380	-8.475069e-001	5.042281e-001	-6.645091e-004	6.356339e-004	-6.400566e-004	6.457427e-004	-7.276100e-001	6.578988e-001
748811789	-8.309829e-001	5.313656e-001	-6.012872e-004	7.245776e-004	-6.743504e-004	6.808299e-004	-7.073513e-001	6.784796e-001
769439197	-8.128741e-001	5.579647e-001	-6.426112e-004	7.743377e-004	-7.308762e-004	7.321022e-004	-6.884036e-001	6.984356e-001
790066606	-7.938866e-001	5.841099e-001	-5.158053e-004	9.490782e-004	-6.702001e-004	9.292614e-004	-6.678518e-001	7.173101e-001
