!Agilent Technologies,E5071C,MY46101273,A.11.02
!Date: Mon Sep 25 13:55:57 2017
!Data & Calibration Information:
!Freq	S11:SOLT2(ON)	S21:SOLT2(ON)	S12:SOLT2(ON)	S22:SOLT2(ON)
!PortZ  Port1:50+j0    Port2:50+j0
!Above PortZ is port z conversion or system Z0 setting when saving the data.
!When reading, reference impedance value at option line is always used.
# Hz S RI R 50
10000000	-8.078736e-003	-3.038054e-002	9.587755e-001	-1.601054e-001	9.583765e-001	-1.607478e-001	1.435858e-002	-3.212088e-002
10330014	-7.733588e-003	-3.166543e-002	9.552216e-001	-1.782448e-001	9.549700e-001	-1.791264e-001	1.587717e-002	-3.405427e-002
10660027	-7.849923e-003	-3.245702e-002	9.512660e-001	-1.964444e-001	9.508309e-001	-1.975691e-001	1.726065e-002	-3.595614e-002
10990041	-7.982263e-003	-3.372281e-002	9.467359e-001	-2.146293e-001	9.461171e-001	-2.157607e-001	1.837235e-002	-3.814345e-002
11320054	-8.431918e-003	-3.523289e-002	9.415731e-001	-2.328064e-001	9.409348e-001	-2.337796e-001	1.952948e-002	-4.040420e-002
11650068	-1.111393e-002	-3.373044e-002	9.373647e-001	-2.514161e-001	9.349519e-001	-2.478302e-001	2.060683e-002	-4.260310e-002
11980081	-1.161268e-002	-3.514876e-002	9.320221e-001	-2.692559e-001	9.296064e-001	-2.654874e-001	2.117978e-002	-4.462558e-002
12310095	-1.201304e-002	-3.604362e-002	9.262671e-001	-2.869471e-001	9.239209e-001	-2.828021e-001	2.186981e-002	-4.674489e-002
12640108	-1.056751e-002	-3.945304e-002	9.195625e-001	-3.034622e-001	9.183374e-001	-3.041664e-001	2.231532e-002	-4.889703e-002
12970122	-1.173890e-002	-4.016287e-002	9.133219e-001	-3.206269e-001	9.121728e-001	-3.214686e-001	2.324400e-002	-5.093290e-002
13300135	-1.252656e-002	-4.093475e-002	9.063801e-001	-3.377878e-001	9.052221e-001	-3.387428e-001	2.354619e-002	-5.332376e-002
13684901	-1.400386e-002	-4.176431e-002	8.982153e-001	-3.575991e-001	8.971082e-001	-3.582435e-001	2.370268e-002	-5.571182e-002
14136522	-1.744408e-002	-4.083918e-002	8.888403e-001	-3.815065e-001	8.864191e-001	-3.773708e-001	2.432334e-002	-5.876289e-002
14588142	-1.912087e-002	-4.142135e-002	8.782464e-001	-4.040753e-001	8.756917e-001	-3.996068e-001	2.421047e-002	-6.180207e-002
15039762	-2.110056e-002	-4.226696e-002	8.666763e-001	-4.263317e-001	8.644851e-001	-4.221130e-001	2.445650e-002	-6.495777e-002
15491382	-2.310584e-002	-4.277836e-002	8.544766e-001	-4.484014e-001	8.524018e-001	-4.435942e-001	2.404736e-002	-6.783104e-002
15943003	-2.299057e-002	-4.556626e-002	8.415646e-001	-4.691850e-001	8.401249e-001	-4.693838e-001	2.386983e-002	-7.066290e-002
16394623	-2.514702e-002	-4.573449e-002	8.283392e-001	-4.902753e-001	8.269085e-001	-4.905807e-001	2.322875e-002	-7.387284e-002
16846243	-2.757632e-002	-4.596695e-002	8.145755e-001	-5.112422e-001	8.132339e-001	-5.113317e-001	2.274319e-002	-7.711078e-002
17297863	-3.171768e-002	-4.326257e-002	8.013301e-001	-5.327649e-001	7.997843e-001	-5.279810e-001	2.226912e-002	-8.016979e-002
17749484	-3.375158e-002	-4.353513e-002	7.864456e-001	-5.531060e-001	7.852555e-001	-5.478898e-001	2.164770e-002	-8.309924e-002
18201104	-3.611943e-002	-4.310956e-002	7.713638e-001	-5.726583e-001	7.702686e-001	-5.675438e-001	2.049302e-002	-8.591638e-002
18727652	-3.848185e-002	-4.231597e-002	7.532085e-001	-5.952652e-001	7.522240e-001	-5.900893e-001	1.972111e-002	-8.960066e-002
19345690	-3.942529e-002	-4.384338e-002	7.302009e-001	-6.199146e-001	7.292643e-001	-6.197395e-001	1.795620e-002	-9.343868e-002
19963728	-4.253952e-002	-4.235028e-002	7.070456e-001	-6.446433e-001	7.061408e-001	-6.442086e-001	1.587713e-002	-9.705287e-002
20581766	-4.757659e-002	-3.867139e-002	6.835820e-001	-6.699132e-001	6.832952e-001	-6.643211e-001	1.415500e-002	-1.011023e-001
21199804	-5.059664e-002	-3.721574e-002	6.584571e-001	-6.928689e-001	6.589850e-001	-6.874896e-001	1.218542e-002	-1.044512e-001
21817842	-5.341472e-002	-3.533617e-002	6.326329e-001	-7.150189e-001	6.333963e-001	-7.093972e-001	9.600668e-003	-1.082488e-001
22435880	-5.391517e-002	-3.495602e-002	6.062896e-001	-7.350604e-001	6.056574e-001	-7.342723e-001	6.950852e-003	-1.115648e-001
23053918	-5.659818e-002	-3.210374e-002	5.859124e-001	-7.502913e-001	5.855163e-001	-7.498223e-001	5.616942e-003	-1.143842e-001
23671955	-5.853187e-002	-2.940119e-002	5.671473e-001	-7.635251e-001	5.666995e-001	-7.631128e-001	4.544562e-003	-1.172204e-001
24289993	-6.049866e-002	-2.667985e-002	5.481855e-001	-7.758519e-001	5.479883e-001	-7.758270e-001	3.848963e-003	-1.196748e-001
24908031	-6.220058e-002	-2.320628e-002	5.290059e-001	-7.880267e-001	5.286220e-001	-7.878432e-001	2.125465e-003	-1.225541e-001
25628607	-6.399717e-002	-1.914887e-002	5.064231e-001	-8.016188e-001	5.058453e-001	-8.016819e-001	9.138155e-004	-1.254680e-001
26487143	-6.548519e-002	-1.414239e-002	4.784896e-001	-8.169239e-001	4.783749e-001	-8.169902e-001	-6.590084e-004	-1.288808e-001
27345678	-6.644062e-002	-9.060861e-003	4.503730e-001	-8.315065e-001	4.500450e-001	-8.312011e-001	-2.537055e-003	-1.320679e-001
28204213	-6.715573e-002	-3.621636e-003	4.216924e-001	-8.447748e-001	4.212067e-001	-8.445701e-001	-4.003828e-003	-1.354682e-001
29062749	-6.756510e-002	2.118620e-003	3.922547e-001	-8.570592e-001	3.919519e-001	-8.572028e-001	-5.343947e-003	-1.387561e-001
29921284	-6.660319e-002	7.852114e-003	3.625229e-001	-8.685740e-001	3.625477e-001	-8.685059e-001	-6.802260e-003	-1.416681e-001
30779819	-6.574828e-002	1.358413e-002	3.325232e-001	-8.788541e-001	3.324863e-001	-8.789151e-001	-8.100177e-003	-1.447577e-001
31638355	-6.407656e-002	1.969808e-002	3.021447e-001	-8.879420e-001	3.018724e-001	-8.881324e-001	-9.421771e-003	-1.479841e-001
32496890	-6.167498e-002	2.577241e-002	2.713661e-001	-8.962757e-001	2.714669e-001	-8.963284e-001	-1.052017e-002	-1.512894e-001
33355425	-5.859705e-002	3.146843e-002	2.401311e-001	-9.033202e-001	2.405717e-001	-9.033829e-001	-1.162987e-002	-1.539026e-001
34213961	-5.486455e-002	3.763608e-002	2.091617e-001	-9.096593e-001	2.094899e-001	-9.096098e-001	-1.235701e-002	-1.571579e-001
35072496	-5.066975e-002	4.314753e-002	1.779228e-001	-9.150002e-001	1.780704e-001	-9.148541e-001	-1.292571e-002	-1.602369e-001
36087125	-4.470736e-002	4.947161e-002	1.408860e-001	-9.197140e-001	1.408540e-001	-9.197964e-001	-1.362428e-002	-1.638024e-001
37278049	-3.662746e-002	5.661140e-002	9.729587e-002	-9.236158e-001	9.724245e-002	-9.233392e-001	-1.468924e-002	-1.681175e-001
38468973	-2.750488e-002	6.323981e-002	5.322462e-002	-9.254227e-001	5.288804e-002	-9.252454e-001	-1.475556e-002	-1.725256e-001
39659897	-1.732342e-002	6.883806e-002	9.326663e-003	-9.250639e-001	8.878666e-003	-9.246662e-001	-1.542352e-002	-1.766286e-001
40850821	-6.436787e-003	7.306102e-002	-3.486467e-002	-9.222711e-001	-3.533040e-002	-9.218435e-001	-1.595412e-002	-1.814124e-001
42041745	5.763897e-003	7.637327e-002	-7.893499e-002	-9.175147e-001	-7.949289e-002	-9.170699e-001	-1.605515e-002	-1.863127e-001
43232669	1.812059e-002	7.876878e-002	-1.228612e-001	-9.107549e-001	-1.232467e-001	-9.098560e-001	-1.653013e-002	-1.916067e-001
44423593	3.099385e-002	7.955937e-002	-1.661232e-001	-9.013618e-001	-1.670809e-001	-9.004364e-001	-1.681931e-002	-1.969340e-001
45614517	4.483709e-002	7.912944e-002	-2.093876e-001	-8.901465e-001	-2.102197e-001	-8.891852e-001	-1.703238e-002	-2.021143e-001
46805441	5.848183e-002	7.765802e-002	-2.521697e-001	-8.761363e-001	-2.526118e-001	-8.753722e-001	-1.790073e-002	-2.075182e-001
47996365	7.251625e-002	7.431312e-002	-2.943505e-001	-8.601976e-001	-2.947792e-001	-8.594915e-001	-1.818733e-002	-2.133157e-001
49384874	8.889733e-002	6.854295e-002	-3.423996e-001	-8.386742e-001	-3.425867e-001	-8.384642e-001	-1.902614e-002	-2.197898e-001
51014642	1.077331e-001	5.945976e-002	-3.972008e-001	-8.103100e-001	-3.976949e-001	-8.100456e-001	-1.980249e-002	-2.284054e-001
52644410	1.257902e-001	4.677537e-002	-4.502846e-001	-7.779064e-001	-4.504362e-001	-7.779928e-001	-2.136748e-002	-2.367691e-001
54274177	1.422115e-001	3.160505e-002	-5.006580e-001	-7.415430e-001	-5.008019e-001	-7.416249e-001	-2.304020e-002	-2.462685e-001
55903945	1.571054e-001	1.404152e-002	-5.487560e-001	-7.021294e-001	-5.486666e-001	-7.017659e-001	-2.531837e-002	-2.553116e-001
57533713	1.691540e-001	-6.262865e-003	-5.935088e-001	-6.587291e-001	-5.937395e-001	-6.587429e-001	-2.841135e-002	-2.642939e-001
59163480	1.789331e-001	-2.835306e-002	-6.356830e-001	-6.122562e-001	-6.355746e-001	-6.122555e-001	-3.207783e-002	-2.734385e-001
60793248	1.849794e-001	-5.206229e-002	-6.741649e-001	-5.629746e-001	-6.740298e-001	-5.629890e-001	-3.612421e-002	-2.820964e-001
62423016	1.875835e-001	-7.707552e-002	-7.090344e-001	-5.106675e-001	-7.087756e-001	-5.108275e-001	-4.093404e-002	-2.903950e-001
64052784	1.859991e-001	-1.025665e-001	-7.401392e-001	-4.560271e-001	-7.398978e-001	-4.562050e-001	-4.634529e-002	-2.986914e-001
65682551	1.802109e-001	-1.276011e-001	-7.681428e-001	-3.988392e-001	-7.673698e-001	-3.989481e-001	-5.145321e-002	-3.047060e-001
67582713	1.684442e-001	-1.562211e-001	-7.946401e-001	-3.295254e-001	-7.938202e-001	-3.299939e-001	-5.835134e-002	-3.119382e-001
69813034	1.474800e-001	-1.861139e-001	-8.186862e-001	-2.447712e-001	-8.180007e-001	-2.453227e-001	-6.591511e-002	-3.182146e-001
72043355	1.184565e-001	-2.108830e-001	-8.339402e-001	-1.574122e-001	-8.335648e-001	-1.582820e-001	-7.379554e-002	-3.230699e-001
74273676	8.295997e-002	-2.277034e-001	-8.405725e-001	-6.718772e-002	-8.403093e-001	-6.813095e-002	-7.900913e-002	-3.255697e-001
76503997	4.213054e-002	-2.347571e-001	-8.375166e-001	2.460090e-002	-8.375039e-001	2.407861e-002	-8.225723e-002	-3.266957e-001
78734318	-1.964495e-003	-2.292867e-001	-8.242718e-001	1.180624e-001	-8.244097e-001	1.173484e-001	-8.298686e-002	-3.268500e-001
80964639	-4.630722e-002	-2.100200e-001	-7.992768e-001	2.121619e-001	-7.995871e-001	2.116987e-001	-7.917386e-002	-3.262743e-001
83194960	-8.629721e-002	-1.751840e-001	-7.615435e-001	3.055392e-001	-7.624565e-001	3.050102e-001	-7.150597e-002	-3.271071e-001
85425281	-1.183002e-001	-1.242625e-001	-7.098871e-001	3.961241e-001	-7.107421e-001	3.959582e-001	-5.852437e-002	-3.302144e-001
87655602	-1.354274e-001	-5.851325e-002	-6.421891e-001	4.816441e-001	-6.432907e-001	4.816866e-001	-3.977786e-002	-3.376237e-001
89885923	-1.321528e-001	1.936671e-002	-5.591076e-001	5.571618e-001	-5.598222e-001	5.576170e-001	-1.782819e-002	-3.528334e-001
92486275	-9.377227e-002	1.158935e-001	-4.423609e-001	6.271923e-001	-4.431270e-001	6.278073e-001	1.000658e-002	-3.821171e-001
95538448	3.550347e-003	2.175750e-001	-2.854477e-001	6.728702e-001	-2.857739e-001	6.736119e-001	3.929895e-002	-4.351596e-001
98590620	1.500137e-001	2.787044e-001	-1.230053e-001	6.700573e-001	-1.230539e-001	6.707747e-001	5.342682e-002	-5.071715e-001
101642792	3.229551e-001	2.765536e-001	2.338198e-002	6.190688e-001	2.349751e-002	6.195173e-001	4.305879e-002	-5.911587e-001
104694965	4.874605e-001	2.064259e-001	1.356647e-001	5.329789e-001	1.357622e-001	5.330733e-001	5.541230e-003	-6.734152e-001
107747137	6.149701e-001	8.448692e-002	2.070806e-001	4.314352e-001	2.070584e-001	4.315739e-001	-5.495120e-002	-7.409430e-001
110799309	6.930975e-001	-6.514539e-002	2.406587e-001	3.322680e-001	2.407426e-001	3.322922e-001	-1.274558e-001	-7.901869e-001
113851482	7.238812e-001	-2.192031e-001	2.469416e-001	2.460835e-001	2.467419e-001	2.459449e-001	-2.039756e-001	-8.213180e-001
116903654	7.163535e-001	-3.627268e-001	2.365823e-001	1.761321e-001	2.365344e-001	1.762848e-001	-2.798341e-001	-8.332209e-001
119955826	6.816649e-001	-4.887957e-001	2.171502e-001	1.225953e-001	2.170566e-001	1.226858e-001	-3.487736e-001	-8.346754e-001
123007999	6.295841e-001	-5.952772e-001	1.943156e-001	8.242901e-002	1.942909e-001	8.260903e-002	-4.118643e-001	-8.261101e-001
126566555	5.559401e-001	-6.958760e-001	1.674296e-001	4.911267e-002	1.674276e-001	4.929232e-002	-4.762958e-001	-8.094066e-001
130743422	4.623781e-001	-7.858112e-001	1.384543e-001	2.332814e-002	1.384966e-001	2.334661e-002	-5.412821e-001	-7.823856e-001
134920290	3.676921e-001	-8.508154e-001	1.136348e-001	7.136778e-003	1.136936e-001	7.321962e-003	-5.961731e-001	-7.545159e-001
139097158	2.761949e-001	-8.973315e-001	9.303994e-002	-2.737629e-003	9.309307e-002	-2.590900e-003	-6.430725e-001	-7.223297e-001
143274026	1.892731e-001	-9.286920e-001	7.623418e-002	-8.581065e-003	7.630823e-002	-8.367923e-003	-6.831964e-001	-6.913780e-001
147450893	1.073223e-001	-9.486394e-001	6.257429e-002	-1.159416e-002	6.260769e-002	-1.158074e-002	-7.168571e-001	-6.627300e-001
151627761	3.136257e-002	-9.602167e-001	5.154546e-002	-1.320533e-002	5.157013e-002	-1.310387e-002	-7.467232e-001	-6.334284e-001
155804629	-3.878394e-002	-9.651297e-001	4.249912e-002	-1.375843e-002	4.258819e-002	-1.363527e-002	-7.732248e-001	-6.035165e-001
159981496	-1.037762e-001	-9.633701e-001	3.516653e-002	-1.362460e-002	3.520893e-002	-1.360649e-002	-7.964165e-001	-5.745748e-001
164158364	-1.638602e-001	-9.586938e-001	2.926577e-002	-1.309409e-002	2.928874e-002	-1.310771e-002	-8.174430e-001	-5.472877e-001
168335232	-2.189529e-001	-9.498429e-001	2.444637e-002	-1.248317e-002	2.444575e-002	-1.236250e-002	-8.360502e-001	-5.203026e-001
173205081	-2.790150e-001	-9.370339e-001	1.987426e-002	-1.140162e-002	1.990822e-002	-1.139901e-002	-8.561248e-001	-4.893297e-001
179007296	-3.433861e-001	-9.177550e-001	1.561953e-002	-1.020121e-002	1.558345e-002	-1.015121e-002	-8.750678e-001	-4.551667e-001
184809510	-4.004257e-001	-8.960798e-001	1.240852e-002	-9.014932e-003	1.229167e-002	-8.960881e-003	-8.922598e-001	-4.220950e-001
190611725	-4.527678e-001	-8.722332e-001	9.756130e-003	-7.864372e-003	9.810972e-003	-7.845634e-003	-9.063139e-001	-3.917445e-001
196413940	-4.992489e-001	-8.482127e-001	7.840633e-003	-6.985852e-003	7.877857e-003	-6.932047e-003	-9.193022e-001	-3.622260e-001
202216155	-5.426436e-001	-8.227904e-001	6.359476e-003	-6.083767e-003	6.271800e-003	-6.056981e-003	-9.306092e-001	-3.325135e-001
208018369	-5.816911e-001	-7.967333e-001	5.085459e-003	-5.336967e-003	5.064307e-003	-5.349595e-003	-9.394210e-001	-3.057943e-001
213820584	-6.172927e-001	-7.711714e-001	4.149841e-003	-4.649237e-003	4.141827e-003	-4.662470e-003	-9.478539e-001	-2.792533e-001
219622799	-6.501147e-001	-7.446582e-001	3.374815e-003	-4.123785e-003	3.384567e-003	-4.072761e-003	-9.556055e-001	-2.539241e-001
225425014	-6.802289e-001	-7.184997e-001	2.691718e-003	-3.610973e-003	2.776126e-003	-3.631951e-003	-9.616671e-001	-2.293665e-001
231227228	-7.081970e-001	-6.928874e-001	2.248394e-003	-3.131047e-003	2.252354e-003	-3.133159e-003	-9.671670e-001	-2.065944e-001
237029443	-7.327050e-001	-6.671139e-001	1.933475e-003	-2.761771e-003	1.893586e-003	-2.792640e-003	-9.726171e-001	-1.835348e-001
243886579	-7.586436e-001	-6.379065e-001	1.420385e-003	-2.376271e-003	1.535720e-003	-2.459582e-003	-9.781806e-001	-1.569545e-001
251935167	-7.868524e-001	-6.033468e-001	1.143137e-003	-2.126962e-003	1.113122e-003	-2.070212e-003	-9.813833e-001	-1.269730e-001
259983754	-8.117687e-001	-5.696423e-001	8.740622e-004	-1.779729e-003	8.962955e-004	-1.730501e-003	-9.845713e-001	-9.923347e-002
268032342	-8.336593e-001	-5.370875e-001	6.799879e-004	-1.491354e-003	6.762922e-004	-1.470627e-003	-9.868955e-001	-7.207412e-002
276080929	-8.534465e-001	-5.052338e-001	4.669197e-004	-1.255588e-003	5.649768e-004	-1.314865e-003	-9.881374e-001	-4.607805e-002
284129516	-8.714030e-001	-4.744779e-001	4.352795e-004	-1.089834e-003	3.965398e-004	-1.111013e-003	-9.886942e-001	-2.102231e-002
292178104	-8.872886e-001	-4.447847e-001	3.706149e-004	-9.341844e-004	3.398834e-004	-1.011503e-003	-9.882535e-001	3.376965e-003
300226691	-9.017908e-001	-4.154330e-001	3.466303e-004	-9.365730e-004	3.041091e-004	-9.096530e-004	-9.881679e-001	2.703417e-002
308275278	-9.140950e-001	-3.868386e-001	2.265059e-004	-8.189408e-004	2.040570e-004	-8.764479e-004	-9.871219e-001	4.943552e-002
316323866	-9.250999e-001	-3.589427e-001	9.746267e-005	-7.449548e-004	7.476988e-005	-6.968936e-004	-9.866311e-001	7.062370e-002
324372453	-9.352018e-001	-3.316637e-001	1.275108e-004	-7.519978e-004	1.180149e-004	-7.024606e-004	-9.836403e-001	9.385935e-002
333756376	-9.454057e-001	-3.013847e-001	1.008821e-004	-7.462063e-004	1.039892e-004	-6.929225e-004	-9.798605e-001	1.202807e-001
344770789	-9.561189e-001	-2.669023e-001	6.922622e-006	-7.792004e-004	2.387948e-005	-7.810969e-004	-9.766241e-001	1.480973e-001
355785201	-9.648375e-001	-2.330828e-001	-6.474675e-005	-7.934130e-004	-8.395570e-005	-7.754028e-004	-9.735315e-001	1.731142e-001
366799614	-9.727773e-001	-2.011927e-001	-2.144374e-004	-9.242703e-004	-1.205632e-004	-9.202008e-004	-9.650595e-001	2.005206e-001
377814026	-9.784187e-001	-1.704152e-001	-3.503793e-004	-1.004096e-003	-3.228106e-004	-1.091861e-003	-9.577254e-001	2.277314e-001
388828438	-9.822450e-001	-1.371936e-001	-7.465817e-004	-1.347136e-003	-7.429392e-004	-1.405440e-003	-9.494085e-001	2.532676e-001
399842851	-9.853771e-001	-1.081754e-001	-1.766214e-003	-1.470936e-003	-1.727802e-003	-1.450513e-003	-9.401078e-001	2.707544e-001
410857263	-9.872693e-001	-7.971091e-002	-2.749755e-003	3.631854e-005	-2.670804e-003	-8.177932e-005	-9.303950e-001	2.823859e-001
421871675	-9.891774e-001	-5.117138e-002	-1.809350e-003	1.305985e-003	-1.779926e-003	1.306477e-003	-9.291135e-001	2.983644e-001
432886088	-9.898156e-001	-2.419565e-002	-9.260246e-004	1.253074e-003	-8.829744e-004	1.312908e-003	-9.254752e-001	3.212242e-001
443900500	-9.908055e-001	2.778168e-003	-4.418563e-004	1.078400e-003	-4.152354e-004	1.072232e-003	-9.195171e-001	3.448936e-001
456742306	-9.907389e-001	3.239910e-002	-2.065942e-004	8.816101e-004	-3.036300e-004	8.293698e-004	-9.114617e-001	3.701510e-001
471815421	-9.884983e-001	6.566478e-002	-2.410082e-004	6.879400e-004	-2.545720e-004	6.954396e-004	-9.003165e-001	3.980522e-001
486888536	-9.852952e-001	9.831734e-002	-2.290239e-004	6.894918e-004	-2.184525e-004	5.804207e-004	-8.892953e-001	4.245584e-001
501961650	-9.813248e-001	1.295165e-001	-1.774183e-004	5.101134e-004	-1.249505e-004	4.216543e-004	-8.772561e-001	4.494392e-001
517034765	-9.767659e-001	1.597401e-001	-1.730324e-004	4.768552e-004	-1.953732e-004	5.288676e-004	-8.642205e-001	4.727171e-001
532107880	-9.718549e-001	1.901103e-001	-1.177180e-004	4.834229e-004	-1.465978e-004	5.380212e-004	-8.511307e-001	4.947318e-001
547180994	-9.660435e-001	2.184784e-001	-1.409772e-004	3.689861e-004	-1.602225e-004	3.773198e-004	-8.379106e-001	5.169625e-001
562254109	-9.594526e-001	2.460030e-001	-3.327303e-004	5.118249e-004	-3.244969e-004	4.140742e-004	-8.226472e-001	5.376407e-001
577327223	-9.511730e-001	2.726028e-001	-3.091497e-005	5.008433e-004	-3.425367e-005	4.423530e-004	-8.104227e-001	5.581675e-001
592400338	-9.430639e-001	2.985623e-001	-6.183090e-006	3.097563e-004	5.167691e-006	3.054928e-004	-7.962323e-001	5.778960e-001
607473453	-9.351486e-001	3.237115e-001	-4.681719e-005	2.879267e-004	-3.678694e-005	2.763144e-004	-7.821662e-001	5.974626e-001
625047338	-9.233168e-001	3.532323e-001	-1.004351e-004	1.944546e-004	-1.442538e-004	1.590671e-004	-7.641747e-001	6.190578e-001
645674746	-9.088489e-001	3.858811e-001	-6.363854e-005	9.700629e-005	-1.593270e-004	1.140375e-004	-7.421436e-001	6.416921e-001
666302155	-8.941578e-001	4.183511e-001	-2.965294e-004	3.815096e-005	-3.544375e-004	2.640772e-005	-7.225276e-001	6.639518e-001
686929563	-8.789333e-001	4.505575e-001	-4.160873e-004	-1.431627e-005	-4.324071e-004	-7.171824e-006	-7.004804e-001	6.866999e-001
707556972	-8.629287e-001	4.795311e-001	-7.177081e-004	5.470400e-005	-7.202349e-004	1.302558e-004	-6.782576e-001	7.075562e-001
728184380	-8.463973e-001	5.066438e-001	-5.950118e-004	3.075721e-004	-6.273048e-004	4.110984e-004	-6.580897e-001	7.266960e-001
748811789	-8.298552e-001	5.338589e-001	-5.816289e-004	1.307804e-004	-6.147401e-004	1.081744e-004	-6.361743e-001	7.464480e-001
769439197	-8.117443e-001	5.606491e-001	-7.646180e-004	2.186262e-004	-6.513588e-004	1.498083e-004	-6.151744e-001	7.635557e-001
790066606	-7.920945e-001	5.866259e-001	-1.012596e-003	2.627835e-005	-9.852669e-004	6.020057e-005	-5.920484e-001	7.806719e-001
810694015	-7.742131e-001	6.103141e-001	-1.329727e-003	2.574750e-004	-1.357436e-003	2.790161e-004	-5.684789e-001	7.955154e-001
