!Agilent Technologies,E5071C,MY46101151,A.11.02
!Date: Sun Sep 24 17:06:19 2017
!Data & Calibration Information:
!Freq	S11:SOLT2(ON)	S21:SOLT2(ON)	S12:SOLT2(ON)	S22:SOLT2(ON)
!PortZ  Port1:50+j0    Port2:50+j0
!Above PortZ is port z conversion or system Z0 setting when saving the data.
!When reading, reference impedance value at option line is always used.
# Hz S dB R 50
100000	-1.217847e-001	9.379387e+000	-6.877700e+001	1.356061e+002	-6.169708e+001	7.511052e+001	1.494665e-002	9.505932e+000
22599500	-4.712436e-002	-7.006073e+000	-1.850100e+001	8.305638e+001	-1.850961e+001	8.318305e+001	-5.296340e-002	-6.878740e+000
45099000	-2.323889e-001	-1.370818e+001	-1.269638e+001	7.639128e+001	-1.270225e+001	7.641919e+001	-2.378934e-001	-1.356355e+001
67598500	-5.322607e-001	-2.010885e+001	-9.492188e+000	7.007116e+001	-9.484418e+000	7.002767e+001	-5.129504e-001	-1.983286e+001
90098000	-8.826105e-001	-2.595551e+001	-7.357386e+000	6.411248e+001	-7.368676e+000	6.414913e+001	-8.817742e-001	-2.569078e+001
112597500	-1.316857e+000	-3.132025e+001	-5.850997e+000	5.869119e+001	-5.864590e+000	5.888595e+001	-1.309398e+000	-3.105199e+001
135097000	-1.783752e+000	-3.617176e+001	-4.742094e+000	5.391903e+001	-4.752819e+000	5.399761e+001	-1.775606e+000	-3.580538e+001
157596500	-2.263829e+000	-4.050356e+001	-3.899317e+000	4.968438e+001	-3.917035e+000	4.964572e+001	-2.270599e+000	-4.012484e+001
180096000	-2.778400e+000	-4.441206e+001	-3.261279e+000	4.580022e+001	-3.271432e+000	4.581171e+001	-2.774517e+000	-4.391010e+001
202595500	-3.286661e+000	-4.783361e+001	-2.759401e+000	4.242233e+001	-2.771286e+000	4.242864e+001	-3.276341e+000	-4.728859e+001
225095000	-3.784142e+000	-5.091026e+001	-2.361590e+000	3.940081e+001	-2.368517e+000	3.941890e+001	-3.767801e+000	-5.025314e+001
247594500	-4.278940e+000	-5.364894e+001	-2.042901e+000	3.665756e+001	-2.044530e+000	3.674888e+001	-4.258429e+000	-5.300166e+001
270094000	-4.745175e+000	-5.598684e+001	-1.788503e+000	3.426591e+001	-1.783350e+000	3.432648e+001	-4.740476e+000	-5.521972e+001
292593500	-5.205303e+000	-5.816785e+001	-1.566936e+000	3.214378e+001	-1.569193e+000	3.215435e+001	-5.200602e+000	-5.741602e+001
315093000	-5.650148e+000	-6.010485e+001	-1.388753e+000	3.019994e+001	-1.384778e+000	3.022291e+001	-5.658448e+000	-5.936263e+001
337592500	-6.081901e+000	-6.184579e+001	-1.236295e+000	2.837037e+001	-1.243064e+000	2.856833e+001	-6.073796e+000	-6.110200e+001
360092000	-6.498911e+000	-6.362505e+001	-1.108047e+000	2.687725e+001	-1.117953e+000	2.686972e+001	-6.490009e+000	-6.253908e+001
382591500	-6.931549e+000	-6.490345e+001	-1.010260e+000	2.534395e+001	-1.014028e+000	2.543325e+001	-6.883613e+000	-6.388513e+001
405091000	-7.293400e+000	-6.622786e+001	-9.175862e-001	2.411070e+001	-9.199773e-001	2.412355e+001	-7.253298e+000	-6.516430e+001
427590500	-7.645674e+000	-6.746510e+001	-8.347390e-001	2.296394e+001	-8.380224e-001	2.297452e+001	-7.619677e+000	-6.625399e+001
450090000	-7.990892e+000	-6.864065e+001	-7.682416e-001	2.186733e+001	-7.669908e-001	2.191252e+001	-7.969159e+000	-6.736036e+001
472589500	-8.338595e+000	-6.986034e+001	-7.043862e-001	2.082468e+001	-7.064899e-001	2.094016e+001	-8.295165e+000	-6.826476e+001
495089000	-8.661325e+000	-7.088704e+001	-6.498218e-001	1.991550e+001	-6.571617e-001	1.995659e+001	-8.600860e+000	-6.907025e+001
517588500	-8.953712e+000	-7.166867e+001	-6.013998e-001	1.906773e+001	-6.070243e-001	1.911399e+001	-8.907417e+000	-6.996815e+001
540088000	-9.240700e+000	-7.255273e+001	-5.579565e-001	1.828203e+001	-5.617765e-001	1.832538e+001	-9.204416e+000	-7.075252e+001
562587500	-9.535368e+000	-7.345131e+001	-5.208535e-001	1.755583e+001	-5.229253e-001	1.755725e+001	-9.505237e+000	-7.131316e+001
585087000	-9.820491e+000	-7.413833e+001	-4.865147e-001	1.684913e+001	-4.891532e-001	1.684561e+001	-9.770455e+000	-7.202273e+001
607586500	-1.009055e+001	-7.479981e+001	-4.575221e-001	1.622713e+001	-4.578355e-001	1.620136e+001	-1.002856e+001	-7.254416e+001
630086000	-1.035060e+001	-7.563195e+001	-4.254178e-001	1.563047e+001	-4.282150e-001	1.563239e+001	-1.031533e+001	-7.309396e+001
652585500	-1.061412e+001	-7.612074e+001	-4.028130e-001	1.506114e+001	-3.986332e-001	1.507213e+001	-1.056940e+001	-7.390621e+001
675085000	-1.084444e+001	-7.689245e+001	-3.758171e-001	1.453291e+001	-3.770923e-001	1.453757e+001	-1.080415e+001	-7.434481e+001
697584500	-1.108870e+001	-7.747052e+001	-3.560291e-001	1.404195e+001	-3.552826e-001	1.399866e+001	-1.105353e+001	-7.458267e+001
720084000	-1.134444e+001	-7.813821e+001	-3.354528e-001	1.354176e+001	-3.358464e-001	1.351214e+001	-1.130593e+001	-7.489474e+001
742583500	-1.156806e+001	-7.859516e+001	-3.157690e-001	1.308413e+001	-3.179340e-001	1.307523e+001	-1.151427e+001	-7.523506e+001
765083000	-1.176451e+001	-7.909364e+001	-3.048774e-001	1.263773e+001	-3.072258e-001	1.265398e+001	-1.174711e+001	-7.538771e+001
787582500	-1.201322e+001	-7.953569e+001	-2.882034e-001	1.220141e+001	-2.900924e-001	1.223704e+001	-1.195561e+001	-7.601685e+001
810082000	-1.224005e+001	-7.971648e+001	-2.758785e-001	1.179803e+001	-2.761675e-001	1.184469e+001	-1.214013e+001	-7.629724e+001
832581500	-1.241674e+001	-8.032628e+001	-2.617322e-001	1.144883e+001	-2.628736e-001	1.145200e+001	-1.232397e+001	-7.637145e+001
855081000	-1.261999e+001	-8.073959e+001	-2.550324e-001	1.109344e+001	-2.513808e-001	1.111214e+001	-1.251983e+001	-7.663512e+001
877580500	-1.281509e+001	-8.096401e+001	-2.419368e-001	1.075963e+001	-2.423124e-001	1.075249e+001	-1.272536e+001	-7.686183e+001
900080000	-1.300722e+001	-8.150611e+001	-2.332076e-001	1.045727e+001	-2.349515e-001	1.045718e+001	-1.291099e+001	-7.685877e+001
922579500	-1.316717e+001	-8.174084e+001	-2.269144e-001	1.017377e+001	-2.237902e-001	1.021291e+001	-1.303400e+001	-7.732688e+001
945079000	-1.332535e+001	-8.246160e+001	-2.124418e-001	9.911420e+000	-2.128153e-001	9.965680e+000	-1.319542e+001	-7.730901e+001
967578500	-1.348645e+001	-8.285130e+001	-2.018945e-001	9.631043e+000	-1.983611e-001	9.659386e+000	-1.339054e+001	-7.783962e+001
990078000	-1.365164e+001	-8.337078e+001	-1.927607e-001	9.350243e+000	-1.842582e-001	9.414996e+000	-1.354169e+001	-7.827130e+001
1012577500	-1.384879e+001	-8.354919e+001	-1.801764e-001	9.070153e+000	-1.771221e-001	9.110619e+000	-1.373771e+001	-7.836648e+001
1035077000	-1.402972e+001	-8.390038e+001	-1.688571e-001	8.824777e+000	-1.700908e-001	8.854524e+000	-1.392966e+001	-7.862371e+001
1057576500	-1.418965e+001	-8.411243e+001	-1.639644e-001	8.575870e+000	-1.639941e-001	8.591276e+000	-1.412198e+001	-7.832333e+001
1080076000	-1.441117e+001	-8.472750e+001	-1.546827e-001	8.316392e+000	-1.539595e-001	8.313144e+000	-1.426271e+001	-7.841508e+001
1102575500	-1.455738e+001	-8.470483e+001	-1.491416e-001	8.079126e+000	-1.497547e-001	8.088970e+000	-1.445084e+001	-7.852220e+001
1125075000	-1.471300e+001	-8.502617e+001	-1.414571e-001	7.886502e+000	-1.413811e-001	7.860010e+000	-1.466991e+001	-7.880051e+001
1147574500	-1.490078e+001	-8.572533e+001	-1.387129e-001	7.661918e+000	-1.374051e-001	7.673749e+000	-1.479134e+001	-7.864051e+001
1170074000	-1.510135e+001	-8.596665e+001	-1.330692e-001	7.458743e+000	-1.305748e-001	7.510269e+000	-1.492765e+001	-7.893072e+001
1192573500	-1.521648e+001	-8.633999e+001	-1.234673e-001	7.264725e+000	-1.241192e-001	7.311450e+000	-1.509087e+001	-7.902549e+001
1215073000	-1.535233e+001	-8.715365e+001	-1.143065e-001	7.038291e+000	-1.158062e-001	7.074599e+000	-1.521819e+001	-7.964307e+001
1237572500	-1.560520e+001	-8.682584e+001	-1.173604e-001	6.808172e+000	-1.121432e-001	6.858965e+000	-1.542314e+001	-7.952322e+001
1260072000	-1.576872e+001	-8.670671e+001	-1.182974e-001	6.615504e+000	-1.144085e-001	6.665942e+000	-1.558193e+001	-7.929933e+001
1282571500	-1.588784e+001	-8.638514e+001	-1.195345e-001	6.458819e+000	-1.162119e-001	6.497042e+000	-1.577113e+001	-7.873871e+001
1305071000	-1.600378e+001	-8.613582e+001	-1.158935e-001	6.360032e+000	-1.161923e-001	6.395358e+000	-1.585999e+001	-7.825852e+001
1327570500	-1.614333e+001	-8.682289e+001	-1.068909e-001	6.236265e+000	-1.060640e-001	6.229352e+000	-1.598114e+001	-7.885196e+001
1350070000	-1.636146e+001	-8.707061e+001	-9.690463e-002	6.099128e+000	-9.539880e-002	6.079956e+000	-1.616557e+001	-7.860573e+001
1372569500	-1.652435e+001	-8.773623e+001	-9.104878e-002	5.910033e+000	-9.157725e-002	5.876294e+000	-1.636313e+001	-7.917137e+001
1395069000	-1.670735e+001	-8.859665e+001	-8.499151e-002	5.752823e+000	-8.696867e-002	5.732424e+000	-1.649672e+001	-7.904183e+001
1417568500	-1.690093e+001	-8.847412e+001	-8.063246e-002	5.603663e+000	-8.080358e-002	5.591179e+000	-1.666644e+001	-7.930094e+001
1440068000	-1.704021e+001	-8.858969e+001	-7.442515e-002	5.456586e+000	-7.329017e-002	5.444264e+000	-1.685577e+001	-7.911185e+001
1462567500	-1.723167e+001	-8.920061e+001	-6.833584e-002	5.313750e+000	-6.632425e-002	5.291828e+000	-1.701049e+001	-7.952383e+001
1485067000	-1.745963e+001	-8.990979e+001	-6.362351e-002	5.152846e+000	-6.126335e-002	5.113918e+000	-1.714732e+001	-7.881246e+001
1507566500	-1.767325e+001	-8.956768e+001	-6.275369e-002	4.976019e+000	-5.983540e-002	4.926872e+000	-1.745372e+001	-7.918383e+001
1530066000	-1.783854e+001	-8.996363e+001	-6.118429e-002	4.793458e+000	-6.187991e-002	4.762139e+000	-1.765601e+001	-7.909427e+001
1552565500	-1.804352e+001	-8.957828e+001	-5.940512e-002	4.672846e+000	-5.872503e-002	4.664045e+000	-1.782253e+001	-7.863095e+001
1575065000	-1.831188e+001	-8.931312e+001	-5.518072e-002	4.513444e+000	-5.719442e-002	4.496554e+000	-1.813218e+001	-7.846498e+001
1597564500	-1.853744e+001	-8.983150e+001	-5.013919e-002	4.376434e+000	-5.066718e-002	4.355477e+000	-1.824890e+001	-7.779189e+001
1620064000	-1.875277e+001	-8.941151e+001	-5.435768e-002	4.251776e+000	-5.430553e-002	4.213467e+000	-1.847683e+001	-7.745100e+001
1642563500	-1.898456e+001	-8.955791e+001	-5.776903e-002	4.138564e+000	-5.547987e-002	4.104646e+000	-1.872306e+001	-7.745184e+001
1665063000	-1.924932e+001	-9.000626e+001	-5.720149e-002	4.012497e+000	-5.471658e-002	3.988228e+000	-1.896404e+001	-7.765714e+001
1687562500	-1.944158e+001	-9.030696e+001	-5.116372e-002	3.880101e+000	-4.913033e-002	3.859608e+000	-1.913387e+001	-7.698283e+001
1710062000	-1.979984e+001	-8.946308e+001	-5.411712e-002	3.761671e+000	-4.957067e-002	3.746026e+000	-1.938968e+001	-7.661985e+001
1732561500	-2.007881e+001	-8.958989e+001	-5.342967e-002	3.632167e+000	-5.338648e-002	3.599345e+000	-1.968581e+001	-7.625468e+001
1755061000	-2.036042e+001	-8.935626e+001	-5.315409e-002	3.501316e+000	-5.497611e-002	3.465043e+000	-1.978787e+001	-7.529901e+001
1777560500	-2.044136e+001	-8.905390e+001	-5.810046e-002	3.393409e+000	-5.942704e-002	3.371331e+000	-2.005197e+001	-7.439434e+001
1800060000	-2.054528e+001	-8.862157e+001	-6.524211e-002	3.364598e+000	-6.666433e-002	3.328145e+000	-2.027860e+001	-7.340215e+001
1822559500	-2.084435e+001	-9.138905e+001	-5.857517e-002	3.343478e+000	-4.788630e-002	3.269975e+000	-2.086957e+001	-7.174212e+001
1845059000	-2.203546e+001	-9.797374e+001	-4.482515e-002	3.320374e+000	-2.733097e-002	3.118279e+000	-2.211623e+001	-6.821643e+001
1867558500	-2.370219e+001	-1.098212e+002	-2.580744e-002	3.365125e+000	-2.292160e-002	2.938369e+000	-2.363819e+001	-6.184321e+001
1890058000	-2.519279e+001	-1.247323e+002	2.157768e-002	3.311156e+000	-1.736139e-002	2.831485e+000	-2.474031e+001	-5.319748e+001
1912557500	-2.647446e+001	-1.356082e+002	7.801337e-002	3.097237e+000	-1.454564e-002	2.698713e+000	-2.477172e+001	-4.629079e+001
1935057000	-2.782770e+001	-1.277152e+002	1.444589e-001	2.645310e+000	-6.673292e-003	2.557583e+000	-2.305995e+001	-4.946670e+001
1957556500	-2.652093e+001	-9.175928e+001	1.978991e-001	1.943135e+000	1.801809e-002	2.243601e+000	-2.034901e+001	-6.005397e+001
1980056000	-2.104231e+001	-6.664940e+001	2.100028e-001	1.002461e+000	3.787462e-002	1.632105e+000	-1.714521e+001	-7.218540e+001
2002555500	-1.625235e+001	-6.054394e+001	1.546397e-001	1.064581e-002	-2.015114e-003	7.587294e-001	-1.408617e+001	-8.231540e+001
2025055000	-1.291775e+001	-6.077377e+001	2.889936e-002	-7.162378e-001	-1.374237e-001	-7.879196e-002	-1.156039e+001	-9.009482e+001
2047554500	-1.069889e+001	-6.378582e+001	-1.456407e-001	-8.747180e-001	-3.680549e-001	-3.097598e-001	-9.654787e+000	-9.605866e+001
2070054000	-9.347569e+000	-6.838591e+001	-3.184740e-001	-3.451966e-001	-6.093271e-001	5.143520e-001	-8.352944e+000	-1.006941e+002
2092553500	-8.646702e+000	-7.447081e+001	-4.302655e-001	8.314875e-001	-7.459009e-001	2.382381e+000	-7.677657e+000	-1.043935e+002
2115053000	-8.345232e+000	-8.285372e+001	-4.210974e-001	2.159171e+000	-6.524372e-001	4.626243e+000	-7.674251e+000	-1.076767e+002
2137552500	-8.313631e+000	-9.400775e+001	-2.813006e-001	3.102530e+000	-3.212879e-001	6.127936e+000	-8.519269e+000	-1.112206e+002
2160052000	-8.421078e+000	-1.079524e+002	-7.355318e-002	3.080938e+000	1.201367e-001	5.976398e+000	-1.077096e+001	-1.153632e+002
2182551500	-8.667326e+000	-1.238595e+002	7.604151e-002	1.869281e+000	4.732643e-001	3.998607e+000	-1.608450e+001	-1.200292e+002
2205051000	-9.300400e+000	-1.404540e+002	3.822082e-002	-1.083491e-001	5.590317e-001	9.398680e-001	-3.969788e+001	4.383184e+001
2227550500	-1.048113e+001	-1.571728e+002	-2.096898e-001	-1.708565e+000	3.310437e-001	-1.710633e+000	-1.477253e+001	4.851787e+001
2250050000	-1.233790e+001	-1.755327e+002	-5.653886e-001	-2.098799e+000	-7.172988e-002	-2.646356e+000	-9.579496e+000	4.535576e+001
2272549500	-1.460838e+001	1.586823e+002	-8.804565e-001	-9.358770e-001	-4.404808e-001	-1.405873e+000	-7.063232e+000	4.313601e+001
2295049000	-1.522818e+001	1.207575e+002	-1.004102e+000	1.403256e+000	-5.680228e-001	1.444050e+000	-5.809697e+000	4.140091e+001
2317548500	-1.273423e+001	8.935111e+001	-8.249120e-001	4.183162e+000	-3.305940e-001	4.574335e+000	-5.442375e+000	3.900522e+001
2340048000	-9.670499e+000	7.205251e+001	-3.337459e-001	6.024689e+000	2.374478e-001	6.296707e+000	-5.967477e+000	3.374348e+001
2362547500	-7.278773e+000	6.094291e+001	3.557260e-001	5.519122e+000	9.609704e-001	5.234241e+000	-7.837801e+000	2.141481e+001
2385047000	-5.942688e+000	5.032714e+001	9.263630e-001	1.782504e+000	1.511132e+000	9.126582e-001	-1.194115e+001	-1.164899e+001
2407546500	-6.028406e+000	3.828793e+001	9.400244e-001	-4.085804e+000	1.496082e+000	-5.268906e+000	-1.256188e+001	-8.955740e+001
2430046000	-7.637851e+000	2.555820e+001	2.725064e-001	-8.583369e+000	8.602559e-001	-9.804182e+000	-7.614311e+000	-1.309592e+002
2452545500	-1.034615e+001	1.107257e+001	-6.946925e-001	-9.036574e+000	-7.952497e-003	-1.040091e+001	-4.961457e+000	-1.455248e+002
2475045000	-1.291411e+001	-1.160913e+001	-1.521842e+000	-5.794364e+000	-6.975598e-001	-7.633310e+000	-3.773575e+000	-1.506972e+002
2497544500	-1.297580e+001	-4.025388e+001	-1.982234e+000	-5.081612e-001	-1.022404e+000	-2.953054e+000	-3.341176e+000	-1.516465e+002
2520044000	-1.068043e+001	-5.879117e+001	-1.997499e+000	5.246881e+000	-9.164376e-001	2.258501e+000	-3.410443e+000	-1.514556e+002
2542543500	-8.107287e+000	-6.750951e+001	-1.534529e+000	9.973758e+000	-3.436156e-001	6.682861e+000	-4.022664e+000	-1.527619e+002
2565043000	-5.847116e+000	-7.453099e+001	-6.265664e-001	1.167438e+001	6.810767e-001	8.521748e+000	-5.634285e+000	-1.597062e+002
2587542500	-4.226202e+000	-8.580179e+001	4.290444e-001	7.873726e+000	1.883619e+000	5.168271e+000	-9.746445e+000	1.765653e+002
2610042000	-3.936026e+000	-1.040295e+002	8.291485e-001	-1.799199e+000	2.502668e+000	-4.100531e+000	-1.376420e+001	8.347670e+001
2632541500	-5.451894e+000	-1.252239e+002	-7.802904e-003	-1.100554e+001	1.890369e+000	-1.372316e+001	-7.043650e+000	2.504269e+001
2655041000	-7.768810e+000	-1.456899e+002	-1.400946e+000	-1.389934e+001	5.951310e-001	-1.787527e+001	-4.123249e+000	8.536728e+000
2677540500	-9.458487e+000	-1.661185e+002	-2.551822e+000	-1.123931e+001	-6.715734e-001	-1.640445e+001	-3.039711e+000	3.800192e+000
2700040000	-9.645876e+000	1.749858e+002	-3.189515e+000	-5.763692e+000	-1.563920e+000	-1.097257e+001	-2.639237e+000	4.145523e+000
2722539500	-8.650532e+000	1.609130e+002	-3.300652e+000	7.663917e-001	-1.827821e+000	-2.817502e+000	-2.535441e+000	6.382301e+000
2745039000	-7.152755e+000	1.497808e+002	-2.921841e+000	7.533389e+000	-1.241504e+000	5.589839e+000	-2.656570e+000	7.958229e+000
2767538500	-5.331233e+000	1.371651e+002	-1.953306e+000	1.319961e+001	2.289124e-001	1.049498e+001	-3.120165e+000	5.757254e+000
2790038000	-3.244123e+000	1.178216e+002	-3.765033e-001	1.438929e+001	2.237269e+000	7.490533e+000	-4.550147e+000	-6.209292e+000
2812537500	-1.501679e+000	8.732277e+001	1.049442e+000	6.078931e+000	3.702641e+000	-6.938696e+000	-9.035927e+000	-4.457969e+001
2835037000	-1.434775e+000	5.291277e+001	7.195318e-001	-7.422063e+000	2.995046e+000	-2.599965e+001	-1.108681e+001	-1.477412e+002
2857536500	-2.611985e+000	2.989547e+001	-9.904626e-001	-1.352032e+001	6.759656e-001	-3.541042e+001	-6.165429e+000	1.680569e+002
2880036000	-3.766634e+000	1.908331e+001	-2.685627e+000	-1.140153e+001	-1.624267e+000	-3.405072e+001	-4.055435e+000	1.573095e+002
2902535500	-4.617363e+000	1.535235e+001	-3.903325e+000	-4.660632e+000	-3.250744e+000	-2.584930e+001	-2.985478e+000	1.561251e+002
2925035000	-5.262342e+000	1.452642e+001	-4.566434e+000	4.818381e+000	-3.954746e+000	-1.409531e+001	-2.277521e+000	1.582318e+002
2947534500	-5.706520e+000	1.323440e+001	-4.513680e+000	1.560405e+001	-3.606136e+000	-1.916238e+000	-1.660249e+000	1.606864e+002
2970034000	-5.927557e+000	7.793975e+000	-3.487908e+000	2.588745e+001	-2.260816e+000	7.541473e+000	-1.050627e+000	1.606444e+002
2992533500	-5.768041e+000	-7.543762e+000	-1.275356e+000	3.110194e+001	-1.072063e-001	1.086197e+001	-4.951347e-001	1.530368e+002
3015033000	-5.006465e+000	-4.144807e+001	1.644242e+000	2.316567e+001	2.319847e+000	2.997649e+000	-5.238097e-001	1.270290e+002
3037532500	-4.867075e+000	-9.333793e+001	2.705634e+000	-1.295579e+000	2.876623e+000	-1.707575e+001	-2.679072e+000	6.858184e+001
3060032000	-6.290920e+000	-1.339353e+002	5.545817e-001	-2.046785e+001	8.178535e-001	-2.849186e+001	-3.789053e+000	2.666486e+000
3082531500	-7.457017e+000	-1.535261e+002	-2.319727e+000	-2.530277e+001	-1.103066e+000	-2.623885e+001	-2.621242e+000	-2.806516e+001
3105031000	-7.916650e+000	-1.617401e+002	-4.899706e+000	-2.070591e+001	-2.113535e+000	-1.890828e+001	-1.598213e+000	-3.711717e+001
3127530500	-7.748425e+000	-1.650846e+002	-6.898628e+000	-8.773001e+000	-2.435691e+000	-1.016616e+001	-8.605622e-001	-3.729372e+001
3150030000	-6.891293e+000	-1.666308e+002	-7.856505e+000	9.308755e+000	-2.181983e+000	-3.712052e-001	-2.428930e-001	-3.364974e+001
3172529500	-5.193763e+000	-1.676004e+002	-7.220777e+000	3.027740e+001	-1.195514e+000	1.056546e+001	4.231220e-001	-2.900828e+001
3195029000	-2.238451e+000	-1.696720e+002	-4.661121e+000	4.883052e+001	1.044161e+000	2.176828e+001	1.382123e+000	-2.668333e+001
3217528500	3.238163e+000	-1.795126e+002	6.730280e-001	5.736940e+001	5.968654e+000	2.700062e+001	3.392727e+000	-3.698407e+001
3240028000	1.076564e+001	1.044375e+002	7.966624e+000	-1.480630e+000	1.321836e+001	-3.260105e+001	5.459618e+000	-1.366518e+002
3262527500	2.011052e+000	4.850361e+001	-1.296518e+000	-3.863841e+001	4.399389e+000	-7.170985e+001	-1.900448e+000	1.072742e+002
3285027000	-2.558655e+000	3.956261e+001	-6.629842e+000	-2.444719e+001	-4.199404e-001	-6.459448e+001	-1.186164e+000	8.532362e+001
3307526500	-4.498409e+000	3.659803e+001	-9.074051e+000	-1.557020e-001	-3.304216e+000	-5.277711e+001	-3.343095e-001	8.636910e+001
3330026000	-4.820020e+000	3.694779e+001	-9.067885e+000	2.514372e+001	-5.506735e+000	-3.775703e+001	3.949006e-001	9.340762e+001
3352525500	-3.978211e+000	4.017572e+001	-7.432537e+000	4.499531e+001	-7.192135e+000	-1.551939e+001	1.163874e+000	1.025414e+002
3375025000	-2.217164e+000	4.568560e+001	-4.952377e+000	5.967418e+001	-7.093210e+000	1.737315e+001	2.141364e+000	1.122210e+002
3397524500	5.391798e-001	5.239104e+001	-1.616335e+000	7.194994e+001	-3.573907e+000	5.018189e+001	3.688762e+000	1.210727e+002
3420024000	5.405868e+000	5.966660e+001	3.837323e+000	8.428921e+001	3.262632e+000	7.379689e+001	6.978246e+000	1.272281e+002
