!Agilent Technologies,E5071C,MY46101151,A.11.02
!Date: Sun Sep 24 17:02:44 2017
!Data & Calibration Information:
!Freq	S11:SOLT2(ON)	S21:SOLT2(ON)	S12:SOLT2(ON)	S22:SOLT2(ON)
!PortZ  Port1:50+j0    Port2:50+j0
!Above PortZ is port z conversion or system Z0 setting when saving the data.
!When reading, reference impedance value at option line is always used.
# Hz S dB R 50
100000	-3.659673e+001	-1.220902e+002	-3.375926e-002	8.888493e+000	2.344176e-002	8.985150e+000	-4.208916e+001	-1.111167e+002
9099500	-4.325147e+001	-9.642591e+001	3.909798e-003	-1.043496e+000	1.478665e-003	-1.066246e+000	-4.586135e+001	-9.745524e+001
18099000	-3.348368e+001	-9.121668e+001	1.624144e-004	-1.572291e+000	-2.247546e-003	-1.593602e+000	-3.398949e+001	-8.909046e+001
27098500	-2.921736e+001	-9.250885e+001	-1.717360e-003	-2.152378e+000	-5.919552e-003	-2.189310e+000	-2.951265e+001	-9.126627e+001
36098000	-2.627498e+001	-9.440149e+001	-8.311463e-003	-2.746878e+000	-9.294976e-003	-2.840374e+000	-2.680392e+001	-9.205778e+001
45097500	-2.446358e+001	-9.411019e+001	-1.353984e-002	-3.451795e+000	-1.472362e-002	-3.496098e+000	-2.457043e+001	-9.308473e+001
54097000	-2.297568e+001	-9.517918e+001	-2.021208e-002	-4.148501e+000	-2.127730e-002	-4.141784e+000	-2.276822e+001	-9.396777e+001
63096500	-2.148793e+001	-9.576743e+001	-2.814256e-002	-4.793169e+000	-2.524375e-002	-4.781923e+000	-2.143858e+001	-9.511460e+001
72096000	-2.035312e+001	-9.567092e+001	-4.053884e-002	-5.475005e+000	-3.652559e-002	-5.437286e+000	-2.026961e+001	-9.621707e+001
81095500	-1.933458e+001	-9.630480e+001	-5.099592e-002	-6.134955e+000	-5.004807e-002	-6.097140e+000	-1.929735e+001	-9.660557e+001
90095000	-1.830114e+001	-9.738110e+001	-6.400783e-002	-6.768798e+000	-6.092913e-002	-6.765322e+000	-1.831493e+001	-9.740419e+001
99094500	-1.750284e+001	-9.779550e+001	-7.695742e-002	-7.446371e+000	-7.373022e-002	-7.450017e+000	-1.754758e+001	-9.791116e+001
108094000	-1.676239e+001	-9.852042e+001	-9.654473e-002	-8.109662e+000	-9.741349e-002	-8.102614e+000	-1.677837e+001	-9.832883e+001
117093500	-1.606798e+001	-9.899563e+001	-1.175675e-001	-8.762546e+000	-1.142445e-001	-8.760559e+000	-1.610512e+001	-9.879013e+001
126093000	-1.545311e+001	-9.954325e+001	-1.311366e-001	-9.438522e+000	-1.289506e-001	-9.389443e+000	-1.543637e+001	-9.948067e+001
135092500	-1.483948e+001	-1.003201e+002	-1.493035e-001	-1.005871e+001	-1.466104e-001	-1.005646e+001	-1.485717e+001	-1.000449e+002
144092000	-1.432062e+001	-1.010482e+002	-1.635722e-001	-1.073045e+001	-1.673628e-001	-1.069644e+001	-1.428863e+001	-1.004712e+002
153091500	-1.381605e+001	-1.014887e+002	-1.887043e-001	-1.140443e+001	-1.841310e-001	-1.132886e+001	-1.377544e+001	-1.014063e+002
162091000	-1.329935e+001	-1.022909e+002	-2.075900e-001	-1.201779e+001	-2.054533e-001	-1.198803e+001	-1.331244e+001	-1.020181e+002
171090500	-1.285584e+001	-1.029155e+002	-2.317064e-001	-1.265466e+001	-2.337718e-001	-1.264534e+001	-1.286425e+001	-1.024835e+002
180090000	-1.241585e+001	-1.035961e+002	-2.566103e-001	-1.329229e+001	-2.576144e-001	-1.329521e+001	-1.241204e+001	-1.031352e+002
189089500	-1.201754e+001	-1.040935e+002	-2.867906e-001	-1.396213e+001	-2.814537e-001	-1.394024e+001	-1.201564e+001	-1.040108e+002
198089000	-1.161126e+001	-1.048445e+002	-3.147251e-001	-1.454511e+001	-3.121583e-001	-1.454731e+001	-1.161120e+001	-1.045699e+002
207088500	-1.125936e+001	-1.055741e+002	-3.398099e-001	-1.519110e+001	-3.369673e-001	-1.517265e+001	-1.126376e+001	-1.052843e+002
216088000	-1.090911e+001	-1.061298e+002	-3.723242e-001	-1.582962e+001	-3.641997e-001	-1.577358e+001	-1.088336e+001	-1.059300e+002
225087500	-1.056650e+001	-1.069286e+002	-3.998421e-001	-1.644523e+001	-3.969265e-001	-1.640977e+001	-1.056012e+001	-1.064787e+002
234087000	-1.023377e+001	-1.076117e+002	-4.351233e-001	-1.711193e+001	-4.278404e-001	-1.703192e+001	-1.025819e+001	-1.071207e+002
243086500	-9.925078e+000	-1.081885e+002	-4.710950e-001	-1.773074e+001	-4.652630e-001	-1.767527e+001	-9.942531e+000	-1.077174e+002
252086000	-9.647873e+000	-1.089350e+002	-5.037582e-001	-1.835271e+001	-4.951549e-001	-1.828882e+001	-9.663656e+000	-1.083154e+002
261085500	-9.362030e+000	-1.095850e+002	-5.328612e-001	-1.896742e+001	-5.312315e-001	-1.891276e+001	-9.367540e+000	-1.089025e+002
270085000	-9.061683e+000	-1.102233e+002	-5.796462e-001	-1.955805e+001	-5.725129e-001	-1.953403e+001	-9.090352e+000	-1.094209e+002
279084500	-8.805379e+000	-1.107980e+002	-6.165122e-001	-2.019976e+001	-6.050028e-001	-2.017443e+001	-8.852996e+000	-1.100533e+002
288084000	-8.562063e+000	-1.114947e+002	-6.544118e-001	-2.077945e+001	-6.492635e-001	-2.078470e+001	-8.588048e+000	-1.106457e+002
297083500	-8.313230e+000	-1.120697e+002	-6.943245e-001	-2.139415e+001	-6.843916e-001	-2.138550e+001	-8.347964e+000	-1.113582e+002
306083000	-8.074828e+000	-1.127023e+002	-7.368456e-001	-2.199224e+001	-7.234143e-001	-2.201270e+001	-8.117578e+000	-1.119457e+002
315082500	-7.857163e+000	-1.132712e+002	-7.761902e-001	-2.262832e+001	-7.675540e-001	-2.261321e+001	-7.900338e+000	-1.124932e+002
324082000	-7.647237e+000	-1.139068e+002	-8.224693e-001	-2.325728e+001	-8.162452e-001	-2.317378e+001	-7.668977e+000	-1.131419e+002
333081500	-7.432998e+000	-1.145540e+002	-8.644754e-001	-2.382805e+001	-8.611669e-001	-2.376210e+001	-7.458201e+000	-1.138122e+002
342081000	-7.239302e+000	-1.151596e+002	-9.082745e-001	-2.443460e+001	-9.046453e-001	-2.437352e+001	-7.256621e+000	-1.144626e+002
351080500	-7.048091e+000	-1.158444e+002	-9.515450e-001	-2.501880e+001	-9.583338e-001	-2.496425e+001	-7.054472e+000	-1.150001e+002
360080000	-6.857011e+000	-1.164734e+002	-9.990843e-001	-2.560955e+001	-1.005786e+000	-2.558555e+001	-6.867248e+000	-1.155137e+002
369079500	-6.681999e+000	-1.170106e+002	-1.060104e+000	-2.624063e+001	-1.055269e+000	-2.622165e+001	-6.675811e+000	-1.160737e+002
378079000	-6.496464e+000	-1.175256e+002	-1.113913e+000	-2.682244e+001	-1.104766e+000	-2.680816e+001	-6.510702e+000	-1.166576e+002
387078500	-6.326620e+000	-1.180809e+002	-1.167750e+000	-2.742901e+001	-1.163749e+000	-2.737622e+001	-6.324768e+000	-1.172006e+002
396078000	-6.160417e+000	-1.186967e+002	-1.218859e+000	-2.800153e+001	-1.217696e+000	-2.792673e+001	-6.153573e+000	-1.177007e+002
405077500	-5.985443e+000	-1.192986e+002	-1.273317e+000	-2.856047e+001	-1.265981e+000	-2.853147e+001	-5.991836e+000	-1.183462e+002
414077000	-5.830526e+000	-1.198888e+002	-1.325762e+000	-2.910185e+001	-1.322297e+000	-2.906173e+001	-5.824341e+000	-1.188476e+002
423076500	-5.674113e+000	-1.204429e+002	-1.387066e+000	-2.966925e+001	-1.374410e+000	-2.963653e+001	-5.676899e+000	-1.194066e+002
432076000	-5.519895e+000	-1.210589e+002	-1.442032e+000	-3.022744e+001	-1.436040e+000	-3.016039e+001	-5.531116e+000	-1.199655e+002
441075500	-5.378106e+000	-1.216556e+002	-1.503227e+000	-3.081425e+001	-1.491430e+000	-3.071200e+001	-5.390191e+000	-1.205664e+002
450075000	-5.236875e+000	-1.223327e+002	-1.559797e+000	-3.134690e+001	-1.554882e+000	-3.127975e+001	-5.251986e+000	-1.210688e+002
459074500	-5.096203e+000	-1.227879e+002	-1.613264e+000	-3.188520e+001	-1.618512e+000	-3.179130e+001	-5.099414e+000	-1.216489e+002
468074000	-4.958019e+000	-1.234056e+002	-1.676144e+000	-3.243128e+001	-1.678341e+000	-3.235677e+001	-4.982049e+000	-1.221743e+002
477073500	-4.828225e+000	-1.239935e+002	-1.742589e+000	-3.301481e+001	-1.738498e+000	-3.289926e+001	-4.838540e+000	-1.227209e+002
486073000	-4.702152e+000	-1.246106e+002	-1.801668e+000	-3.350493e+001	-1.796825e+000	-3.342305e+001	-4.712966e+000	-1.232780e+002
495072500	-4.593076e+000	-1.251845e+002	-1.868447e+000	-3.408156e+001	-1.874350e+000	-3.401227e+001	-4.584021e+000	-1.238422e+002
504072000	-4.461580e+000	-1.256967e+002	-1.937310e+000	-3.460817e+001	-1.925743e+000	-3.455733e+001	-4.468410e+000	-1.243144e+002
513071500	-4.346806e+000	-1.262304e+002	-2.002546e+000	-3.517231e+001	-2.006509e+000	-3.502022e+001	-4.348178e+000	-1.248894e+002
522071000	-4.232279e+000	-1.268024e+002	-2.059810e+000	-3.566114e+001	-2.056348e+000	-3.562961e+001	-4.242794e+000	-1.253877e+002
531070500	-4.118804e+000	-1.273930e+002	-2.133520e+000	-3.622025e+001	-2.134897e+000	-3.609554e+001	-4.130967e+000	-1.259365e+002
540070000	-4.017142e+000	-1.279490e+002	-2.199063e+000	-3.670172e+001	-2.196351e+000	-3.661442e+001	-4.027326e+000	-1.264314e+002
549069500	-3.918415e+000	-1.284734e+002	-2.264142e+000	-3.725461e+001	-2.268139e+000	-3.713230e+001	-3.924416e+000	-1.269166e+002
558069000	-3.814249e+000	-1.290018e+002	-2.343465e+000	-3.772788e+001	-2.343306e+000	-3.768408e+001	-3.819167e+000	-1.274542e+002
567068500	-3.719398e+000	-1.295634e+002	-2.405978e+000	-3.822105e+001	-2.412235e+000	-3.818749e+001	-3.723162e+000	-1.279469e+002
576068000	-3.617545e+000	-1.300606e+002	-2.478891e+000	-3.870689e+001	-2.486100e+000	-3.864507e+001	-3.629458e+000	-1.284888e+002
585067500	-3.528160e+000	-1.305787e+002	-2.557949e+000	-3.925634e+001	-2.556336e+000	-3.920950e+001	-3.532042e+000	-1.289786e+002
594067000	-3.436516e+000	-1.310653e+002	-2.632568e+000	-3.973921e+001	-2.631566e+000	-3.967964e+001	-3.433356e+000	-1.294815e+002
603066500	-3.341307e+000	-1.315711e+002	-2.712994e+000	-4.021246e+001	-2.705899e+000	-4.021196e+001	-3.348384e+000	-1.299746e+002
612066000	-3.258578e+000	-1.321470e+002	-2.786640e+000	-4.074204e+001	-2.783652e+000	-4.065547e+001	-3.264973e+000	-1.304504e+002
621065500	-3.177163e+000	-1.326716e+002	-2.856261e+000	-4.123828e+001	-2.853150e+000	-4.118819e+001	-3.180825e+000	-1.309383e+002
630065000	-3.095350e+000	-1.332023e+002	-2.933419e+000	-4.171681e+001	-2.938414e+000	-4.166438e+001	-3.097044e+000	-1.314262e+002
639064500	-3.019008e+000	-1.336907e+002	-3.021479e+000	-4.218480e+001	-3.013267e+000	-4.210018e+001	-3.020983e+000	-1.319022e+002
648064000	-2.941469e+000	-1.342101e+002	-3.101489e+000	-4.265914e+001	-3.087938e+000	-4.260238e+001	-2.943500e+000	-1.323702e+002
657063500	-2.862055e+000	-1.347371e+002	-3.181303e+000	-4.316792e+001	-3.167586e+000	-4.309308e+001	-2.873226e+000	-1.328594e+002
666063000	-2.791515e+000	-1.352141e+002	-3.267520e+000	-4.363087e+001	-3.250342e+000	-4.350827e+001	-2.796236e+000	-1.333226e+002
675062500	-2.715541e+000	-1.357193e+002	-3.340007e+000	-4.406785e+001	-3.328364e+000	-4.405079e+001	-2.720469e+000	-1.338110e+002
684062000	-2.644833e+000	-1.362128e+002	-3.427875e+000	-4.457745e+001	-3.420986e+000	-4.453170e+001	-2.651591e+000	-1.342797e+002
693061500	-2.570814e+000	-1.367023e+002	-3.509165e+000	-4.500766e+001	-3.509007e+000	-4.501038e+001	-2.581110e+000	-1.347289e+002
702061000	-2.503543e+000	-1.371930e+002	-3.593122e+000	-4.549334e+001	-3.591284e+000	-4.545831e+001	-2.514571e+000	-1.352007e+002
711060500	-2.439622e+000	-1.376688e+002	-3.688346e+000	-4.594954e+001	-3.682748e+000	-4.595431e+001	-2.452607e+000	-1.356292e+002
720060000	-2.376469e+000	-1.382147e+002	-3.772264e+000	-4.646836e+001	-3.773665e+000	-4.645409e+001	-2.381196e+000	-1.361468e+002
729059500	-2.319300e+000	-1.386814e+002	-3.874404e+000	-4.692407e+001	-3.858159e+000	-4.689910e+001	-2.319953e+000	-1.365865e+002
738059000	-2.256408e+000	-1.391606e+002	-3.955070e+000	-4.739077e+001	-3.955384e+000	-4.737273e+001	-2.252885e+000	-1.370577e+002
747058500	-2.196761e+000	-1.396664e+002	-4.048870e+000	-4.780670e+001	-4.047752e+000	-4.775644e+001	-2.195873e+000	-1.374849e+002
756058000	-2.138904e+000	-1.401647e+002	-4.149411e+000	-4.834417e+001	-4.144579e+000	-4.820539e+001	-2.128925e+000	-1.378888e+002
765057500	-2.073812e+000	-1.406051e+002	-4.240194e+000	-4.871027e+001	-4.248437e+000	-4.869199e+001	-2.080320e+000	-1.383403e+002
774057000	-2.020176e+000	-1.410422e+002	-4.327821e+000	-4.922581e+001	-4.329757e+000	-4.910619e+001	-2.023106e+000	-1.387887e+002
783056500	-1.954898e+000	-1.415189e+002	-4.435136e+000	-4.969492e+001	-4.432204e+000	-4.956116e+001	-1.968113e+000	-1.392442e+002
792056000	-1.910781e+000	-1.419676e+002	-4.531860e+000	-5.004583e+001	-4.524447e+000	-5.004648e+001	-1.909920e+000	-1.396652e+002
801055500	-1.854868e+000	-1.424371e+002	-4.630352e+000	-5.052019e+001	-4.635781e+000	-5.043512e+001	-1.862765e+000	-1.400987e+002
810055000	-1.809032e+000	-1.428736e+002	-4.738257e+000	-5.096391e+001	-4.723563e+000	-5.085442e+001	-1.800159e+000	-1.405095e+002
819054500	-1.756519e+000	-1.433261e+002	-4.839548e+000	-5.135434e+001	-4.833250e+000	-5.135211e+001	-1.758003e+000	-1.409361e+002
828054000	-1.697195e+000	-1.437730e+002	-4.927033e+000	-5.179018e+001	-4.936796e+000	-5.172229e+001	-1.703237e+000	-1.413192e+002
837053500	-1.666371e+000	-1.442261e+002	-5.041221e+000	-5.222097e+001	-5.040657e+000	-5.212232e+001	-1.663297e+000	-1.417571e+002
846053000	-1.612291e+000	-1.446914e+002	-5.145722e+000	-5.264612e+001	-5.140088e+000	-5.264913e+001	-1.612226e+000	-1.421946e+002
855052500	-1.565277e+000	-1.451136e+002	-5.251106e+000	-5.307356e+001	-5.244827e+000	-5.296691e+001	-1.563455e+000	-1.425492e+002
864052000	-1.520385e+000	-1.455479e+002	-5.363336e+000	-5.349535e+001	-5.362360e+000	-5.337784e+001	-1.516070e+000	-1.429575e+002
873051500	-1.472408e+000	-1.459780e+002	-5.464211e+000	-5.393315e+001	-5.466432e+000	-5.388524e+001	-1.478240e+000	-1.433883e+002
882051000	-1.430614e+000	-1.464062e+002	-5.583973e+000	-5.429249e+001	-5.570217e+000	-5.426937e+001	-1.429781e+000	-1.437704e+002
891050500	-1.395243e+000	-1.467843e+002	-5.700166e+000	-5.464726e+001	-5.691308e+000	-5.465371e+001	-1.386947e+000	-1.441563e+002
900050000	-1.348185e+000	-1.472749e+002	-5.800746e+000	-5.513762e+001	-5.810475e+000	-5.509707e+001	-1.351338e+000	-1.445451e+002
909049500	-1.306925e+000	-1.476668e+002	-5.924553e+000	-5.552422e+001	-5.922225e+000	-5.539663e+001	-1.309254e+000	-1.448937e+002
918049000	-1.271107e+000	-1.480858e+002	-6.045452e+000	-5.593288e+001	-6.038335e+000	-5.579950e+001	-1.263388e+000	-1.452909e+002
927048500	-1.231631e+000	-1.484751e+002	-6.158583e+000	-5.626634e+001	-6.147186e+000	-5.619765e+001	-1.222932e+000	-1.456917e+002
936048000	-1.182246e+000	-1.489561e+002	-6.262716e+000	-5.666219e+001	-6.269145e+000	-5.647390e+001	-1.184248e+000	-1.460483e+002
945047500	-1.153036e+000	-1.493385e+002	-6.389358e+000	-5.703027e+001	-6.397098e+000	-5.687629e+001	-1.155524e+000	-1.464295e+002
954047000	-1.116797e+000	-1.497309e+002	-6.516441e+000	-5.737973e+001	-6.508458e+000	-5.719645e+001	-1.119275e+000	-1.468114e+002
963046500	-1.081502e+000	-1.501888e+002	-6.636700e+000	-5.779633e+001	-6.626156e+000	-5.768556e+001	-1.080330e+000	-1.472857e+002
972046000	-1.045785e+000	-1.506339e+002	-6.750161e+000	-5.818343e+001	-6.755032e+000	-5.804921e+001	-1.045159e+000	-1.476722e+002
981045500	-1.011963e+000	-1.510411e+002	-6.887288e+000	-5.856570e+001	-6.873213e+000	-5.848671e+001	-1.007019e+000	-1.480600e+002
990045000	-9.785669e-001	-1.514569e+002	-7.009487e+000	-5.888444e+001	-6.985665e+000	-5.878440e+001	-9.685343e-001	-1.484246e+002
999044500	-9.424166e-001	-1.518635e+002	-7.137798e+000	-5.932484e+001	-7.137411e+000	-5.922329e+001	-9.409748e-001	-1.488331e+002
1008044000	-9.153948e-001	-1.523145e+002	-7.271203e+000	-5.970863e+001	-7.251047e+000	-5.959031e+001	-9.099071e-001	-1.491961e+002
1017043500	-8.844944e-001	-1.527299e+002	-7.402646e+000	-6.018442e+001	-7.390408e+000	-5.996812e+001	-8.817527e-001	-1.495729e+002
1026043000	-8.486027e-001	-1.531633e+002	-7.527467e+000	-6.050892e+001	-7.520608e+000	-6.037050e+001	-8.469189e-001	-1.499553e+002
1035042500	-8.231979e-001	-1.535090e+002	-7.663825e+000	-6.083551e+001	-7.656421e+000	-6.074654e+001	-8.205013e-001	-1.503732e+002
1044042000	-7.919555e-001	-1.539901e+002	-7.800268e+000	-6.127026e+001	-7.802889e+000	-6.110543e+001	-7.934148e-001	-1.506992e+002
1053041500	-7.649762e-001	-1.543580e+002	-7.947243e+000	-6.155640e+001	-7.945049e+000	-6.146067e+001	-7.643824e-001	-1.510615e+002
1062041000	-7.334648e-001	-1.547032e+002	-8.090746e+000	-6.194270e+001	-8.084781e+000	-6.194605e+001	-7.405314e-001	-1.514603e+002
1071040500	-7.198404e-001	-1.551271e+002	-8.239519e+000	-6.227297e+001	-8.238048e+000	-6.223643e+001	-7.173823e-001	-1.518116e+002
1080040000	-6.813158e-001	-1.556032e+002	-8.373715e+000	-6.273010e+001	-8.371985e+000	-6.254410e+001	-6.814820e-001	-1.521346e+002
1089039500	-6.686204e-001	-1.558780e+002	-8.533355e+000	-6.294218e+001	-8.527745e+000	-6.292838e+001	-6.604210e-001	-1.525499e+002
1098039000	-6.471960e-001	-1.563482e+002	-8.688668e+000	-6.336157e+001	-8.684076e+000	-6.334492e+001	-6.411951e-001	-1.528985e+002
1107038500	-6.217199e-001	-1.567511e+002	-8.841396e+000	-6.371678e+001	-8.826072e+000	-6.363092e+001	-6.097354e-001	-1.532259e+002
1116038000	-5.968861e-001	-1.571646e+002	-8.995845e+000	-6.413734e+001	-8.981981e+000	-6.402838e+001	-5.897033e-001	-1.536204e+002
1125037500	-5.731269e-001	-1.575406e+002	-9.158233e+000	-6.441498e+001	-9.140331e+000	-6.444629e+001	-5.671210e-001	-1.539910e+002
1134037000	-5.439488e-001	-1.578872e+002	-9.305276e+000	-6.473702e+001	-9.310471e+000	-6.475142e+001	-5.434849e-001	-1.543159e+002
1143036500	-5.240288e-001	-1.582624e+002	-9.474888e+000	-6.506813e+001	-9.465559e+000	-6.503461e+001	-5.230626e-001	-1.546408e+002
1152036000	-4.953365e-001	-1.586512e+002	-9.629290e+000	-6.550588e+001	-9.642146e+000	-6.536437e+001	-5.063601e-001	-1.549566e+002
1161035500	-4.827041e-001	-1.590121e+002	-9.819580e+000	-6.579627e+001	-9.812683e+000	-6.574322e+001	-4.813967e-001	-1.553450e+002
1170035000	-4.650794e-001	-1.593919e+002	-9.995319e+000	-6.618090e+001	-9.982375e+000	-6.598153e+001	-4.622692e-001	-1.556454e+002
1179034500	-4.427748e-001	-1.597483e+002	-1.016574e+001	-6.643100e+001	-1.016901e+001	-6.633220e+001	-4.507851e-001	-1.560086e+002
1188034000	-4.234945e-001	-1.601350e+002	-1.033645e+001	-6.672029e+001	-1.034944e+001	-6.662711e+001	-4.328777e-001	-1.563545e+002
1197033500	-4.092433e-001	-1.605065e+002	-1.053139e+001	-6.701888e+001	-1.052002e+001	-6.696873e+001	-4.095249e-001	-1.567174e+002
1206033000	-3.875028e-001	-1.608981e+002	-1.070855e+001	-6.735156e+001	-1.069270e+001	-6.719945e+001	-3.848699e-001	-1.570149e+002
1215032500	-3.645477e-001	-1.612945e+002	-1.087475e+001	-6.766119e+001	-1.087644e+001	-6.754064e+001	-3.741963e-001	-1.574084e+002
1224032000	-3.471623e-001	-1.616895e+002	-1.106626e+001	-6.803451e+001	-1.105985e+001	-6.794997e+001	-3.499539e-001	-1.577497e+002
1233031500	-3.446786e-001	-1.620726e+002	-1.127464e+001	-6.848420e+001	-1.124797e+001	-6.829867e+001	-3.361333e-001	-1.581056e+002
1242031000	-3.194060e-001	-1.624152e+002	-1.146394e+001	-6.881271e+001	-1.145231e+001	-6.863580e+001	-3.273379e-001	-1.583966e+002
1251030500	-3.096649e-001	-1.627887e+002	-1.166647e+001	-6.919647e+001	-1.166062e+001	-6.908593e+001	-3.159132e-001	-1.587732e+002
1260030000	-2.994117e-001	-1.632021e+002	-1.189244e+001	-6.964967e+001	-1.186931e+001	-6.946117e+001	-3.005032e-001	-1.590715e+002
1269029500	-2.891148e-001	-1.635962e+002	-1.211397e+001	-7.001013e+001	-1.209725e+001	-6.987670e+001	-2.888542e-001	-1.594186e+002
1278029000	-2.794902e-001	-1.639337e+002	-1.235116e+001	-7.035640e+001	-1.233290e+001	-7.024020e+001	-2.800884e-001	-1.597282e+002
1287028500	-2.614922e-001	-1.642248e+002	-1.257516e+001	-7.072318e+001	-1.256678e+001	-7.061918e+001	-2.689771e-001	-1.600507e+002
1296028000	-2.494715e-001	-1.646082e+002	-1.282727e+001	-7.105177e+001	-1.281368e+001	-7.092743e+001	-2.543484e-001	-1.603217e+002
1305027500	-2.420371e-001	-1.649054e+002	-1.307913e+001	-7.126109e+001	-1.308193e+001	-7.118362e+001	-2.456468e-001	-1.606334e+002
1314027000	-2.260805e-001	-1.652948e+002	-1.333077e+001	-7.154947e+001	-1.332066e+001	-7.144470e+001	-2.300150e-001	-1.609399e+002
1323026500	-2.136652e-001	-1.656050e+002	-1.358417e+001	-7.174882e+001	-1.357823e+001	-7.169650e+001	-2.164010e-001	-1.612472e+002
1332026000	-1.989626e-001	-1.660024e+002	-1.384655e+001	-7.203005e+001	-1.384083e+001	-7.191766e+001	-1.977434e-001	-1.615501e+002
1341025500	-1.833871e-001	-1.663394e+002	-1.411126e+001	-7.217298e+001	-1.410777e+001	-7.220129e+001	-1.860241e-001	-1.618982e+002
