!Agilent Technologies,E5071C,MY46101151,A.11.02
!Date: Sun Sep 24 17:04:33 2017
!Data & Calibration Information:
!Freq	S11:SOLT2(ON)	S21:SOLT2(ON)	S12:SOLT2(ON)	S22:SOLT2(ON)
!PortZ  Port1:50+j0    Port2:50+j0
!Above PortZ is port z conversion or system Z0 setting when saving the data.
!When reading, reference impedance value at option line is always used.
# Hz S dB R 50
100000	-3.660356e+001	-1.218551e+002	-3.315223e-002	8.889956e+000	2.280424e-002	8.983028e+000	-4.217857e+001	-1.117065e+002
22599500	-3.100902e+001	-9.168336e+001	-2.449913e-004	-1.889433e+000	-4.021033e-003	-1.900274e+000	-3.144234e+001	-9.012796e+001
45099000	-2.446416e+001	-9.410932e+001	-1.318678e-002	-3.450135e+000	-1.423194e-002	-3.494418e+000	-2.457723e+001	-9.307365e+001
67598500	-2.074659e+001	-9.575945e+001	-5.070327e-002	-5.105735e+000	-2.769254e-002	-5.115855e+000	-2.084477e+001	-9.556158e+001
90098000	-1.831007e+001	-9.739862e+001	-6.290447e-002	-6.770392e+000	-6.002959e-002	-6.762004e+000	-1.831996e+001	-9.740487e+001
112597500	-1.650222e+001	-9.870630e+001	-1.055124e-001	-8.537560e+000	-1.049168e-001	-8.367706e+000	-1.639377e+001	-9.861079e+001
135097000	-1.484493e+001	-1.003435e+002	-1.482001e-001	-1.005534e+001	-1.464290e-001	-1.005119e+001	-1.485929e+001	-1.000254e+002
157596500	-1.352160e+001	-1.015848e+002	-1.965562e-001	-1.163109e+001	-1.942623e-001	-1.169895e+001	-1.356036e+001	-1.018661e+002
180096000	-1.241843e+001	-1.036166e+002	-2.558490e-001	-1.328935e+001	-2.577864e-001	-1.328846e+001	-1.241527e+001	-1.031141e+002
202595500	-1.143281e+001	-1.052117e+002	-3.259735e-001	-1.486406e+001	-3.234174e-001	-1.485235e+001	-1.143494e+001	-1.049044e+002
225095000	-1.056716e+001	-1.069180e+002	-3.985210e-001	-1.643488e+001	-3.964908e-001	-1.640876e+001	-1.056044e+001	-1.064762e+002
247594500	-9.784792e+000	-1.085612e+002	-4.860285e-001	-1.803855e+001	-4.791252e-001	-1.797402e+001	-9.804879e+000	-1.080032e+002
270094000	-9.061489e+000	-1.102015e+002	-5.781620e-001	-1.955687e+001	-5.712130e-001	-1.952263e+001	-9.094744e+000	-1.094043e+002
292593500	-8.441114e+000	-1.117789e+002	-6.717222e-001	-2.107243e+001	-6.659223e-001	-2.108713e+001	-8.467566e+000	-1.109770e+002
315093000	-7.860313e+000	-1.132658e+002	-7.743280e-001	-2.261341e+001	-7.660544e-001	-2.260863e+001	-7.903218e+000	-1.124794e+002
337592500	-7.358106e+000	-1.148022e+002	-8.831633e-001	-2.420651e+001	-8.822665e-001	-2.400028e+001	-7.346560e+000	-1.141578e+002
360092000	-6.862813e+000	-1.164608e+002	-9.973379e-001	-2.561020e+001	-1.004364e+000	-2.557622e+001	-6.869425e+000	-1.154933e+002
382591500	-6.428751e+000	-1.178658e+002	-1.138738e+000	-2.717382e+001	-1.133281e+000	-2.705377e+001	-6.411434e+000	-1.168607e+002
405091000	-5.985863e+000	-1.192751e+002	-1.271797e+000	-2.854896e+001	-1.265047e+000	-2.852260e+001	-5.991914e+000	-1.183244e+002
427590500	-5.590319e+000	-1.206989e+002	-1.410882e+000	-2.991931e+001	-1.404365e+000	-2.989926e+001	-5.604198e+000	-1.196933e+002
450090000	-5.237025e+000	-1.223096e+002	-1.556872e+000	-3.132804e+001	-1.552817e+000	-3.126684e+001	-5.253632e+000	-1.210586e+002
472589500	-4.887188e+000	-1.237780e+002	-1.706277e+000	-3.275186e+001	-1.704286e+000	-3.259963e+001	-4.917197e+000	-1.223936e+002
495089000	-4.595404e+000	-1.251766e+002	-1.865385e+000	-3.408286e+001	-1.871523e+000	-3.400758e+001	-4.586782e+000	-1.238221e+002
517588500	-4.290883e+000	-1.265071e+002	-2.028670e+000	-3.540889e+001	-2.028530e+000	-3.531994e+001	-4.296206e+000	-1.251323e+002
540088000	-4.019112e+000	-1.279370e+002	-2.196213e+000	-3.669388e+001	-2.193435e+000	-3.660922e+001	-4.029104e+000	-1.264153e+002
562587500	-3.768296e+000	-1.292759e+002	-2.370879e+000	-3.797193e+001	-2.374898e+000	-3.793128e+001	-3.772476e+000	-1.276941e+002
585087000	-3.530534e+000	-1.305678e+002	-2.554754e+000	-3.925422e+001	-2.553574e+000	-3.920513e+001	-3.533644e+000	-1.289689e+002
607586500	-3.301661e+000	-1.318606e+002	-2.746418e+000	-4.047798e+001	-2.741716e+000	-4.043413e+001	-3.307676e+000	-1.302108e+002
630086000	-3.096419e+000	-1.331974e+002	-2.930162e+000	-4.171700e+001	-2.934810e+000	-4.166436e+001	-3.097649e+000	-1.314216e+002
652585500	-2.902168e+000	-1.344590e+002	-3.138036e+000	-4.290569e+001	-3.124239e+000	-4.284587e+001	-2.908777e+000	-1.326151e+002
675085000	-2.715904e+000	-1.357206e+002	-3.336330e+000	-4.406933e+001	-3.325380e+000	-4.405124e+001	-2.720995e+000	-1.338010e+002
697584500	-2.537279e+000	-1.369394e+002	-3.547240e+000	-4.525241e+001	-3.546896e+000	-4.524165e+001	-2.548898e+000	-1.349701e+002
720084000	-2.376832e+000	-1.382162e+002	-3.768571e+000	-4.647253e+001	-3.769701e+000	-4.645856e+001	-2.381260e+000	-1.361422e+002
742583500	-2.227454e+000	-1.394062e+002	-3.998092e+000	-4.759730e+001	-3.998679e+000	-4.757441e+001	-2.223774e+000	-1.372738e+002
765083000	-2.073749e+000	-1.406041e+002	-4.236687e+000	-4.871602e+001	-4.245379e+000	-4.869636e+001	-2.080552e+000	-1.383403e+002
787582500	-1.927056e+000	-1.417812e+002	-4.480244e+000	-4.988094e+001	-4.474998e+000	-4.981335e+001	-1.938507e+000	-1.394537e+002
810082000	-1.808374e+000	-1.428763e+002	-4.734659e+000	-5.096456e+001	-4.720053e+000	-5.085512e+001	-1.799642e+000	-1.405139e+002
832581500	-1.681204e+000	-1.440030e+002	-4.980067e+000	-5.200773e+001	-4.985225e+000	-5.192082e+001	-1.681700e+000	-1.415486e+002
855081000	-1.565407e+000	-1.451218e+002	-5.246442e+000	-5.308530e+001	-5.240675e+000	-5.297749e+001	-1.563166e+000	-1.425583e+002
877580500	-1.452360e+000	-1.462084e+002	-5.519730e+000	-5.413553e+001	-5.513790e+000	-5.409605e+001	-1.453537e+000	-1.435936e+002
900080000	-1.348883e+000	-1.472894e+002	-5.796567e+000	-5.515420e+001	-5.806598e+000	-5.510922e+001	-1.351278e+000	-1.445560e+002
922579500	-1.251586e+000	-1.482967e+002	-6.099853e+000	-5.612873e+001	-6.090088e+000	-5.602091e+001	-1.243029e+000	-1.454941e+002
945079000	-1.152813e+000	-1.493487e+002	-6.385904e+000	-5.705336e+001	-6.393622e+000	-5.690136e+001	-1.155875e+000	-1.464415e+002
967578500	-1.062550e+000	-1.504289e+002	-6.689223e+000	-5.800597e+001	-6.688785e+000	-5.790168e+001	-1.060910e+000	-1.474940e+002
990078000	-9.783295e-001	-1.514692e+002	-7.006601e+000	-5.891029e+001	-6.983194e+000	-5.880725e+001	-9.679858e-001	-1.484346e+002
1012577500	-8.990270e-001	-1.525334e+002	-7.333844e+000	-5.997110e+001	-7.317839e+000	-5.980880e+001	-8.948354e-001	-1.493962e+002
1035077000	-8.230137e-001	-1.535253e+002	-7.660553e+000	-6.086243e+001	-7.653351e+000	-6.077051e+001	-8.198963e-001	-1.503856e+002
1057576500	-7.463515e-001	-1.545407e+002	-8.017479e+000	-6.177497e+001	-8.012957e+000	-6.172566e+001	-7.516651e-001	-1.512730e+002
1080076000	-6.815635e-001	-1.556123e+002	-8.371769e+000	-6.275642e+001	-8.370868e+000	-6.257089e+001	-6.806259e-001	-1.521491e+002
1102575500	-6.323794e-001	-1.565611e+002	-8.764081e+000	-6.356174e+001	-8.754819e+000	-6.351376e+001	-6.241865e-001	-1.530781e+002
1125075000	-5.711671e-001	-1.575684e+002	-9.155092e+000	-6.443281e+001	-9.138794e+000	-6.446438e+001	-5.653676e-001	-1.540104e+002
1147574500	-5.084271e-001	-1.584837e+002	-9.548119e+000	-6.531274e+001	-9.550292e+000	-6.522619e+001	-5.134495e-001	-1.548240e+002
1170074000	-4.649280e-001	-1.594117e+002	-9.993078e+000	-6.621129e+001	-9.980159e+000	-6.601239e+001	-4.613075e-001	-1.556710e+002
1192573500	-4.144586e-001	-1.603412e+002	-1.043061e+001	-6.691174e+001	-1.043055e+001	-6.683066e+001	-4.200852e-001	-1.565576e+002
1215073000	-3.638038e-001	-1.613145e+002	-1.087330e+001	-6.771182e+001	-1.087465e+001	-6.758778e+001	-3.731394e-001	-1.574228e+002
1237572500	-3.314177e-001	-1.622582e+002	-1.137110e+001	-6.870323e+001	-1.134956e+001	-6.852846e+001	-3.313399e-001	-1.582600e+002
1260072000	-2.991111e-001	-1.632153e+002	-1.189651e+001	-6.968991e+001	-1.187446e+001	-6.950703e+001	-2.999402e-001	-1.590807e+002
1282571500	-2.672095e-001	-1.640843e+002	-1.246744e+001	-7.052476e+001	-1.245411e+001	-7.042659e+001	-2.717171e-001	-1.598972e+002
1305071000	-2.396872e-001	-1.649219e+002	-1.307991e+001	-7.125964e+001	-1.308266e+001	-7.118583e+001	-2.429741e-001	-1.606513e+002
1327570500	-2.035583e-001	-1.658179e+002	-1.371226e+001	-7.190348e+001	-1.370697e+001	-7.182449e+001	-2.049249e-001	-1.614200e+002
1350070000	-1.816434e-001	-1.667116e+002	-1.438742e+001	-7.244156e+001	-1.438295e+001	-7.237055e+001	-1.767814e-001	-1.622054e+002
1372569500	-1.429454e-001	-1.676368e+002	-1.509758e+001	-7.315131e+001	-1.509342e+001	-7.316480e+001	-1.410859e-001	-1.630182e+002
1395069000	-1.172239e-001	-1.686093e+002	-1.586367e+001	-7.372038e+001	-1.587250e+001	-7.364501e+001	-1.182916e-001	-1.637748e+002
1417568500	-1.001762e-001	-1.694836e+002	-1.672892e+001	-7.416991e+001	-1.672664e+001	-7.407788e+001	-9.531671e-002	-1.645196e+002
1440068000	-7.895651e-002	-1.703605e+002	-1.766597e+001	-7.454062e+001	-1.765993e+001	-7.452228e+001	-7.961645e-002	-1.653216e+002
1462567500	-6.567593e-002	-1.712926e+002	-1.868872e+001	-7.483800e+001	-1.867289e+001	-7.476338e+001	-6.018929e-002	-1.660726e+002
1485067000	-5.189392e-002	-1.721286e+002	-1.981889e+001	-7.509349e+001	-1.982027e+001	-7.498067e+001	-5.379394e-002	-1.668317e+002
1507566500	-3.995764e-002	-1.730578e+002	-2.112291e+001	-7.533469e+001	-2.111255e+001	-7.531985e+001	-4.096621e-002	-1.676228e+002
1530066000	-2.523664e-002	-1.739222e+002	-2.264440e+001	-7.542269e+001	-2.264153e+001	-7.539559e+001	-2.939388e-002	-1.683998e+002
1552565500	-2.221379e-002	-1.748283e+002	-2.452033e+001	-7.503725e+001	-2.450937e+001	-7.495189e+001	-1.922981e-002	-1.691498e+002
1575065000	-2.240186e-002	-1.756563e+002	-2.685805e+001	-7.408388e+001	-2.684892e+001	-7.409304e+001	-1.807894e-002	-1.699477e+002
1597564500	-2.018212e-002	-1.765360e+002	-2.996318e+001	-7.147248e+001	-2.996667e+001	-7.136515e+001	-1.695325e-002	-1.706502e+002
1620064000	-2.615607e-002	-1.773643e+002	-3.485605e+001	-6.479172e+001	-3.485461e+001	-6.472152e+001	-1.310086e-002	-1.713795e+002
1642563500	-2.795539e-002	-1.782194e+002	-4.409296e+001	-2.037256e+001	-4.407386e+001	-2.030295e+001	-1.545642e-002	-1.720905e+002
1665063000	-2.801578e-002	-1.791014e+002	-3.789098e+001	6.755628e+001	-3.787429e+001	6.761828e+001	-2.012576e-002	-1.728375e+002
1687562500	-2.615872e-002	-1.799396e+002	-3.176004e+001	8.059172e+001	-3.176385e+001	8.069408e+001	-2.649674e-002	-1.735249e+002
1710062000	-3.916435e-002	1.791534e+002	-2.819656e+001	8.442011e+001	-2.818266e+001	8.453623e+001	-4.126717e-002	-1.742540e+002
1732561500	-4.036180e-002	1.782805e+002	-2.566679e+001	8.594158e+001	-2.565443e+001	8.602900e+001	-4.768893e-002	-1.749922e+002
1755061000	-5.127114e-002	1.775096e+002	-2.370330e+001	8.700886e+001	-2.369577e+001	8.714270e+001	-5.962728e-002	-1.756550e+002
1777560500	-6.947816e-002	1.767066e+002	-2.207428e+001	8.751399e+001	-2.207798e+001	8.758401e+001	-7.802980e-002	-1.763391e+002
1800060000	-9.105715e-002	1.759208e+002	-2.064018e+001	8.764028e+001	-2.064568e+001	8.759582e+001	-9.184249e-002	-1.770012e+002
1822559500	-7.671555e-002	1.750598e+002	-1.934576e+001	8.682763e+001	-1.940658e+001	8.656223e+001	-1.003782e-001	-1.778227e+002
1845059000	-2.214298e-002	1.738815e+002	-1.828204e+001	8.554479e+001	-1.844719e+001	8.523961e+001	-9.387282e-002	-1.789247e+002
1867558500	7.206206e-002	1.726555e+002	-1.732117e+001	8.403014e+001	-1.762721e+001	8.402963e+001	-7.290449e-002	1.798770e+002
1890058000	1.901611e-001	1.714460e+002	-1.657255e+001	8.162408e+001	-1.703710e+001	8.263668e+001	-3.337931e-002	1.786541e+002
1912557500	2.827887e-001	1.704607e+002	-1.604817e+001	7.944835e+001	-1.662775e+001	8.214365e+001	3.257594e-003	1.776062e+002
1935057000	3.144319e-001	1.697753e+002	-1.569955e+001	7.762041e+001	-1.628646e+001	8.263865e+001	3.261806e-002	1.770116e+002
1957556500	2.627280e-001	1.694910e+002	-1.551116e+001	7.657601e+001	-1.593627e+001	8.411331e+001	4.124410e-002	1.770155e+002
1980056000	1.087451e-001	1.694814e+002	-1.541456e+001	7.674146e+001	-1.548821e+001	8.632338e+001	2.434603e-002	1.777067e+002
2002555500	-1.458516e-001	1.696175e+002	-1.529953e+001	7.824114e+001	-1.488891e+001	8.875125e+001	-2.171269e-002	1.791258e+002
2025055000	-4.695669e-001	1.697694e+002	-1.510226e+001	8.079648e+001	-1.418014e+001	9.083048e+001	-1.056496e-001	-1.788169e+002
2047554500	-8.330482e-001	1.697625e+002	-1.473476e+001	8.400579e+001	-1.335994e+001	9.231736e+001	-2.198567e-001	-1.762930e+002
2070054000	-1.184676e+000	1.694747e+002	-1.420334e+001	8.729485e+001	-1.248471e+001	9.299409e+001	-3.707201e-001	-1.735920e+002
2092553500	-1.495390e+000	1.689695e+002	-1.350389e+001	9.036332e+001	-1.157084e+001	9.292417e+001	-5.661196e-001	-1.709799e+002
2115053000	-1.734157e+000	1.684764e+002	-1.265236e+001	9.243768e+001	-1.062831e+001	9.169739e+001	-8.044172e-001	-1.687778e+002
2137552500	-1.902518e+000	1.682031e+002	-1.171978e+001	9.321107e+001	-9.719292e+000	8.923356e+001	-1.077198e+000	-1.674181e+002
2160052000	-2.027347e+000	1.684958e+002	-1.076996e+001	9.266825e+001	-8.899332e+000	8.569880e+001	-1.369516e+000	-1.673595e+002
2182551500	-2.129293e+000	1.695200e+002	-9.866170e+000	9.066645e+001	-8.218279e+000	8.113537e+001	-1.622770e+000	-1.691515e+002
2205051000	-2.226420e+000	1.711268e+002	-9.090220e+000	8.727385e+001	-7.745109e+000	7.557964e+001	-1.752243e+000	-1.734971e+002
2227550500	-2.244298e+000	1.730059e+002	-8.485532e+000	8.272118e+001	-7.533002e+000	6.932762e+001	-1.669680e+000	1.793236e+002
2250050000	-2.185317e+000	1.744426e+002	-8.130373e+000	7.715464e+001	-7.669134e+000	6.281536e+001	-1.311511e+000	1.698037e+002
2272549500	-2.058005e+000	1.745745e+002	-8.106943e+000	7.138325e+001	-8.251356e+000	5.724815e+001	-7.663479e-001	1.593773e+002
2295049000	-1.886095e+000	1.730208e+002	-8.435032e+000	6.660677e+001	-9.260539e+000	5.461848e+001	-2.033245e-001	1.499364e+002
2317548500	-1.640990e+000	1.701929e+002	-9.008072e+000	6.416457e+001	-1.041452e+001	5.711103e+001	2.334204e-001	1.430633e+002
2340048000	-1.252515e+000	1.668237e+002	-9.653940e+000	6.458713e+001	-1.114142e+001	6.495508e+001	5.005430e-001	1.393593e+002
2362547500	-6.888806e-001	1.638186e+002	-1.016568e+001	6.775410e+001	-1.094560e+001	7.480235e+001	6.145796e-001	1.386636e+002
2385047000	2.681769e-002	1.619604e+002	-1.037593e+001	7.292420e+001	-9.948485e+000	8.218682e+001	6.049656e-001	1.404624e+002
2407546500	8.069289e-001	1.613948e+002	-1.022052e+001	7.904471e+001	-8.623755e+000	8.562556e+001	4.806924e-001	1.441566e+002
2430046000	1.561862e+000	1.617361e+002	-9.702687e+000	8.477116e+001	-7.289143e+000	8.553284e+001	2.420187e-001	1.492258e+002
2452545500	2.192401e+000	1.624239e+002	-8.918527e+000	8.924520e+001	-6.119507e+000	8.275182e+001	-1.218761e-001	1.553321e+002
2475045000	2.604520e+000	1.629721e+002	-7.996956e+000	9.196477e+001	-5.205201e+000	7.808709e+001	-6.148417e-001	1.623428e+002
2497544500	2.729359e+000	1.630076e+002	-7.054830e+000	9.291099e+001	-4.586295e+000	7.225661e+001	-1.215518e+000	1.702539e+002
2520044000	2.534602e+000	1.623341e+002	-6.158313e+000	9.224948e+001	-4.262702e+000	6.578687e+001	-1.862612e+000	1.790027e+002
2542543500	2.053284e+000	1.609739e+002	-5.333517e+000	9.038230e+001	-4.244203e+000	5.922385e+001	-2.443127e+000	-1.718662e+002
2565043000	1.388076e+000	1.588437e+002	-4.556800e+000	8.761460e+001	-4.527226e+000	5.297152e+001	-2.851222e+000	-1.635772e+002
2587542500	6.895886e-001	1.555676e+002	-3.770794e+000	8.400001e+001	-5.133171e+000	4.734791e+001	-3.055588e+000	-1.579747e+002
2610042000	9.016422e-002	1.508103e+002	-2.928484e+000	7.925046e+001	-6.155107e+000	4.301560e+001	-3.084475e+000	-1.571664e+002
2632541500	-3.249880e-001	1.445865e+002	-2.035271e+000	7.266693e+001	-7.760768e+000	4.183220e+001	-2.929893e+000	-1.632696e+002
2655041000	-6.249786e-001	1.373682e+002	-1.191805e+000	6.316422e+001	-9.852391e+000	4.962663e+001	-2.466984e+000	-1.779145e+002
2677540500	-1.058318e+000	1.304520e+002	-7.265699e-001	5.016818e+001	-1.030339e+001	7.163902e+001	-1.665886e+000	1.599271e+002
2700040000	-1.829186e+000	1.268733e+002	-1.090138e+000	3.547567e+001	-7.805296e+000	8.477421e+001	-8.952068e-001	1.362155e+002
2722539500	-2.609935e+000	1.292870e+002	-2.283087e+000	2.326440e+001	-5.598637e+000	8.387730e+001	-5.249449e-001	1.186672e+002
2745039000	-2.870677e+000	1.355372e+002	-3.881551e+000	1.571656e+001	-4.235329e+000	7.983328e+001	-4.061291e-001	1.101047e+002
2767538500	-2.620955e+000	1.415291e+002	-5.554203e+000	1.183237e+001	-3.193613e+000	7.550322e+001	-2.125872e-001	1.085143e+002
2790038000	-2.122762e+000	1.450331e+002	-7.313900e+000	1.028876e+001	-2.239409e+000	7.015055e+001	1.783517e-001	1.105433e+002
2812537500	-1.596360e+000	1.450962e+002	-9.335330e+000	1.151703e+001	-1.385341e+000	6.298718e+001	6.623616e-001	1.135370e+002
2835037000	-1.172196e+000	1.411591e+002	-1.170436e+001	1.821023e+001	-7.839283e-001	5.356510e+001	1.056522e+000	1.162387e+002
2857536500	-9.942731e-001	1.338397e+002	-1.366263e+001	3.475592e+001	-6.354585e-001	4.241812e+001	1.165610e+000	1.187668e+002
2880036000	-1.154702e+000	1.250795e+002	-1.364124e+001	5.552285e+001	-1.077342e+000	3.121843e+001	8.902271e-001	1.222435e+002
2902535500	-1.582021e+000	1.173670e+002	-1.233290e+001	6.807120e+001	-2.052699e+000	2.180911e+001	3.332694e-001	1.279163e+002
2925035000	-2.153810e+000	1.124054e+002	-1.114686e+001	7.390185e+001	-3.418004e+000	1.517441e+001	-2.727844e-001	1.360931e+002
2947534500	-2.763386e+000	1.105881e+002	-1.025348e+001	7.693625e+001	-4.964145e+000	1.162101e+001	-7.392621e-001	1.461014e+002
2970034000	-3.372438e+000	1.117204e+002	-9.483485e+000	7.906891e+001	-6.562951e+000	1.122885e+001	-9.674225e-001	1.566377e+002
2992533500	-3.931892e+000	1.154740e+002	-8.675555e+000	8.051455e+001	-8.125627e+000	1.401460e+001	-9.862723e-001	1.660447e+002
3015033000	-4.350235e+000	1.211313e+002	-7.751981e+000	8.073692e+001	-9.579434e+000	1.999487e+001	-9.598580e-001	1.730089e+002
3037532500	-4.552636e+000	1.272716e+002	-6.818864e+000	7.904033e+001	-1.086186e+001	2.998284e+001	-1.146734e+000	1.768849e+002
3060032000	-4.591226e+000	1.323132e+002	-6.052239e+000	7.549348e+001	-1.159146e+001	4.532577e+001	-1.776443e+000	1.776046e+002
3082531500	-4.651975e+000	1.355213e+002	-5.510775e+000	7.098927e+001	-1.097083e+001	6.336746e+001	-2.966228e+000	1.749789e+002
3105031000	-4.908945e+000	1.372213e+002	-5.174776e+000	6.592673e+001	-9.058909e+000	7.658491e+001	-4.746534e+000	1.670071e+002
3127530500	-5.489554e+000	1.383015e+002	-5.039054e+000	6.032556e+001	-6.734456e+000	8.231689e+001	-6.835691e+000	1.489805e+002
3150030000	-6.488931e+000	1.407960e+002	-5.153729e+000	5.401340e+001	-4.590221e+000	8.233956e+001	-7.721847e+000	1.183025e+002
3172529500	-7.790541e+000	1.481670e+002	-5.619673e+000	4.786192e+001	-2.860275e+000	7.946058e+001	-6.259218e+000	9.064075e+001
3195029000	-8.712549e+000	1.634018e+002	-6.402579e+000	4.278861e+001	-1.466211e+000	7.601816e+001	-4.209646e+000	7.711466e+001
3217528500	-8.116112e+000	-1.758895e+002	-7.354640e+000	3.876208e+001	-1.408263e-001	7.315639e+001	-2.583699e+000	7.423537e+001
3240028000	-5.704852e+000	-1.581675e+002	-8.268071e+000	3.453808e+001	1.491887e+000	7.075143e+001	-1.299113e+000	7.853574e+001
3262527500	-1.853537e+000	-1.491976e+002	-9.013490e+000	2.539873e+001	3.947810e+000	6.656905e+001	1.170382e-001	8.869031e+001
3285027000	3.557110e+000	-1.572086e+002	-9.727013e+000	-7.538140e+000	7.922249e+000	5.095190e+001	2.945896e+000	1.003758e+002
3307526500	6.840803e+000	1.533965e+002	-1.054252e+001	-1.264375e+002	9.841382e+000	-2.803862e+000	5.950429e+000	8.560829e+001
3330026000	2.733613e+000	1.215000e+002	-9.018773e+000	1.549047e+002	4.224283e+000	-3.799074e+001	3.851814e+000	8.057985e+001
3352525500	-5.550959e-002	1.167165e+002	-7.718339e+000	1.362860e+002	-6.547788e-001	-4.678757e+001	2.714801e+000	9.182458e+001
3375025000	-9.760337e-001	1.186110e+002	-6.336584e+000	1.315532e+002	-4.701593e+000	-5.090505e+001	2.338197e+000	1.050051e+002
3397524500	-6.622698e-001	1.228552e+002	-4.770885e+000	1.313374e+002	-8.971886e+000	-5.757037e+001	2.342605e+000	1.184685e+002
