!Agilent Technologies,E5071C,MY46101151,A.11.02
!Date: Sun Sep 24 17:01:00 2017
!Data & Calibration Information:
!Freq	S11:SOLT2(ON)	S21:SOLT2(ON)	S12:SOLT2(ON)	S22:SOLT2(ON)
!PortZ  Port1:50+j0    Port2:50+j0
!Above PortZ is port z conversion or system Z0 setting when saving the data.
!When reading, reference impedance value at option line is always used.
# Hz S dB R 50
100000	-1.211924e-001	9.392194e+000	-6.495059e+001	1.006304e+002	-6.639959e+001	9.746103e+001	1.491487e-002	9.573020e+000
9099500	2.447104e-003	-2.784540e+000	-2.634444e+001	8.705931e+001	-2.635579e+001	8.723179e+001	4.694642e-003	-2.810481e+000
18099000	-2.639751e-002	-5.583383e+000	-2.040458e+001	8.442220e+001	-2.041376e+001	8.450264e+001	-2.969415e-002	-5.535121e+000
27098500	-7.883309e-002	-8.331558e+000	-1.695716e+001	8.173169e+001	-1.696668e+001	8.174689e+001	-7.754312e-002	-8.245779e+000
36098000	-1.439901e-001	-1.102805e+001	-1.454836e+001	7.900265e+001	-1.454671e+001	7.908946e+001	-1.516263e-001	-1.094349e+001
45097500	-2.326706e-001	-1.370058e+001	-1.269571e+001	7.639767e+001	-1.270299e+001	7.638614e+001	-2.365241e-001	-1.356359e+001
54097000	-3.369540e-001	-1.630300e+001	-1.122279e+001	7.378872e+001	-1.122703e+001	7.377278e+001	-3.347206e-001	-1.612262e+001
63096500	-4.561088e-001	-1.879037e+001	-1.001588e+001	7.124359e+001	-1.001846e+001	7.129082e+001	-4.527330e-001	-1.861278e+001
72096000	-5.842578e-001	-2.127273e+001	-8.977812e+000	6.881780e+001	-8.998936e+000	6.884071e+001	-5.818292e-001	-2.103950e+001
81095500	-7.277360e-001	-2.365187e+001	-8.102296e+000	6.649287e+001	-8.121713e+000	6.649172e+001	-7.265142e-001	-2.340640e+001
90095000	-8.813869e-001	-2.595465e+001	-7.358723e+000	6.411453e+001	-7.368964e+000	6.414972e+001	-8.810765e-001	-2.566773e+001
99094500	-1.044095e+000	-2.816494e+001	-6.688526e+000	6.193961e+001	-6.706604e+000	6.198323e+001	-1.039384e+000	-2.788372e+001
108094000	-1.221332e+000	-3.031175e+001	-6.113767e+000	5.982709e+001	-6.121992e+000	5.986623e+001	-1.219997e+000	-3.001232e+001
117093500	-1.406622e+000	-3.233490e+001	-5.605009e+000	5.777087e+001	-5.617956e+000	5.783658e+001	-1.400629e+000	-3.201851e+001
126093000	-1.592606e+000	-3.430759e+001	-5.143916e+000	5.582542e+001	-5.164728e+000	5.586419e+001	-1.585745e+000	-3.393166e+001
135092500	-1.783790e+000	-3.616838e+001	-4.742429e+000	5.392968e+001	-4.750574e+000	5.399479e+001	-1.775948e+000	-3.579336e+001
144092000	-1.973846e+000	-3.799141e+001	-4.377537e+000	5.217915e+001	-4.388226e+000	5.217490e+001	-1.972201e+000	-3.755857e+001
153091500	-2.179449e+000	-3.974846e+001	-4.043876e+000	5.044242e+001	-4.066859e+000	5.050146e+001	-2.165186e+000	-3.925015e+001
162091000	-2.377002e+000	-4.134771e+001	-3.759858e+000	4.880499e+001	-3.771698e+000	4.889579e+001	-2.365181e+000	-4.090633e+001
171090500	-2.578429e+000	-4.293468e+001	-3.495507e+000	4.729669e+001	-3.508215e+000	4.730361e+001	-2.574205e+000	-4.242846e+001
180090000	-2.782017e+000	-4.441804e+001	-3.260911e+000	4.580299e+001	-3.266499e+000	4.579966e+001	-2.775878e+000	-4.389128e+001
189089500	-2.997373e+000	-4.583850e+001	-3.040373e+000	4.435971e+001	-3.054379e+000	4.440393e+001	-2.973479e+000	-4.533200e+001
198089000	-3.193542e+000	-4.716700e+001	-2.850532e+000	4.304291e+001	-2.859623e+000	4.305537e+001	-3.177450e+000	-4.661555e+001
207088500	-3.392299e+000	-4.852749e+001	-2.668659e+000	4.179275e+001	-2.680697e+000	4.181314e+001	-3.374742e+000	-4.790130e+001
216088000	-3.599351e+000	-4.971498e+001	-2.507483e+000	4.054704e+001	-2.518565e+000	4.060902e+001	-3.566089e+000	-4.907610e+001
225087500	-3.787629e+000	-5.093711e+001	-2.360406e+000	3.940073e+001	-2.366915e+000	3.942352e+001	-3.771508e+000	-5.022546e+001
234087000	-3.984016e+000	-5.205307e+001	-2.222220e+000	3.822409e+001	-2.229138e+000	3.835315e+001	-3.969211e+000	-5.138309e+001
243086500	-4.185015e+000	-5.310552e+001	-2.097526e+000	3.715691e+001	-2.102742e+000	3.723354e+001	-4.170071e+000	-5.242769e+001
252086000	-4.376468e+000	-5.418575e+001	-1.983349e+000	3.615796e+001	-1.984228e+000	3.625718e+001	-4.359291e+000	-5.345911e+001
261085500	-4.562654e+000	-5.519238e+001	-1.872142e+000	3.522205e+001	-1.878394e+000	3.528232e+001	-4.549584e+000	-5.438563e+001
270085000	-4.749958e+000	-5.599040e+001	-1.784307e+000	3.425661e+001	-1.780815e+000	3.430851e+001	-4.743731e+000	-5.521830e+001
279084500	-4.938185e+000	-5.691469e+001	-1.688457e+000	3.336188e+001	-1.683415e+000	3.343325e+001	-4.935923e+000	-5.617881e+001
288084000	-5.124475e+000	-5.778639e+001	-1.605047e+000	3.254491e+001	-1.605624e+000	3.255273e+001	-5.119492e+000	-5.694212e+001
297083500	-5.302723e+000	-5.861243e+001	-1.527335e+000	3.172590e+001	-1.525014e+000	3.175762e+001	-5.294231e+000	-5.779398e+001
306083000	-5.475823e+000	-5.936518e+001	-1.458061e+000	3.094035e+001	-1.450864e+000	3.098343e+001	-5.475634e+000	-5.859244e+001
315082500	-5.658163e+000	-6.013915e+001	-1.385721e+000	3.017984e+001	-1.381613e+000	3.022197e+001	-5.667022e+000	-5.931407e+001
324082000	-5.845910e+000	-6.090202e+001	-1.321408e+000	2.943453e+001	-1.326270e+000	2.950522e+001	-5.830176e+000	-5.995948e+001
333081500	-6.010903e+000	-6.161784e+001	-1.262899e+000	2.877030e+001	-1.267344e+000	2.882291e+001	-5.997229e+000	-6.065406e+001
342081000	-6.182999e+000	-6.231985e+001	-1.206014e+000	2.810747e+001	-1.211346e+000	2.816078e+001	-6.161356e+000	-6.136893e+001
351080500	-6.349200e+000	-6.301763e+001	-1.155183e+000	2.747587e+001	-1.163872e+000	2.749802e+001	-6.331527e+000	-6.188762e+001
360080000	-6.511146e+000	-6.367968e+001	-1.104300e+000	2.687585e+001	-1.114968e+000	2.685187e+001	-6.502811e+000	-6.246357e+001
369079500	-6.691549e+000	-6.414347e+001	-1.064243e+000	2.621532e+001	-1.067339e+000	2.623673e+001	-6.665658e+000	-6.304861e+001
378079000	-6.852695e+000	-6.468670e+001	-1.026014e+000	2.564581e+001	-1.025548e+000	2.566087e+001	-6.826616e+000	-6.360566e+001
387078500	-7.013404e+000	-6.522110e+001	-9.880255e-001	2.509129e+001	-9.917553e-001	2.510279e+001	-6.973282e+000	-6.402646e+001
396078000	-7.159203e+000	-6.580994e+001	-9.512275e-001	2.458301e+001	-9.548070e-001	2.459695e+001	-7.118059e+000	-6.450084e+001
405077500	-7.304552e+000	-6.628228e+001	-9.141875e-001	2.409031e+001	-9.157281e-001	2.409772e+001	-7.264296e+000	-6.510138e+001
414077000	-7.443913e+000	-6.687626e+001	-8.807596e-001	2.363225e+001	-8.828080e-001	2.362474e+001	-7.405330e+000	-6.548885e+001
423076500	-7.598960e+000	-6.728016e+001	-8.496247e-001	2.314354e+001	-8.469475e-001	2.317438e+001	-7.560301e+000	-6.596892e+001
432076000	-7.731644e+000	-6.774832e+001	-8.174048e-001	2.269887e+001	-8.200442e-001	2.272691e+001	-7.698678e+000	-6.640408e+001
441075500	-7.886047e+000	-6.825842e+001	-7.894507e-001	2.223488e+001	-7.910905e-001	2.230243e+001	-7.835130e+000	-6.687512e+001
450075000	-8.007852e+000	-6.876802e+001	-7.636738e-001	2.181757e+001	-7.652762e-001	2.188223e+001	-7.988157e+000	-6.727479e+001
459074500	-8.145644e+000	-6.915794e+001	-7.332013e-001	2.144806e+001	-7.419804e-001	2.145807e+001	-8.098452e+000	-6.759699e+001
468074000	-8.278624e+000	-6.962421e+001	-7.107449e-001	2.103289e+001	-7.170164e-001	2.107777e+001	-8.254412e+000	-6.801681e+001
477073500	-8.414513e+000	-6.996863e+001	-6.864934e-001	2.062284e+001	-6.929806e-001	2.068627e+001	-8.372853e+000	-6.838153e+001
486073000	-8.524812e+000	-7.049362e+001	-6.668096e-001	2.027440e+001	-6.707737e-001	2.031567e+001	-8.490833e+000	-6.876417e+001
495072500	-8.681462e+000	-7.091011e+001	-6.455627e-001	1.990021e+001	-6.527994e-001	1.991169e+001	-8.620595e+000	-6.898565e+001
504072000	-8.793048e+000	-7.114324e+001	-6.264336e-001	1.953665e+001	-6.283707e-001	1.957669e+001	-8.752689e+000	-6.939862e+001
513071500	-8.923042e+000	-7.151850e+001	-6.065226e-001	1.918770e+001	-6.170712e-001	1.923678e+001	-8.853008e+000	-6.958538e+001
522071000	-9.028833e+000	-7.197855e+001	-5.861873e-001	1.888470e+001	-5.886717e-001	1.890306e+001	-9.005472e+000	-7.008724e+001
531070500	-9.147256e+000	-7.227148e+001	-5.711771e-001	1.854116e+001	-5.789662e-001	1.859549e+001	-9.108836e+000	-7.031445e+001
540070000	-9.269876e+000	-7.268301e+001	-5.544639e-001	1.825683e+001	-5.580934e-001	1.828711e+001	-9.227625e+000	-7.061766e+001
549069500	-9.397542e+000	-7.312316e+001	-5.357644e-001	1.794217e+001	-5.422701e-001	1.797285e+001	-9.349035e+000	-7.082566e+001
558069000	-9.513144e+000	-7.334562e+001	-5.257278e-001	1.765605e+001	-5.280190e-001	1.765389e+001	-9.472132e+000	-7.103937e+001
567068500	-9.612469e+000	-7.379522e+001	-5.079465e-001	1.738005e+001	-5.142015e-001	1.737548e+001	-9.588555e+000	-7.135281e+001
576068000	-9.710862e+000	-7.404130e+001	-4.958676e-001	1.710297e+001	-5.025095e-001	1.709697e+001	-9.672661e+000	-7.161728e+001
585067500	-9.843766e+000	-7.425692e+001	-4.836935e-001	1.681290e+001	-4.874548e-001	1.679466e+001	-9.799430e+000	-7.188013e+001
594067000	-9.958172e+000	-7.452066e+001	-4.715320e-001	1.655825e+001	-4.746228e-001	1.653543e+001	-9.886640e+000	-7.205526e+001
603066500	-1.006202e+001	-7.473364e+001	-4.612600e-001	1.631217e+001	-4.613182e-001	1.627308e+001	-1.001620e+001	-7.231064e+001
612066000	-1.018269e+001	-7.506931e+001	-4.472759e-001	1.605309e+001	-4.496776e-001	1.604550e+001	-1.011436e+001	-7.250815e+001
621065500	-1.028775e+001	-7.542928e+001	-4.345287e-001	1.581247e+001	-4.364597e-001	1.579565e+001	-1.023191e+001	-7.285075e+001
630065000	-1.038431e+001	-7.576548e+001	-4.222532e-001	1.557924e+001	-4.265779e-001	1.557779e+001	-1.034725e+001	-7.292482e+001
639064500	-1.049908e+001	-7.591767e+001	-4.151925e-001	1.534310e+001	-4.158292e-001	1.537000e+001	-1.043369e+001	-7.323666e+001
648064000	-1.059689e+001	-7.615140e+001	-4.033576e-001	1.512473e+001	-4.024863e-001	1.514256e+001	-1.055377e+001	-7.350551e+001
657063500	-1.070287e+001	-7.643582e+001	-3.927028e-001	1.490547e+001	-3.919003e-001	1.491395e+001	-1.065744e+001	-7.378317e+001
666063000	-1.080750e+001	-7.671969e+001	-3.847556e-001	1.468649e+001	-3.846045e-001	1.472018e+001	-1.073156e+001	-7.395959e+001
675062500	-1.088505e+001	-7.707509e+001	-3.724978e-001	1.448496e+001	-3.738109e-001	1.448144e+001	-1.084454e+001	-7.417671e+001
684062000	-1.100079e+001	-7.724998e+001	-3.642502e-001	1.427471e+001	-3.648363e-001	1.426505e+001	-1.094358e+001	-7.414939e+001
693061500	-1.106839e+001	-7.749818e+001	-3.555528e-001	1.408312e+001	-3.561457e-001	1.404707e+001	-1.103770e+001	-7.425481e+001
702061000	-1.117980e+001	-7.778506e+001	-3.469032e-001	1.388887e+001	-3.478806e-001	1.385657e+001	-1.113684e+001	-7.450777e+001
711060500	-1.127554e+001	-7.783443e+001	-3.389077e-001	1.369352e+001	-3.391661e-001	1.365952e+001	-1.124588e+001	-7.455453e+001
720060000	-1.139138e+001	-7.833626e+001	-3.314748e-001	1.349235e+001	-3.322602e-001	1.345279e+001	-1.133669e+001	-7.469653e+001
729059500	-1.148626e+001	-7.826547e+001	-3.251781e-001	1.329183e+001	-3.232306e-001	1.329694e+001	-1.144716e+001	-7.495047e+001
738059000	-1.157856e+001	-7.870962e+001	-3.170540e-001	1.310815e+001	-3.175944e-001	1.309697e+001	-1.153001e+001	-7.495169e+001
747058500	-1.165532e+001	-7.895590e+001	-3.118273e-001	1.294268e+001	-3.111166e-001	1.293645e+001	-1.159272e+001	-7.510430e+001
756058000	-1.177285e+001	-7.903935e+001	-3.072125e-001	1.273860e+001	-3.067407e-001	1.275772e+001	-1.166929e+001	-7.511606e+001
765057500	-1.181272e+001	-7.926606e+001	-3.007176e-001	1.258514e+001	-3.026866e-001	1.258849e+001	-1.178365e+001	-7.510653e+001
774057000	-1.195489e+001	-7.950810e+001	-2.904656e-001	1.240617e+001	-2.932198e-001	1.242541e+001	-1.185733e+001	-7.556622e+001
783056500	-1.201826e+001	-7.948246e+001	-2.886295e-001	1.221219e+001	-2.904657e-001	1.225568e+001	-1.195100e+001	-7.564611e+001
792056000	-1.208819e+001	-7.976968e+001	-2.824289e-001	1.208186e+001	-2.834005e-001	1.207678e+001	-1.203871e+001	-7.579585e+001
801055500	-1.219561e+001	-7.999010e+001	-2.773798e-001	1.190908e+001	-2.808670e-001	1.192411e+001	-1.210413e+001	-7.576108e+001
810055000	-1.228726e+001	-7.995980e+001	-2.736452e-001	1.173828e+001	-2.739890e-001	1.177414e+001	-1.218125e+001	-7.598361e+001
819054500	-1.234812e+001	-8.017214e+001	-2.697758e-001	1.160950e+001	-2.680719e-001	1.160415e+001	-1.229370e+001	-7.588101e+001
828054000	-1.241707e+001	-8.057993e+001	-2.614891e-001	1.146090e+001	-2.645915e-001	1.146436e+001	-1.233426e+001	-7.597280e+001
837053500	-1.252593e+001	-8.067605e+001	-2.588788e-001	1.131211e+001	-2.596124e-001	1.132701e+001	-1.241200e+001	-7.612911e+001
846053000	-1.258675e+001	-8.074993e+001	-2.551749e-001	1.115703e+001	-2.542560e-001	1.115714e+001	-1.252811e+001	-7.621956e+001
855052500	-1.266559e+001	-8.100636e+001	-2.518621e-001	1.103319e+001	-2.501841e-001	1.104367e+001	-1.256376e+001	-7.630034e+001
864052000	-1.275587e+001	-8.104606e+001	-2.462056e-001	1.089966e+001	-2.483481e-001	1.091658e+001	-1.263465e+001	-7.629893e+001
873051500	-1.283642e+001	-8.130538e+001	-2.409143e-001	1.075599e+001	-2.404053e-001	1.075520e+001	-1.274823e+001	-7.648613e+001
882051000	-1.288897e+001	-8.136646e+001	-2.374146e-001	1.064634e+001	-2.333896e-001	1.063650e+001	-1.280470e+001	-7.663815e+001
891050500	-1.295500e+001	-8.142665e+001	-2.344053e-001	1.052291e+001	-2.346367e-001	1.050658e+001	-1.286443e+001	-7.659456e+001
900050000	-1.305424e+001	-8.186961e+001	-2.289385e-001	1.038754e+001	-2.311649e-001	1.038587e+001	-1.296096e+001	-7.653036e+001
909049500	-1.312234e+001	-8.190115e+001	-2.279006e-001	1.028037e+001	-2.268076e-001	1.029038e+001	-1.298207e+001	-7.667379e+001
918049000	-1.320149e+001	-8.203697e+001	-2.251537e-001	1.016049e+001	-2.225806e-001	1.018567e+001	-1.305186e+001	-7.673812e+001
927048500	-1.321808e+001	-8.226070e+001	-2.189304e-001	1.005520e+001	-2.154222e-001	1.008605e+001	-1.312761e+001	-7.704503e+001
936048000	-1.328610e+001	-8.275731e+001	-2.103901e-001	9.935159e+000	-2.110934e-001	9.988655e+000	-1.315327e+001	-7.699142e+001
945047500	-1.338992e+001	-8.288653e+001	-2.077520e-001	9.838354e+000	-2.075762e-001	9.880316e+000	-1.324580e+001	-7.701405e+001
954047000	-1.342764e+001	-8.281671e+001	-2.057619e-001	9.719995e+000	-2.027398e-001	9.777206e+000	-1.328281e+001	-7.728412e+001
963046500	-1.350689e+001	-8.309160e+001	-1.990739e-001	9.601147e+000	-1.958639e-001	9.648746e+000	-1.340158e+001	-7.760380e+001
972046000	-1.358598e+001	-8.357779e+001	-1.941732e-001	9.491481e+000	-1.930435e-001	9.530710e+000	-1.347265e+001	-7.744885e+001
981045500	-1.364765e+001	-8.344742e+001	-1.916516e-001	9.372688e+000	-1.871343e-001	9.402745e+000	-1.356138e+001	-7.754005e+001
990045000	-1.368816e+001	-8.373824e+001	-1.880703e-001	9.274245e+000	-1.813146e-001	9.317746e+000	-1.359942e+001	-7.796873e+001
999044500	-1.379356e+001	-8.385020e+001	-1.825085e-001	9.150186e+000	-1.812638e-001	9.186676e+000	-1.369041e+001	-7.750561e+001
1008044000	-1.385756e+001	-8.399320e+001	-1.811820e-001	9.049575e+000	-1.751969e-001	9.091353e+000	-1.377046e+001	-7.792066e+001
1017043500	-1.398471e+001	-8.401006e+001	-1.760773e-001	8.930351e+000	-1.738632e-001	8.977884e+000	-1.384035e+001	-7.776800e+001
1026043000	-1.402590e+001	-8.437156e+001	-1.708583e-001	8.835258e+000	-1.695687e-001	8.872428e+000	-1.391728e+001	-7.792113e+001
1035042500	-1.409808e+001	-8.436550e+001	-1.651528e-001	8.747187e+000	-1.659018e-001	8.765329e+000	-1.398956e+001	-7.808042e+001
1044042000	-1.419247e+001	-8.462625e+001	-1.638180e-001	8.625082e+000	-1.635065e-001	8.656002e+000	-1.406762e+001	-7.774996e+001
1053041500	-1.419748e+001	-8.458380e+001	-1.629231e-001	8.544532e+000	-1.637219e-001	8.557927e+000	-1.410602e+001	-7.769654e+001
1062041000	-1.429249e+001	-8.453761e+001	-1.597987e-001	8.426710e+000	-1.578914e-001	8.444153e+000	-1.424638e+001	-7.788668e+001
1071040500	-1.437952e+001	-8.480402e+001	-1.547936e-001	8.351737e+000	-1.560100e-001	8.350749e+000	-1.429032e+001	-7.765620e+001
1080040000	-1.446854e+001	-8.526841e+001	-1.511900e-001	8.231961e+000	-1.521705e-001	8.231441e+000	-1.431013e+001	-7.790443e+001
1089039500	-1.449136e+001	-8.507316e+001	-1.499962e-001	8.157703e+000	-1.489839e-001	8.143495e+000	-1.439113e+001	-7.777800e+001
1098039000	-1.457817e+001	-8.524412e+001	-1.487652e-001	8.050148e+000	-1.483608e-001	8.032757e+000	-1.449681e+001	-7.781794e+001
1107038500	-1.464667e+001	-8.535014e+001	-1.443051e-001	7.958822e+000	-1.435457e-001	7.960332e+000	-1.452035e+001	-7.808389e+001
1116038000	-1.477692e+001	-8.561973e+001	-1.448747e-001	7.865191e+000	-1.406465e-001	7.863782e+000	-1.460563e+001	-7.814817e+001
1125037500	-1.478339e+001	-8.555548e+001	-1.396255e-001	7.781471e+000	-1.390655e-001	7.764367e+000	-1.472547e+001	-7.822960e+001
1134037000	-1.483522e+001	-8.611117e+001	-1.367276e-001	7.689434e+000	-1.382515e-001	7.684198e+000	-1.480361e+001	-7.810383e+001
1143036500	-1.490144e+001	-8.601507e+001	-1.352333e-001	7.615861e+000	-1.331863e-001	7.611638e+000	-1.481227e+001	-7.822935e+001
1152036000	-1.502012e+001	-8.670622e+001	-1.335340e-001	7.516391e+000	-1.334566e-001	7.541720e+000	-1.488040e+001	-7.804499e+001
1161035500	-1.506895e+001	-8.638579e+001	-1.325531e-001	7.448175e+000	-1.319137e-001	7.467160e+000	-1.495754e+001	-7.821128e+001
1170035000	-1.516120e+001	-8.664939e+001	-1.301362e-001	7.365747e+000	-1.281232e-001	7.410714e+000	-1.498186e+001	-7.835952e+001
1179034500	-1.518859e+001	-8.676031e+001	-1.258369e-001	7.295811e+000	-1.267586e-001	7.321964e+000	-1.506125e+001	-7.831597e+001
1188034000	-1.524541e+001	-8.715302e+001	-1.225645e-001	7.202868e+000	-1.244027e-001	7.246175e+000	-1.510373e+001	-7.811030e+001
1197033500	-1.528463e+001	-8.677389e+001	-1.218619e-001	7.123630e+000	-1.211885e-001	7.160717e+000	-1.517908e+001	-7.850747e+001
1206033000	-1.537671e+001	-8.720334e+001	-1.183464e-001	7.050739e+000	-1.152495e-001	7.096758e+000	-1.520867e+001	-7.874877e+001
1215032500	-1.541481e+001	-8.780877e+001	-1.142767e-001	6.938065e+000	-1.151109e-001	6.980652e+000	-1.527033e+001	-7.888405e+001
1224032000	-1.550342e+001	-8.780455e+001	-1.137383e-001	6.859665e+000	-1.112555e-001	6.891562e+000	-1.536530e+001	-7.885150e+001
1233031500	-1.564353e+001	-8.748152e+001	-1.146573e-001	6.749085e+000	-1.115944e-001	6.787619e+000	-1.541811e+001	-7.895105e+001
1242031000	-1.565791e+001	-8.751758e+001	-1.136582e-001	6.661223e+000	-1.104829e-001	6.713252e+000	-1.549403e+001	-7.863917e+001
1251030500	-1.575668e+001	-8.771039e+001	-1.151040e-001	6.591282e+000	-1.137479e-001	6.615710e+000	-1.557483e+001	-7.861826e+001
1260030000	-1.582752e+001	-8.741409e+001	-1.181383e-001	6.521622e+000	-1.146444e-001	6.557508e+000	-1.561703e+001	-7.859925e+001
1269029500	-1.588335e+001	-8.733303e+001	-1.196335e-001	6.444671e+000	-1.156028e-001	6.480722e+000	-1.570491e+001	-7.826758e+001
1278029000	-1.593030e+001	-8.697359e+001	-1.211748e-001	6.396778e+000	-1.162880e-001	6.425109e+000	-1.576741e+001	-7.804402e+001
1287028500	-1.599590e+001	-8.694727e+001	-1.177418e-001	6.322530e+000	-1.169734e-001	6.367724e+000	-1.582461e+001	-7.794210e+001
1296028000	-1.602642e+001	-8.694832e+001	-1.202397e-001	6.281940e+000	-1.173937e-001	6.312367e+000	-1.586482e+001	-7.796779e+001
1305027500	-1.605172e+001	-8.681838e+001	-1.137811e-001	6.252585e+000	-1.158615e-001	6.284518e+000	-1.589099e+001	-7.745570e+001
1314027000	-1.612250e+001	-8.701679e+001	-1.131233e-001	6.204093e+000	-1.115220e-001	6.228789e+000	-1.595147e+001	-7.801773e+001
1323026500	-1.615991e+001	-8.741927e+001	-1.084794e-001	6.159933e+000	-1.077032e-001	6.162319e+000	-1.600479e+001	-7.799395e+001
1332026000	-1.625422e+001	-8.759480e+001	-1.041614e-001	6.113599e+000	-1.026672e-001	6.099035e+000	-1.603959e+001	-7.801630e+001
1341025500	-1.630183e+001	-8.766379e+001	-9.813349e-002	6.054885e+000	-9.877800e-002	6.025600e+000	-1.618516e+001	-7.814895e+001
1350025000	-1.640111e+001	-8.778952e+001	-9.834484e-002	5.989142e+000	-9.633720e-002	5.968330e+000	-1.618861e+001	-7.773588e+001
1359024500	-1.650468e+001	-8.798630e+001	-9.767057e-002	5.920865e+000	-9.467334e-002	5.884154e+000	-1.630673e+001	-7.799007e+001
1368024000	-1.655681e+001	-8.842489e+001	-9.455474e-002	5.840102e+000	-9.440996e-002	5.816995e+000	-1.638206e+001	-7.831794e+001
