!Agilent Technologies,E5071C,MY46101151,A.11.02
!Date: Sun Sep 24 16:16:42 2017
!Data & Calibration Information:
!Freq	S11:SOLT2(ON)	S21:SOLT2(ON)	S12:SOLT2(ON)	S22:SOLT2(ON)
!PortZ  Port1:50+j0    Port2:50+j0
!Above PortZ is port z conversion or system Z0 setting when saving the data.
!When reading, reference impedance value at option line is always used.
# Hz S RI R 50
100000	-9.902018e-001	-1.625398e-001	2.998331e-003	5.302517e-004	2.966537e-003	6.650964e-004	-9.898042e-001	-1.591699e-001
9099500	-9.974108e-001	3.266477e-002	3.881199e-003	2.021525e-002	4.568946e-003	2.029031e-002	-9.966715e-001	3.280254e-002
18099000	-9.955925e-001	4.703399e-002	5.981025e-003	3.969019e-002	6.041117e-003	3.974444e-002	-9.949825e-001	4.627667e-002
27098500	-9.935582e-001	6.331396e-002	8.526295e-003	5.876763e-002	8.682561e-003	5.880552e-002	-9.927800e-001	6.186033e-002
36098000	-9.902416e-001	8.075150e-002	1.164898e-002	7.755235e-002	1.198647e-002	7.750058e-002	-9.892515e-001	7.955782e-002
45097500	-9.864742e-001	9.812317e-002	1.565113e-002	9.593123e-002	1.570433e-002	9.586456e-002	-9.860638e-001	9.687346e-002
54097000	-9.820562e-001	1.148486e-001	2.011275e-002	1.140085e-001	2.009328e-002	1.140085e-001	-9.807951e-001	1.141203e-001
63096500	-9.775623e-001	1.318788e-001	2.490375e-002	1.319996e-001	2.505063e-002	1.321708e-001	-9.766693e-001	1.311148e-001
72096000	-9.718172e-001	1.497123e-001	3.056112e-002	1.491755e-001	3.055671e-002	1.497443e-001	-9.710344e-001	1.477775e-001
81095500	-9.656135e-001	1.653524e-001	3.679764e-002	1.663156e-001	3.659151e-002	1.668097e-001	-9.648068e-001	1.629856e-001
90095000	-9.589869e-001	1.825577e-001	4.303503e-002	1.834528e-001	4.318054e-002	1.837942e-001	-9.584488e-001	1.795009e-001
99094500	-9.513067e-001	1.979722e-001	5.031197e-002	1.996457e-001	5.063409e-002	2.002233e-001	-9.512361e-001	1.952266e-001
108094000	-9.429490e-001	2.139487e-001	5.794140e-002	2.156531e-001	5.801332e-002	2.157585e-001	-9.421540e-001	2.107614e-001
117093500	-9.347190e-001	2.289865e-001	6.585899e-002	2.310494e-001	6.629310e-002	2.314770e-001	-9.348430e-001	2.252022e-001
126093000	-9.261117e-001	2.428268e-001	7.445155e-002	2.461689e-001	7.453589e-002	2.469745e-001	-9.269277e-001	2.400043e-001
135092500	-9.180225e-001	2.578767e-001	8.293452e-002	2.612419e-001	8.351670e-002	2.614942e-001	-9.178286e-001	2.536765e-001
144092000	-9.087119e-001	2.714773e-001	9.274825e-002	2.756733e-001	9.237919e-002	2.758365e-001	-9.092321e-001	2.670557e-001
153091500	-8.987317e-001	2.848689e-001	1.021214e-001	2.888079e-001	1.022723e-001	2.901739e-001	-8.988061e-001	2.804943e-001
162091000	-8.889029e-001	2.977073e-001	1.118995e-001	3.028972e-001	1.123895e-001	3.033722e-001	-8.887612e-001	2.929740e-001
171090500	-8.790791e-001	3.104917e-001	1.223194e-001	3.156952e-001	1.224032e-001	3.160014e-001	-8.795770e-001	3.054402e-001
180090000	-8.687957e-001	3.223398e-001	1.326249e-001	3.283153e-001	1.328102e-001	3.285063e-001	-8.687575e-001	3.171461e-001
189089500	-8.576530e-001	3.334066e-001	1.432071e-001	3.397142e-001	1.440851e-001	3.408634e-001	-8.576548e-001	3.282336e-001
198089000	-8.469364e-001	3.443409e-001	1.539902e-001	3.518440e-001	1.547039e-001	3.525768e-001	-8.475227e-001	3.390714e-001
207088500	-8.355533e-001	3.545611e-001	1.655895e-001	3.628247e-001	1.663062e-001	3.638146e-001	-8.361620e-001	3.492867e-001
216088000	-8.242635e-001	3.643859e-001	1.768509e-001	3.732074e-001	1.776486e-001	3.748009e-001	-8.252831e-001	3.592373e-001
225087500	-8.129200e-001	3.742842e-001	1.886782e-001	3.837734e-001	1.889610e-001	3.846875e-001	-8.132782e-001	3.684833e-001
234087000	-8.002581e-001	3.829329e-001	1.998793e-001	3.929710e-001	2.009428e-001	3.939784e-001	-8.017671e-001	3.772774e-001
243086500	-7.886053e-001	3.916560e-001	2.113710e-001	4.021211e-001	2.121498e-001	4.030817e-001	-7.907270e-001	3.848439e-001
252086000	-7.763628e-001	3.994830e-001	2.237421e-001	4.109736e-001	2.246442e-001	4.115698e-001	-7.786696e-001	3.932480e-001
261085500	-7.648688e-001	4.075035e-001	2.362624e-001	4.191800e-001	2.364128e-001	4.197954e-001	-7.671405e-001	4.004528e-001
270085000	-7.526543e-001	4.149247e-001	2.470498e-001	4.276504e-001	2.478571e-001	4.278308e-001	-7.555640e-001	4.073851e-001
279084500	-7.405757e-001	4.221291e-001	2.592820e-001	4.346978e-001	2.605921e-001	4.348287e-001	-7.434032e-001	4.139917e-001
288084000	-7.284037e-001	4.279411e-001	2.714974e-001	4.418055e-001	2.723254e-001	4.420691e-001	-7.315706e-001	4.201835e-001
297083500	-7.166695e-001	4.337900e-001	2.833469e-001	4.484830e-001	2.848852e-001	4.487398e-001	-7.195899e-001	4.259471e-001
306083000	-7.046930e-001	4.405273e-001	2.956477e-001	4.548931e-001	2.972814e-001	4.542766e-001	-7.081147e-001	4.316470e-001
315082500	-6.915281e-001	4.449908e-001	3.077347e-001	4.602319e-001	3.085707e-001	4.601243e-001	-6.967037e-001	4.362036e-001
324082000	-6.801687e-001	4.498065e-001	3.191248e-001	4.650568e-001	3.201964e-001	4.661873e-001	-6.849513e-001	4.408039e-001
333081500	-6.683321e-001	4.544927e-001	3.314880e-001	4.704031e-001	3.321346e-001	4.711884e-001	-6.729139e-001	4.452137e-001
342081000	-6.567502e-001	4.578320e-001	3.432540e-001	4.747305e-001	3.442796e-001	4.754827e-001	-6.607843e-001	4.488400e-001
351080500	-6.453202e-001	4.618574e-001	3.555898e-001	4.791256e-001	3.551429e-001	4.798528e-001	-6.490868e-001	4.523204e-001
360080000	-6.326412e-001	4.651124e-001	3.670952e-001	4.826276e-001	3.669920e-001	4.834438e-001	-6.387087e-001	4.561941e-001
369079500	-6.216588e-001	4.680929e-001	3.772589e-001	4.862810e-001	3.782827e-001	4.862705e-001	-6.267318e-001	4.588888e-001
378079000	-6.105637e-001	4.708911e-001	3.883030e-001	4.893719e-001	3.898698e-001	4.896020e-001	-6.152652e-001	4.614767e-001
387078500	-5.984067e-001	4.732245e-001	3.991836e-001	4.917424e-001	4.003857e-001	4.929414e-001	-6.039962e-001	4.633720e-001
396078000	-5.874363e-001	4.749265e-001	4.106841e-001	4.945283e-001	4.113773e-001	4.959917e-001	-5.931764e-001	4.651081e-001
405077500	-5.759940e-001	4.766886e-001	4.211828e-001	4.974462e-001	4.227904e-001	4.979214e-001	-5.811476e-001	4.659903e-001
414077000	-5.657830e-001	4.778055e-001	4.326967e-001	4.997773e-001	4.337157e-001	5.009695e-001	-5.715381e-001	4.670995e-001
423076500	-5.553865e-001	4.782810e-001	4.427242e-001	5.018815e-001	4.444766e-001	5.020455e-001	-5.606507e-001	4.680619e-001
432076000	-5.440474e-001	4.797386e-001	4.534130e-001	5.034766e-001	4.548776e-001	5.043301e-001	-5.511643e-001	4.687698e-001
441075500	-5.346174e-001	4.802299e-001	4.636194e-001	5.045896e-001	4.654654e-001	5.052950e-001	-5.403933e-001	4.691179e-001
450075000	-5.235312e-001	4.805660e-001	4.745591e-001	5.058840e-001	4.751268e-001	5.062200e-001	-5.313160e-001	4.692454e-001
459074500	-5.140068e-001	4.809106e-001	4.849729e-001	5.063938e-001	4.856414e-001	5.080598e-001	-5.212629e-001	4.699886e-001
468074000	-5.043969e-001	4.812354e-001	4.949948e-001	5.073834e-001	4.953980e-001	5.079801e-001	-5.118601e-001	4.694975e-001
477073500	-4.942031e-001	4.808581e-001	5.040325e-001	5.075065e-001	5.054194e-001	5.082327e-001	-5.020006e-001	4.695715e-001
486073000	-4.843100e-001	4.804660e-001	5.146481e-001	5.080875e-001	5.159506e-001	5.084266e-001	-4.923953e-001	4.692044e-001
495072500	-4.751446e-001	4.794349e-001	5.233868e-001	5.075712e-001	5.236136e-001	5.086679e-001	-4.826541e-001	4.690098e-001
504072000	-4.657527e-001	4.795103e-001	5.324322e-001	5.081907e-001	5.342434e-001	5.076685e-001	-4.736780e-001	4.678701e-001
513071500	-4.566097e-001	4.783833e-001	5.414478e-001	5.073507e-001	5.425772e-001	5.089755e-001	-4.643779e-001	4.675052e-001
522071000	-4.477038e-001	4.769750e-001	5.514245e-001	5.069205e-001	5.520469e-001	5.067469e-001	-4.564771e-001	4.657985e-001
531070500	-4.377421e-001	4.760805e-001	5.597611e-001	5.059806e-001	5.605503e-001	5.072155e-001	-4.474739e-001	4.641698e-001
540070000	-4.296555e-001	4.743094e-001	5.685743e-001	5.055662e-001	5.697874e-001	5.064512e-001	-4.390216e-001	4.632825e-001
549069500	-4.215292e-001	4.727292e-001	5.772548e-001	5.040629e-001	5.782855e-001	5.058379e-001	-4.307950e-001	4.623979e-001
558069000	-4.132421e-001	4.719231e-001	5.851256e-001	5.040028e-001	5.860044e-001	5.044648e-001	-4.229697e-001	4.613396e-001
567068500	-4.046646e-001	4.693767e-001	5.942165e-001	5.028819e-001	5.942968e-001	5.031605e-001	-4.146366e-001	4.591108e-001
576068000	-3.967182e-001	4.677502e-001	6.024016e-001	5.019533e-001	6.029116e-001	5.027761e-001	-4.063581e-001	4.569646e-001
585067500	-3.888841e-001	4.663623e-001	6.094306e-001	5.003380e-001	6.107868e-001	5.006298e-001	-3.988318e-001	4.552649e-001
594067000	-3.814848e-001	4.645989e-001	6.172447e-001	4.993142e-001	6.186138e-001	4.997363e-001	-3.913829e-001	4.531846e-001
603066500	-3.738802e-001	4.629634e-001	6.244581e-001	4.982313e-001	6.260435e-001	4.978825e-001	-3.839273e-001	4.512080e-001
612066000	-3.663613e-001	4.613105e-001	6.317376e-001	4.961590e-001	6.334984e-001	4.967882e-001	-3.762694e-001	4.486282e-001
621065500	-3.586995e-001	4.585626e-001	6.393440e-001	4.939452e-001	6.410053e-001	4.943867e-001	-3.699577e-001	4.471207e-001
630065000	-3.520393e-001	4.558235e-001	6.467812e-001	4.924693e-001	6.470664e-001	4.931045e-001	-3.629633e-001	4.450938e-001
639064500	-3.451617e-001	4.538363e-001	6.529759e-001	4.912665e-001	6.546177e-001	4.914760e-001	-3.565201e-001	4.418152e-001
648064000	-3.377465e-001	4.519745e-001	6.597290e-001	4.895793e-001	6.613825e-001	4.892054e-001	-3.506259e-001	4.396838e-001
657063500	-3.310062e-001	4.494359e-001	6.661973e-001	4.872247e-001	6.682003e-001	4.874403e-001	-3.445584e-001	4.366158e-001
666063000	-3.251547e-001	4.469371e-001	6.724679e-001	4.855234e-001	6.749498e-001	4.856998e-001	-3.379140e-001	4.343153e-001
675062500	-3.183233e-001	4.437887e-001	6.800155e-001	4.834565e-001	6.811829e-001	4.827164e-001	-3.316596e-001	4.316185e-001
684062000	-3.122102e-001	4.415608e-001	6.853089e-001	4.810953e-001	6.868680e-001	4.810559e-001	-3.250283e-001	4.298274e-001
693061500	-3.057067e-001	4.386166e-001	6.920660e-001	4.790135e-001	6.928936e-001	4.790956e-001	-3.194884e-001	4.270855e-001
702061000	-2.997534e-001	4.362145e-001	6.977671e-001	4.765218e-001	6.992619e-001	4.768745e-001	-3.137353e-001	4.243814e-001
711060500	-2.937629e-001	4.337678e-001	7.032207e-001	4.749234e-001	7.043742e-001	4.745787e-001	-3.081533e-001	4.215768e-001
720060000	-2.887158e-001	4.309968e-001	7.085715e-001	4.717065e-001	7.097540e-001	4.721469e-001	-3.020762e-001	4.191936e-001
729059500	-2.824457e-001	4.284902e-001	7.138341e-001	4.702056e-001	7.152151e-001	4.694183e-001	-2.973905e-001	4.167175e-001
738059000	-2.776713e-001	4.252118e-001	7.196103e-001	4.673305e-001	7.202406e-001	4.673528e-001	-2.916238e-001	4.144731e-001
747058500	-2.720360e-001	4.221604e-001	7.251379e-001	4.652720e-001	7.259799e-001	4.660391e-001	-2.859929e-001	4.111165e-001
756058000	-2.660872e-001	4.199443e-001	7.294764e-001	4.625843e-001	7.311069e-001	4.634377e-001	-2.809020e-001	4.084219e-001
765057500	-2.609278e-001	4.162674e-001	7.353028e-001	4.606686e-001	7.352614e-001	4.613781e-001	-2.756243e-001	4.057885e-001
774057000	-2.565252e-001	4.144118e-001	7.403224e-001	4.577364e-001	7.413800e-001	4.585267e-001	-2.711725e-001	4.019458e-001
783056500	-2.505802e-001	4.116753e-001	7.447006e-001	4.550180e-001	7.455095e-001	4.560151e-001	-2.665109e-001	3.996665e-001
792056000	-2.458765e-001	4.084151e-001	7.500269e-001	4.537846e-001	7.507138e-001	4.529411e-001	-2.616905e-001	3.965602e-001
801055500	-2.412702e-001	4.057329e-001	7.544471e-001	4.508133e-001	7.549130e-001	4.514986e-001	-2.565779e-001	3.931096e-001
810055000	-2.359466e-001	4.033249e-001	7.586213e-001	4.487744e-001	7.601301e-001	4.487334e-001	-2.524467e-001	3.907276e-001
819054500	-2.313120e-001	3.997078e-001	7.633091e-001	4.468926e-001	7.637707e-001	4.466145e-001	-2.480944e-001	3.880608e-001
828054000	-2.269966e-001	3.964729e-001	7.685562e-001	4.437167e-001	7.686468e-001	4.446589e-001	-2.435066e-001	3.843644e-001
837053500	-2.229610e-001	3.936733e-001	7.721514e-001	4.418699e-001	7.730680e-001	4.423803e-001	-2.387042e-001	3.808059e-001
846053000	-2.179405e-001	3.909327e-001	7.764689e-001	4.392503e-001	7.770285e-001	4.389875e-001	-2.350284e-001	3.790870e-001
855052500	-2.144573e-001	3.876874e-001	7.807325e-001	4.368195e-001	7.818170e-001	4.375166e-001	-2.305318e-001	3.753038e-001
864052000	-2.097375e-001	3.852116e-001	7.843867e-001	4.346865e-001	7.854105e-001	4.355149e-001	-2.266405e-001	3.726498e-001
873051500	-2.064082e-001	3.821490e-001	7.885692e-001	4.319504e-001	7.892826e-001	4.323861e-001	-2.234537e-001	3.700973e-001
882051000	-2.016533e-001	3.788635e-001	7.922382e-001	4.305031e-001	7.934214e-001	4.299862e-001	-2.195580e-001	3.661788e-001
891050500	-1.976898e-001	3.757949e-001	7.962664e-001	4.287721e-001	7.968696e-001	4.279717e-001	-2.157192e-001	3.631629e-001
900050000	-1.946255e-001	3.729238e-001	8.002676e-001	4.249406e-001	7.999924e-001	4.255541e-001	-2.120020e-001	3.604620e-001
909049500	-1.906621e-001	3.703573e-001	8.034124e-001	4.229537e-001	8.047776e-001	4.237393e-001	-2.079787e-001	3.569562e-001
918049000	-1.873776e-001	3.669788e-001	8.065826e-001	4.206384e-001	8.080878e-001	4.213633e-001	-2.053744e-001	3.539945e-001
927048500	-1.834332e-001	3.629478e-001	8.110270e-001	4.182685e-001	8.118522e-001	4.183558e-001	-2.026085e-001	3.507780e-001
936048000	-1.806319e-001	3.599225e-001	8.151159e-001	4.151464e-001	8.157783e-001	4.170214e-001	-1.982311e-001	3.476347e-001
945047500	-1.776409e-001	3.579208e-001	8.179877e-001	4.130216e-001	8.185432e-001	4.147702e-001	-1.954400e-001	3.448537e-001
954047000	-1.733815e-001	3.545337e-001	8.213860e-001	4.110307e-001	8.228256e-001	4.122077e-001	-1.924331e-001	3.411368e-001
963046500	-1.704992e-001	3.514703e-001	8.245619e-001	4.081994e-001	8.253065e-001	4.088219e-001	-1.901917e-001	3.386739e-001
972046000	-1.679872e-001	3.485963e-001	8.275078e-001	4.051012e-001	8.283889e-001	4.067044e-001	-1.868782e-001	3.362878e-001
981045500	-1.639178e-001	3.459683e-001	8.304131e-001	4.036800e-001	8.315129e-001	4.037249e-001	-1.839191e-001	3.338507e-001
990045000	-1.610107e-001	3.425257e-001	8.341855e-001	4.010775e-001	8.356130e-001	4.012591e-001	-1.815855e-001	3.301419e-001
999044500	-1.583066e-001	3.405211e-001	8.367414e-001	3.981971e-001	8.372664e-001	3.992965e-001	-1.778655e-001	3.287519e-001
1008044000	-1.550770e-001	3.373469e-001	8.390226e-001	3.961601e-001	8.407765e-001	3.964112e-001	-1.761897e-001	3.250879e-001
1017043500	-1.525518e-001	3.355227e-001	8.414428e-001	3.933623e-001	8.432751e-001	3.943361e-001	-1.728232e-001	3.227789e-001
1026043000	-1.496007e-001	3.321300e-001	8.450079e-001	3.909547e-001	8.460866e-001	3.918010e-001	-1.705376e-001	3.201840e-001
1035042500	-1.465850e-001	3.300538e-001	8.480267e-001	3.890943e-001	8.488669e-001	3.894389e-001	-1.680760e-001	3.175271e-001
1044042000	-1.439246e-001	3.272870e-001	8.502314e-001	3.860981e-001	8.513232e-001	3.873715e-001	-1.651125e-001	3.155138e-001
1053041500	-1.401099e-001	3.235965e-001	8.531323e-001	3.845044e-001	8.539284e-001	3.849713e-001	-1.616058e-001	3.121682e-001
1062041000	-1.373728e-001	3.220113e-001	8.559057e-001	3.818904e-001	8.559301e-001	3.819432e-001	-1.605134e-001	3.102061e-001
1071040500	-1.355059e-001	3.195134e-001	8.581448e-001	3.804520e-001	8.584375e-001	3.803334e-001	-1.571257e-001	3.082582e-001
1080040000	-1.338963e-001	3.170472e-001	8.605322e-001	3.768272e-001	8.620684e-001	3.775886e-001	-1.547429e-001	3.046011e-001
1089039500	-1.303642e-001	3.137348e-001	8.633584e-001	3.759256e-001	8.641346e-001	3.758069e-001	-1.522141e-001	3.026619e-001
1098039000	-1.277727e-001	3.117938e-001	8.652162e-001	3.732204e-001	8.657275e-001	3.729639e-001	-1.502345e-001	3.006513e-001
1107038500	-1.253579e-001	3.090420e-001	8.674343e-001	3.713756e-001	8.688570e-001	3.710141e-001	-1.483375e-001	2.969050e-001
1116038000	-1.237978e-001	3.073100e-001	8.691738e-001	3.686673e-001	8.704864e-001	3.688637e-001	-1.464779e-001	2.941510e-001
1125037500	-1.203826e-001	3.042804e-001	8.719730e-001	3.672193e-001	8.723687e-001	3.661641e-001	-1.449319e-001	2.920735e-001
1134037000	-1.189659e-001	3.005796e-001	8.746624e-001	3.642387e-001	8.743673e-001	3.645315e-001	-1.428914e-001	2.907901e-001
1143036500	-1.160303e-001	2.987623e-001	8.761861e-001	3.626288e-001	8.772543e-001	3.625178e-001	-1.401124e-001	2.869026e-001
1152036000	-1.160752e-001	2.959625e-001	8.783340e-001	3.593863e-001	8.788364e-001	3.611355e-001	-1.377033e-001	2.846478e-001
1161035500	-1.130913e-001	2.938233e-001	8.801547e-001	3.584887e-001	8.805621e-001	3.586732e-001	-1.367404e-001	2.824585e-001
1170035000	-1.118013e-001	2.917303e-001	8.816890e-001	3.560193e-001	8.830431e-001	3.570284e-001	-1.342656e-001	2.792260e-001
1179034500	-1.090858e-001	2.883543e-001	8.841169e-001	3.544189e-001	8.844790e-001	3.549745e-001	-1.325297e-001	2.771782e-001
1188034000	-1.074892e-001	2.855242e-001	8.867036e-001	3.519866e-001	8.864112e-001	3.534607e-001	-1.301394e-001	2.743283e-001
1197033500	-1.042726e-001	2.836051e-001	8.883352e-001	3.505444e-001	8.887810e-001	3.506362e-001	-1.294785e-001	2.720914e-001
1206033000	-1.034534e-001	2.810183e-001	8.901587e-001	3.483213e-001	8.913552e-001	3.488819e-001	-1.277988e-001	2.688009e-001
1215032500	-1.024035e-001	2.778868e-001	8.928301e-001	3.451695e-001	8.929452e-001	3.461580e-001	-1.260667e-001	2.660867e-001
1224032000	-1.000149e-001	2.761407e-001	8.942326e-001	3.432800e-001	8.947284e-001	3.436795e-001	-1.245092e-001	2.640641e-001
1233031500	-9.805635e-002	2.752992e-001	8.950059e-001	3.410200e-001	8.967783e-001	3.412350e-001	-1.228128e-001	2.616685e-001
1242031000	-9.556656e-002	2.723565e-001	8.970982e-001	3.387917e-001	8.982513e-001	3.396092e-001	-1.208289e-001	2.596539e-001
1251030500	-9.433897e-002	2.701784e-001	8.984838e-001	3.367545e-001	8.993787e-001	3.372908e-001	-1.191525e-001	2.572078e-001
1260030000	-9.168764e-002	2.680045e-001	8.995630e-001	3.347390e-001	9.010364e-001	3.353692e-001	-1.173875e-001	2.546765e-001
1269029500	-8.961918e-002	2.660161e-001	9.007235e-001	3.326177e-001	9.019957e-001	3.332321e-001	-1.156440e-001	2.532362e-001
1278029000	-8.698222e-002	2.639328e-001	9.019423e-001	3.312710e-001	9.033594e-001	3.317360e-001	-1.137558e-001	2.513375e-001
1287028500	-8.522658e-002	2.617879e-001	9.040469e-001	3.291269e-001	9.043949e-001	3.300355e-001	-1.119825e-001	2.492777e-001
1296028000	-8.289732e-002	2.592657e-001	9.050559e-001	3.276536e-001	9.060459e-001	3.281493e-001	-1.107246e-001	2.467581e-001
1305027500	-8.091208e-002	2.566210e-001	9.070625e-001	3.264400e-001	9.070066e-001	3.270782e-001	-1.078321e-001	2.447682e-001
1314027000	-7.934821e-002	2.543690e-001	9.081984e-001	3.247551e-001	9.089387e-001	3.249800e-001	-1.076305e-001	2.417612e-001
1323026500	-7.879099e-002	2.516989e-001	9.098881e-001	3.230706e-001	9.105832e-001	3.231979e-001	-1.061545e-001	2.398631e-001
1332026000	-7.741541e-002	2.506489e-001	9.111731e-001	3.215041e-001	9.122417e-001	3.216223e-001	-1.046956e-001	2.378507e-001
1341025500	-7.519742e-002	2.483694e-001	9.130531e-001	3.198524e-001	9.131613e-001	3.192872e-001	-1.044399e-001	2.362562e-001
1350025000	-7.413396e-002	2.463228e-001	9.140609e-001	3.184063e-001	9.151185e-001	3.184594e-001	-1.012917e-001	2.341124e-001
1359024500	-7.297887e-002	2.449864e-001	9.149730e-001	3.163326e-001	9.161988e-001	3.160744e-001	-1.011711e-001	2.321271e-001
1368024000	-7.229232e-002	2.421693e-001	9.167397e-001	3.139474e-001	9.175048e-001	3.139226e-001	-1.008630e-001	2.298732e-001
1377023500	-7.050436e-002	2.398508e-001	9.188373e-001	3.128146e-001	9.188694e-001	3.114789e-001	-9.970591e-002	2.270385e-001
1386023000	-6.932040e-002	2.377651e-001	9.198831e-001	3.110592e-001	9.200032e-001	3.112406e-001	-9.779093e-002	2.255650e-001
1395022500	-6.911565e-002	2.357322e-001	9.212478e-001	3.085757e-001	9.215905e-001	3.089678e-001	-9.709708e-002	2.226317e-001
1404022000	-6.752246e-002	2.341407e-001	9.219329e-001	3.074790e-001	9.225700e-001	3.075567e-001	-9.551807e-002	2.218105e-001
1413021500	-6.649449e-002	2.325149e-001	9.230814e-001	3.054758e-001	9.241733e-001	3.059081e-001	-9.513077e-002	2.193375e-001
