!Agilent Technologies,E5071C,MY46101151,A.11.02
!Date: Sun Sep 24 16:07:03 2017
!Data & Calibration Information:
!Freq	S11:SOLT2(ON)	S21:SOLT2(ON)	S12:SOLT2(ON)	S22:SOLT2(ON)
!PortZ  Port1:50+j0    Port2:50+j0
!Above PortZ is port z conversion or system Z0 setting when saving the data.
!When reading, reference impedance value at option line is always used.
# Hz S RI R 50
100000	-7.408766e-003	-1.236471e-002	9.827350e-001	1.538279e-001	9.893873e-001	1.565849e-001	-2.659219e-003	-6.631234e-003
9099500	2.920133e-004	9.811417e-003	9.994575e-001	-1.138965e-002	9.996584e-001	-1.172297e-002	5.342180e-004	1.169326e-002
18099000	1.439124e-003	1.184146e-002	9.990465e-001	-1.353836e-002	9.988307e-001	-1.407063e-002	1.969822e-003	1.289162e-002
27098500	1.226331e-003	1.438053e-002	9.986767e-001	-1.665072e-002	9.986614e-001	-1.735523e-002	1.981054e-003	1.563341e-002
36098000	6.798648e-004	1.630323e-002	9.984346e-001	-2.011894e-002	9.982344e-001	-2.145560e-002	2.278023e-003	1.909424e-002
45097500	1.523372e-003	2.144803e-002	9.979603e-001	-2.503273e-002	9.980111e-001	-2.584488e-002	2.517076e-003	2.179545e-002
54097000	1.147522e-003	2.588970e-002	9.975074e-001	-3.007553e-002	9.978222e-001	-3.036344e-002	3.028663e-003	2.433375e-002
63096500	1.585183e-003	2.873951e-002	9.973042e-001	-3.451711e-002	9.978429e-001	-3.434514e-002	2.503407e-003	2.808777e-002
72096000	2.950608e-003	3.308278e-002	9.965182e-001	-3.909484e-002	9.974042e-001	-3.880798e-002	1.736582e-003	3.190931e-002
81095500	3.317741e-003	3.699410e-002	9.960863e-001	-4.334736e-002	9.965791e-001	-4.304190e-002	2.319071e-003	3.605164e-002
90095000	2.821256e-003	3.923627e-002	9.959699e-001	-4.758790e-002	9.963796e-001	-4.786809e-002	2.588180e-003	3.883581e-002
99094500	4.201037e-003	4.340164e-002	9.953545e-001	-5.229144e-002	9.957606e-001	-5.276490e-002	3.512288e-003	4.371404e-002
108094000	4.411777e-003	4.707409e-002	9.942604e-001	-5.665108e-002	9.942668e-001	-5.651045e-002	4.158001e-003	4.700231e-002
117093500	5.370910e-003	5.046120e-002	9.931846e-001	-6.064212e-002	9.936416e-001	-6.126794e-002	5.324506e-003	5.121605e-002
126093000	6.238046e-003	5.472843e-002	9.929508e-001	-6.546586e-002	9.934242e-001	-6.521158e-002	5.713138e-003	5.407918e-002
135092500	6.437886e-003	5.797547e-002	9.926956e-001	-6.918774e-002	9.929387e-001	-6.955190e-002	6.313515e-003	5.809044e-002
144092000	6.753101e-003	6.238020e-002	9.924697e-001	-7.400068e-002	9.924865e-001	-7.366032e-002	7.713038e-003	6.156783e-002
153091500	8.409495e-003	6.641888e-002	9.912924e-001	-7.813760e-002	9.923586e-001	-7.808596e-002	7.007047e-003	6.505727e-002
162091000	8.578633e-003	6.932205e-002	9.914325e-001	-8.228927e-002	9.914963e-001	-8.248727e-002	8.030047e-003	6.919567e-002
171090500	9.717313e-003	7.360547e-002	9.903047e-001	-8.642010e-002	9.906755e-001	-8.658453e-002	9.463704e-003	7.312800e-002
180090000	1.002879e-002	7.692458e-002	9.898058e-001	-9.056694e-002	9.900055e-001	-9.100527e-002	1.005370e-002	7.634383e-002
189089500	1.170278e-002	8.102486e-002	9.884223e-001	-9.487183e-002	9.892566e-001	-9.581948e-002	9.745111e-003	8.042170e-002
198089000	1.184558e-002	8.400341e-002	9.880025e-001	-9.846121e-002	9.884781e-001	-9.936637e-002	1.084648e-002	8.354860e-002
207088500	1.219337e-002	8.817621e-002	9.871180e-001	-1.031559e-001	9.877702e-001	-1.037847e-001	1.135131e-002	8.779007e-002
216088000	1.343001e-002	9.191030e-002	9.860751e-001	-1.071463e-001	9.874131e-001	-1.078093e-001	1.189522e-002	9.074249e-002
225087500	1.367434e-002	9.563879e-002	9.855887e-001	-1.116634e-001	9.863355e-001	-1.118489e-001	1.296798e-002	9.448079e-002
234087000	1.429948e-002	9.844128e-002	9.846193e-001	-1.162052e-001	9.851625e-001	-1.162394e-001	1.354193e-002	9.868951e-002
243086500	1.580796e-002	1.020263e-001	9.835367e-001	-1.198330e-001	9.842628e-001	-1.201216e-001	1.477119e-002	1.022739e-001
252086000	1.652286e-002	1.066294e-001	9.827852e-001	-1.244809e-001	9.834403e-001	-1.243361e-001	1.593498e-002	1.065360e-001
261085500	1.707161e-002	1.103594e-001	9.819695e-001	-1.286851e-001	9.823125e-001	-1.285582e-001	1.678938e-002	1.098235e-001
270085000	1.817150e-002	1.123438e-001	9.810316e-001	-1.324088e-001	9.815147e-001	-1.323978e-001	1.869535e-002	1.134042e-001
279084500	1.960664e-002	1.164449e-001	9.798136e-001	-1.366283e-001	9.804227e-001	-1.371661e-001	1.946642e-002	1.178579e-001
288084000	1.999546e-002	1.209136e-001	9.790584e-001	-1.403401e-001	9.792655e-001	-1.416185e-001	2.061589e-002	1.205603e-001
297083500	2.153960e-002	1.236987e-001	9.780508e-001	-1.448722e-001	9.785825e-001	-1.457663e-001	2.104710e-002	1.246845e-001
306083000	2.270194e-002	1.272784e-001	9.768555e-001	-1.490739e-001	9.768195e-001	-1.502138e-001	2.201454e-002	1.286411e-001
315082500	2.411072e-002	1.307141e-001	9.756931e-001	-1.533842e-001	9.759212e-001	-1.538901e-001	2.362939e-002	1.323449e-001
324082000	2.584861e-002	1.349075e-001	9.742024e-001	-1.574715e-001	9.749975e-001	-1.579438e-001	2.441027e-002	1.351928e-001
333081500	2.666385e-002	1.383664e-001	9.733401e-001	-1.617353e-001	9.739900e-001	-1.619320e-001	2.541840e-002	1.389653e-001
342081000	2.778617e-002	1.427284e-001	9.722488e-001	-1.660574e-001	9.724161e-001	-1.663262e-001	2.594557e-002	1.427653e-001
351080500	2.860374e-002	1.465372e-001	9.708443e-001	-1.704654e-001	9.710437e-001	-1.702123e-001	2.795150e-002	1.456598e-001
360080000	2.988258e-002	1.498281e-001	9.694325e-001	-1.741315e-001	9.694838e-001	-1.747475e-001	2.978999e-002	1.494513e-001
369079500	3.216548e-002	1.537299e-001	9.679140e-001	-1.782177e-001	9.677792e-001	-1.787545e-001	3.143689e-002	1.527516e-001
378079000	3.400951e-002	1.569649e-001	9.661447e-001	-1.820565e-001	9.664963e-001	-1.832110e-001	3.277138e-002	1.567737e-001
387078500	3.581967e-002	1.604568e-001	9.642120e-001	-1.861703e-001	9.650644e-001	-1.869340e-001	3.384716e-002	1.591706e-001
396078000	3.689225e-002	1.638725e-001	9.625536e-001	-1.903913e-001	9.637733e-001	-1.908584e-001	3.533421e-002	1.625775e-001
405077500	3.861858e-002	1.668726e-001	9.614841e-001	-1.937913e-001	9.619783e-001	-1.948682e-001	3.647057e-002	1.660484e-001
414077000	3.956772e-002	1.705105e-001	9.602247e-001	-1.975851e-001	9.611014e-001	-1.985514e-001	3.803768e-002	1.693092e-001
423076500	4.122324e-002	1.736718e-001	9.589296e-001	-2.016244e-001	9.595035e-001	-2.025109e-001	3.978720e-002	1.733676e-001
432076000	4.293280e-002	1.769429e-001	9.576680e-001	-2.052023e-001	9.581163e-001	-2.060472e-001	4.127946e-002	1.767756e-001
441075500	4.459022e-002	1.811148e-001	9.557184e-001	-2.093243e-001	9.564192e-001	-2.103029e-001	4.224839e-002	1.805942e-001
450075000	4.519901e-002	1.842180e-001	9.545209e-001	-2.138779e-001	9.542920e-001	-2.135112e-001	4.442703e-002	1.843626e-001
459074500	4.764353e-002	1.878887e-001	9.526996e-001	-2.172587e-001	9.535693e-001	-2.177462e-001	4.545896e-002	1.867269e-001
468074000	4.908101e-002	1.911232e-001	9.512451e-001	-2.214202e-001	9.513937e-001	-2.213192e-001	4.762107e-002	1.913421e-001
477073500	5.127427e-002	1.943566e-001	9.497056e-001	-2.247794e-001	9.498356e-001	-2.254594e-001	4.917671e-002	1.941058e-001
486073000	5.197849e-002	1.979963e-001	9.481115e-001	-2.294798e-001	9.480885e-001	-2.300379e-001	5.051055e-002	1.978697e-001
495072500	5.399941e-002	2.022132e-001	9.458030e-001	-2.329826e-001	9.460185e-001	-2.331653e-001	5.262152e-002	2.003709e-001
504072000	5.610125e-002	2.048525e-001	9.445225e-001	-2.369434e-001	9.442260e-001	-2.377806e-001	5.466272e-002	2.045960e-001
513071500	5.807059e-002	2.083177e-001	9.423371e-001	-2.406825e-001	9.430387e-001	-2.411338e-001	5.572085e-002	2.069420e-001
522071000	5.926542e-002	2.119541e-001	9.405943e-001	-2.453395e-001	9.404645e-001	-2.454669e-001	5.813338e-002	2.118710e-001
531070500	6.149805e-002	2.150865e-001	9.382406e-001	-2.488494e-001	9.386211e-001	-2.491742e-001	5.933537e-002	2.144560e-001
540070000	6.309754e-002	2.187435e-001	9.366429e-001	-2.526771e-001	9.371059e-001	-2.531954e-001	6.131258e-002	2.184182e-001
549069500	6.517513e-002	2.229671e-001	9.344253e-001	-2.565871e-001	9.352351e-001	-2.570437e-001	6.377572e-002	2.217683e-001
558069000	6.701321e-002	2.258637e-001	9.327926e-001	-2.601217e-001	9.332791e-001	-2.606996e-001	6.636942e-002	2.251992e-001
567068500	6.861702e-002	2.291811e-001	9.310651e-001	-2.641954e-001	9.308384e-001	-2.645745e-001	6.817864e-002	2.282580e-001
576068000	7.082988e-002	2.325220e-001	9.289294e-001	-2.683095e-001	9.292931e-001	-2.688898e-001	6.947487e-002	2.316128e-001
585067500	7.336554e-002	2.357411e-001	9.265887e-001	-2.717393e-001	9.268034e-001	-2.728000e-001	7.169647e-002	2.347961e-001
594067000	7.561279e-002	2.395295e-001	9.244620e-001	-2.751792e-001	9.250030e-001	-2.764707e-001	7.340288e-002	2.375883e-001
603066500	7.797942e-002	2.425412e-001	9.225163e-001	-2.787221e-001	9.225253e-001	-2.801187e-001	7.597101e-002	2.415933e-001
612066000	8.019925e-002	2.461105e-001	9.203651e-001	-2.822328e-001	9.208809e-001	-2.836028e-001	7.799446e-002	2.449743e-001
621065500	8.238839e-002	2.497501e-001	9.178500e-001	-2.862893e-001	9.180386e-001	-2.874063e-001	8.031597e-002	2.487178e-001
630065000	8.443495e-002	2.532458e-001	9.157454e-001	-2.902411e-001	9.161736e-001	-2.902703e-001	8.283339e-002	2.520478e-001
639064500	8.661492e-002	2.562520e-001	9.136542e-001	-2.932829e-001	9.140585e-001	-2.942579e-001	8.442614e-002	2.558939e-001
648064000	8.904784e-002	2.596840e-001	9.116486e-001	-2.968592e-001	9.116361e-001	-2.979234e-001	8.692636e-002	2.597518e-001
657063500	9.195812e-002	2.625165e-001	9.090984e-001	-3.001346e-001	9.092978e-001	-3.015632e-001	8.859832e-002	2.632986e-001
666063000	9.419813e-002	2.660417e-001	9.067308e-001	-3.035938e-001	9.069856e-001	-3.051985e-001	9.100372e-002	2.663377e-001
675062500	9.603110e-002	2.695803e-001	9.044383e-001	-3.079456e-001	9.039884e-001	-3.088948e-001	9.353216e-002	2.695117e-001
684062000	9.890849e-002	2.727206e-001	9.017552e-001	-3.110404e-001	9.019389e-001	-3.120383e-001	9.658735e-002	2.723264e-001
693061500	1.010324e-001	2.756757e-001	8.996384e-001	-3.147742e-001	8.998828e-001	-3.159177e-001	9.872771e-002	2.753854e-001
702061000	1.039099e-001	2.789487e-001	8.968790e-001	-3.179154e-001	8.971271e-001	-3.193742e-001	1.012549e-001	2.791714e-001
711060500	1.065602e-001	2.817066e-001	8.949669e-001	-3.212427e-001	8.947944e-001	-3.223977e-001	1.039883e-001	2.821782e-001
720060000	1.089444e-001	2.855962e-001	8.917527e-001	-3.246584e-001	8.919062e-001	-3.255723e-001	1.064017e-001	2.853724e-001
729059500	1.120966e-001	2.882402e-001	8.894932e-001	-3.276752e-001	8.891406e-001	-3.288075e-001	1.093132e-001	2.886466e-001
738059000	1.144650e-001	2.919910e-001	8.865210e-001	-3.315160e-001	8.866328e-001	-3.320147e-001	1.118817e-001	2.914978e-001
747058500	1.168590e-001	2.952672e-001	8.841605e-001	-3.348334e-001	8.847017e-001	-3.354659e-001	1.138574e-001	2.946248e-001
756058000	1.200258e-001	2.978172e-001	8.811383e-001	-3.376559e-001	8.820710e-001	-3.388478e-001	1.170107e-001	2.968104e-001
765057500	1.221975e-001	3.008859e-001	8.789287e-001	-3.413719e-001	8.791943e-001	-3.411270e-001	1.197427e-001	3.000657e-001
774057000	1.261270e-001	3.041592e-001	8.757537e-001	-3.448926e-001	8.763746e-001	-3.454374e-001	1.212873e-001	3.039633e-001
783056500	1.288324e-001	3.062933e-001	8.728736e-001	-3.479675e-001	8.733696e-001	-3.482793e-001	1.242444e-001	3.068562e-001
792056000	1.311951e-001	3.095832e-001	8.709150e-001	-3.515380e-001	8.703246e-001	-3.518190e-001	1.272974e-001	3.098844e-001
801055500	1.344599e-001	3.123857e-001	8.678453e-001	-3.546587e-001	8.684313e-001	-3.547819e-001	1.293143e-001	3.121576e-001
810055000	1.378846e-001	3.147798e-001	8.652320e-001	-3.574458e-001	8.651092e-001	-3.584631e-001	1.320116e-001	3.149511e-001
819054500	1.397042e-001	3.173913e-001	8.628229e-001	-3.603131e-001	8.627171e-001	-3.608967e-001	1.351235e-001	3.176988e-001
828054000	1.425407e-001	3.205454e-001	8.593905e-001	-3.643015e-001	8.601591e-001	-3.645654e-001	1.379611e-001	3.203809e-001
837053500	1.455134e-001	3.237233e-001	8.569900e-001	-3.666613e-001	8.575453e-001	-3.676221e-001	1.404515e-001	3.230455e-001
846053000	1.487523e-001	3.255149e-001	8.538950e-001	-3.700854e-001	8.537801e-001	-3.706045e-001	1.440855e-001	3.261412e-001
855052500	1.511988e-001	3.291090e-001	8.509986e-001	-3.728428e-001	8.515688e-001	-3.739392e-001	1.461205e-001	3.286830e-001
864052000	1.549862e-001	3.314896e-001	8.483584e-001	-3.756695e-001	8.489333e-001	-3.765729e-001	1.489897e-001	3.311945e-001
873051500	1.580304e-001	3.340695e-001	8.449810e-001	-3.789220e-001	8.456198e-001	-3.794435e-001	1.521194e-001	3.345718e-001
882051000	1.606154e-001	3.361879e-001	8.428647e-001	-3.816689e-001	8.428720e-001	-3.827491e-001	1.545316e-001	3.370569e-001
891050500	1.636173e-001	3.390899e-001	8.403693e-001	-3.848021e-001	8.396190e-001	-3.855070e-001	1.578761e-001	3.391795e-001
900050000	1.674528e-001	3.423340e-001	8.362843e-001	-3.878447e-001	8.369776e-001	-3.877791e-001	1.609807e-001	3.423520e-001
909049500	1.705747e-001	3.444341e-001	8.336116e-001	-3.900998e-001	8.344889e-001	-3.913092e-001	1.631050e-001	3.448156e-001
918049000	1.740656e-001	3.469750e-001	8.305066e-001	-3.926409e-001	8.313641e-001	-3.937255e-001	1.662660e-001	3.473908e-001
927048500	1.762278e-001	3.491662e-001	8.276867e-001	-3.964372e-001	8.279203e-001	-3.968173e-001	1.692983e-001	3.504889e-001
936048000	1.791182e-001	3.520304e-001	8.241344e-001	-3.996549e-001	8.256933e-001	-3.999438e-001	1.718640e-001	3.529697e-001
945047500	1.833653e-001	3.553169e-001	8.211684e-001	-4.018408e-001	8.228819e-001	-4.022268e-001	1.746588e-001	3.560040e-001
954047000	1.862908e-001	3.568042e-001	8.184593e-001	-4.048383e-001	8.197952e-001	-4.056872e-001	1.770825e-001	3.588451e-001
963046500	1.894156e-001	3.592371e-001	8.150767e-001	-4.073631e-001	8.158040e-001	-4.078304e-001	1.803975e-001	3.619205e-001
972046000	1.927093e-001	3.627002e-001	8.111826e-001	-4.102691e-001	8.128295e-001	-4.106477e-001	1.839296e-001	3.642246e-001
981045500	1.960218e-001	3.644346e-001	8.087060e-001	-4.126053e-001	8.090692e-001	-4.133719e-001	1.872902e-001	3.667793e-001
990045000	1.987833e-001	3.673708e-001	8.054692e-001	-4.159126e-001	8.057854e-001	-4.167170e-001	1.900286e-001	3.701000e-001
999044500	2.028680e-001	3.692261e-001	8.021655e-001	-4.182943e-001	8.029877e-001	-4.183072e-001	1.935121e-001	3.717395e-001
1008044000	2.061156e-001	3.716663e-001	7.988678e-001	-4.203966e-001	7.991507e-001	-4.215394e-001	1.966204e-001	3.754172e-001
1017043500	2.104966e-001	3.739808e-001	7.953188e-001	-4.225350e-001	7.959273e-001	-4.237973e-001	1.996953e-001	3.773937e-001
1026043000	2.135854e-001	3.765399e-001	7.919579e-001	-4.257672e-001	7.925088e-001	-4.262057e-001	2.032474e-001	3.805232e-001
1035042500	2.170820e-001	3.787022e-001	7.892404e-001	-4.283175e-001	7.892112e-001	-4.287827e-001	2.062972e-001	3.830133e-001
1044042000	2.207282e-001	3.808786e-001	7.850161e-001	-4.304639e-001	7.864144e-001	-4.310209e-001	2.100871e-001	3.850049e-001
1053041500	2.232100e-001	3.826471e-001	7.826303e-001	-4.327704e-001	7.829868e-001	-4.337325e-001	2.132913e-001	3.867967e-001
1062041000	2.278598e-001	3.845903e-001	7.787295e-001	-4.356351e-001	7.790336e-001	-4.355743e-001	2.167004e-001	3.900104e-001
1071040500	2.311272e-001	3.873819e-001	7.761242e-001	-4.377578e-001	7.763203e-001	-4.377952e-001	2.200686e-001	3.920820e-001
1080040000	2.345553e-001	3.897123e-001	7.716903e-001	-4.397460e-001	7.725792e-001	-4.415689e-001	2.231972e-001	3.938733e-001
1089039500	2.382962e-001	3.917041e-001	7.694508e-001	-4.427392e-001	7.694122e-001	-4.433725e-001	2.267529e-001	3.958556e-001
1098039000	2.414474e-001	3.933669e-001	7.656214e-001	-4.443826e-001	7.655280e-001	-4.451303e-001	2.301499e-001	3.983425e-001
1107038500	2.453158e-001	3.951729e-001	7.622914e-001	-4.464828e-001	7.623797e-001	-4.478518e-001	2.324947e-001	4.009728e-001
1116038000	2.496915e-001	3.976755e-001	7.583098e-001	-4.481180e-001	7.584671e-001	-4.497390e-001	2.363946e-001	4.030291e-001
1125037500	2.525154e-001	3.988845e-001	7.557638e-001	-4.509252e-001	7.547466e-001	-4.516320e-001	2.399263e-001	4.057786e-001
1134037000	2.558301e-001	4.014553e-001	7.513963e-001	-4.536722e-001	7.516906e-001	-4.534682e-001	2.434343e-001	4.080353e-001
1143036500	2.598883e-001	4.030253e-001	7.483788e-001	-4.554538e-001	7.483559e-001	-4.562568e-001	2.464480e-001	4.103298e-001
1152036000	2.639339e-001	4.057587e-001	7.436963e-001	-4.572309e-001	7.453863e-001	-4.580153e-001	2.502435e-001	4.121181e-001
1161035500	2.676426e-001	4.070270e-001	7.411289e-001	-4.590301e-001	7.414035e-001	-4.593233e-001	2.533121e-001	4.142586e-001
1170035000	2.711004e-001	4.084422e-001	7.374751e-001	-4.603893e-001	7.379951e-001	-4.616262e-001	2.567317e-001	4.159032e-001
1179034500	2.749379e-001	4.099394e-001	7.341953e-001	-4.630005e-001	7.348723e-001	-4.632801e-001	2.593476e-001	4.184022e-001
1188034000	2.788823e-001	4.125708e-001	7.304335e-001	-4.656342e-001	7.316430e-001	-4.651850e-001	2.632119e-001	4.197775e-001
1197033500	2.825785e-001	4.134107e-001	7.275163e-001	-4.673545e-001	7.274429e-001	-4.672383e-001	2.667268e-001	4.224008e-001
1206033000	2.867839e-001	4.155179e-001	7.236481e-001	-4.686655e-001	7.239489e-001	-4.698113e-001	2.701320e-001	4.245674e-001
1215032500	2.899758e-001	4.174748e-001	7.188317e-001	-4.717501e-001	7.196566e-001	-4.719764e-001	2.730240e-001	4.265953e-001
1224032000	2.943660e-001	4.189151e-001	7.152925e-001	-4.729749e-001	7.157346e-001	-4.733732e-001	2.769612e-001	4.281862e-001
1233031500	2.981368e-001	4.199604e-001	7.123138e-001	-4.740942e-001	7.117262e-001	-4.754960e-001	2.805742e-001	4.300086e-001
1242031000	3.022344e-001	4.208970e-001	7.080967e-001	-4.762874e-001	7.088353e-001	-4.773411e-001	2.841631e-001	4.317568e-001
1251030500	3.067244e-001	4.230198e-001	7.043352e-001	-4.777224e-001	7.046385e-001	-4.785411e-001	2.877618e-001	4.339392e-001
1260030000	3.106107e-001	4.241098e-001	7.009072e-001	-4.785701e-001	7.008788e-001	-4.801743e-001	2.907715e-001	4.355138e-001
1269029500	3.142211e-001	4.252924e-001	6.971421e-001	-4.801272e-001	6.972676e-001	-4.813164e-001	2.946979e-001	4.368262e-001
1278029000	3.182719e-001	4.259734e-001	6.940166e-001	-4.812652e-001	6.940808e-001	-4.824230e-001	2.987078e-001	4.388169e-001
1287028500	3.232291e-001	4.272851e-001	6.902795e-001	-4.835662e-001	6.904139e-001	-4.837214e-001	3.025853e-001	4.403844e-001
1296028000	3.265303e-001	4.282179e-001	6.865380e-001	-4.845741e-001	6.869488e-001	-4.853667e-001	3.056206e-001	4.422849e-001
1305027500	3.305643e-001	4.298952e-001	6.838828e-001	-4.865424e-001	6.842314e-001	-4.865204e-001	3.092829e-001	4.433834e-001
1314027000	3.342257e-001	4.305983e-001	6.797147e-001	-4.876288e-001	6.797229e-001	-4.880090e-001	3.117194e-001	4.457252e-001
1323026500	3.380144e-001	4.326297e-001	6.762936e-001	-4.893056e-001	6.762148e-001	-4.896215e-001	3.152886e-001	4.472058e-001
1332026000	3.415104e-001	4.342462e-001	6.726348e-001	-4.899387e-001	6.727850e-001	-4.914083e-001	3.190861e-001	4.487698e-001
1341025500	3.460129e-001	4.349682e-001	6.690554e-001	-4.918700e-001	6.686354e-001	-4.921412e-001	3.234113e-001	4.501730e-001
1350025000	3.496471e-001	4.368452e-001	6.655990e-001	-4.928566e-001	6.661727e-001	-4.943522e-001	3.269391e-001	4.520481e-001
1359024500	3.536522e-001	4.380754e-001	6.614483e-001	-4.936134e-001	6.617670e-001	-4.950590e-001	3.305852e-001	4.538243e-001
1368024000	3.573053e-001	4.397161e-001	6.572314e-001	-4.955661e-001	6.573481e-001	-4.962902e-001	3.333683e-001	4.558065e-001
1377023500	3.615518e-001	4.411720e-001	6.538613e-001	-4.973543e-001	6.528562e-001	-4.978953e-001	3.372042e-001	4.569030e-001
1386023000	3.655384e-001	4.417701e-001	6.500164e-001	-4.981747e-001	6.507622e-001	-4.990671e-001	3.407740e-001	4.577631e-001
1395022500	3.691589e-001	4.428661e-001	6.454407e-001	-4.995005e-001	6.462788e-001	-5.002859e-001	3.438633e-001	4.595492e-001
1404022000	3.728068e-001	4.444424e-001	6.425748e-001	-4.997511e-001	6.429477e-001	-5.008590e-001	3.477155e-001	4.607685e-001
1413021500	3.770102e-001	4.446543e-001	6.385064e-001	-5.012282e-001	6.390476e-001	-5.027779e-001	3.514118e-001	4.628061e-001
