!Agilent Technologies,E5071C,MY46101151,A.11.02
!Date: Sun Sep 24 15:28:15 2017
!Data & Calibration Information:
!Freq	S11:SOLT2(ON)	S21:SOLT2(ON)	S12:SOLT2(ON)	S22:SOLT2(ON)
!PortZ  Port1:50+j0    Port2:50+j0
!Above PortZ is port z conversion or system Z0 setting when saving the data.
!When reading, reference impedance value at option line is always used.
# Hz S RI R 50
100000	9.722915e-001	1.626155e-001	-4.997016e-005	-1.544878e-004	3.299402e-004	1.740107e-004	9.874399e-001	1.678533e-001
9099500	1.001248e+000	-5.904219e-004	2.526737e-004	2.262908e-004	-3.741881e-004	1.911140e-004	1.001492e+000	-9.235880e-004
18099000	1.001811e+000	-2.860524e-003	5.760532e-005	8.081974e-004	-3.794027e-005	7.910022e-004	1.001331e+000	-1.627063e-003
27098500	1.000703e+000	-4.125286e-003	7.809349e-005	1.118921e-003	-1.057856e-006	1.055873e-003	1.001195e+000	-2.348708e-003
36098000	1.001306e+000	-5.463570e-003	7.017675e-005	1.438090e-003	3.892077e-005	1.506847e-003	1.000290e+000	-3.903224e-003
45097500	1.000529e+000	-7.084529e-003	8.336822e-005	1.822010e-003	6.012032e-005	1.862399e-003	1.000363e+000	-4.747907e-003
54097000	1.000433e+000	-7.874147e-003	2.093783e-005	2.229682e-003	8.943733e-006	2.201507e-003	1.000052e+000	-5.331547e-003
63096500	9.999429e-001	-8.883809e-003	2.108170e-005	2.513157e-003	7.790955e-005	2.535481e-003	1.000266e+000	-5.908453e-003
72096000	1.000527e+000	-1.041444e-002	6.224805e-005	2.902357e-003	5.859737e-005	2.919069e-003	1.000214e+000	-6.498761e-003
81095500	1.000425e+000	-1.118022e-002	4.711429e-005	3.247185e-003	1.168436e-004	3.250776e-003	1.000150e+000	-6.893123e-003
90095000	1.000228e+000	-1.334310e-002	6.835865e-005	3.637845e-003	3.002430e-005	3.573229e-003	9.996735e-001	-7.855802e-003
99094500	1.000046e+000	-1.401420e-002	1.250965e-004	3.967782e-003	1.106955e-004	3.922962e-003	1.000482e+000	-9.065925e-003
108094000	9.992632e-001	-1.507781e-002	2.931556e-005	4.337981e-003	9.877766e-005	4.338156e-003	9.995884e-001	-9.403771e-003
117093500	9.991113e-001	-1.618866e-002	6.381048e-005	4.720296e-003	1.689684e-004	4.714327e-003	9.993194e-001	-1.039180e-002
126093000	9.990798e-001	-1.692626e-002	1.359370e-004	5.069183e-003	1.364797e-004	5.063886e-003	9.995621e-001	-1.097140e-002
135092500	9.995390e-001	-1.814731e-002	1.146583e-004	5.420132e-003	1.402091e-004	5.422524e-003	9.995177e-001	-1.121900e-002
144092000	9.998183e-001	-1.963687e-002	2.037831e-004	5.771448e-003	1.337437e-004	5.734262e-003	9.997401e-001	-1.243466e-002
153091500	9.996317e-001	-2.055497e-002	1.841260e-004	6.105828e-003	1.765884e-004	6.148274e-003	9.999075e-001	-1.276516e-002
162091000	9.997410e-001	-2.138939e-002	1.531533e-004	6.518751e-003	2.093427e-004	6.495302e-003	9.997415e-001	-1.378001e-002
171090500	1.000046e+000	-2.294389e-002	2.380475e-004	6.825971e-003	1.658356e-004	6.822147e-003	9.998631e-001	-1.426313e-002
180090000	9.996790e-001	-2.402115e-002	2.179265e-004	7.261503e-003	1.458720e-004	7.175032e-003	9.999491e-001	-1.529373e-002
189089500	9.992954e-001	-2.497640e-002	2.729283e-004	7.582336e-003	2.593010e-004	7.526546e-003	9.997151e-001	-1.609619e-002
198089000	9.994876e-001	-2.634561e-002	2.193927e-004	7.919980e-003	2.154364e-004	7.908317e-003	9.997932e-001	-1.608544e-002
207088500	9.995581e-001	-2.711540e-002	2.705707e-004	8.295690e-003	2.315071e-004	8.254090e-003	9.997399e-001	-1.668819e-002
216088000	9.996577e-001	-2.831000e-002	2.095274e-004	8.599415e-003	3.371371e-004	8.626977e-003	9.998635e-001	-1.735313e-002
225087500	9.993785e-001	-2.924106e-002	3.251320e-004	9.005352e-003	2.837639e-004	8.963162e-003	1.000287e+000	-1.747627e-002
234087000	9.996389e-001	-2.986284e-002	3.494973e-004	9.402261e-003	2.729220e-004	9.210228e-003	9.996999e-001	-1.836209e-002
243086500	1.000011e+000	-3.082401e-002	4.142590e-004	9.689749e-003	3.209602e-004	9.694245e-003	9.998564e-001	-1.901634e-002
252086000	9.994745e-001	-3.191369e-002	3.624257e-004	1.000988e-002	3.636278e-004	1.004509e-002	1.000417e+000	-1.963796e-002
261085500	9.994653e-001	-3.263459e-002	3.185511e-004	1.046895e-002	3.899840e-004	1.039627e-002	9.999963e-001	-2.028375e-002
270085000	9.993870e-001	-3.408778e-002	3.966925e-004	1.077061e-002	4.462480e-004	1.078587e-002	9.999740e-001	-2.058715e-002
279084500	9.993793e-001	-3.485395e-002	4.155666e-004	1.111645e-002	3.685625e-004	1.103935e-002	1.000050e+000	-2.156164e-002
288084000	9.987851e-001	-3.547254e-002	4.533551e-004	1.146271e-002	4.967725e-004	1.150475e-002	9.995431e-001	-2.228326e-002
297083500	9.990744e-001	-3.677822e-002	4.504494e-004	1.182741e-002	4.847112e-004	1.173837e-002	1.000107e+000	-2.317163e-002
306083000	9.990960e-001	-3.783191e-002	5.095923e-004	1.217678e-002	4.282813e-004	1.208830e-002	9.995401e-001	-2.306274e-002
315082500	9.987369e-001	-3.880621e-002	5.721537e-004	1.257203e-002	5.406450e-004	1.247571e-002	9.998053e-001	-2.421852e-002
324082000	9.988332e-001	-3.990880e-002	5.965329e-004	1.294650e-002	5.857569e-004	1.288449e-002	9.995583e-001	-2.497858e-002
333081500	9.986905e-001	-4.078489e-002	6.050303e-004	1.322941e-002	5.403064e-004	1.306503e-002	9.999469e-001	-2.527259e-002
342081000	9.989255e-001	-4.199601e-002	6.222748e-004	1.355409e-002	6.208945e-004	1.352038e-002	9.998694e-001	-2.557669e-002
351080500	9.986572e-001	-4.302587e-002	5.421476e-004	1.395151e-002	6.610480e-004	1.386955e-002	9.997000e-001	-2.654899e-002
360080000	9.986975e-001	-4.376712e-002	6.170270e-004	1.433791e-002	6.658231e-004	1.424457e-002	9.999612e-001	-2.724964e-002
369079500	9.993706e-001	-4.491835e-002	7.082515e-004	1.467718e-002	6.599635e-004	1.457999e-002	9.994385e-001	-2.768466e-002
378079000	9.990514e-001	-4.602279e-002	7.501597e-004	1.508425e-002	7.016237e-004	1.494907e-002	9.993951e-001	-2.823708e-002
387078500	9.987118e-001	-4.689005e-002	7.425785e-004	1.533166e-002	7.639112e-004	1.528583e-002	9.994179e-001	-2.850526e-002
396078000	9.984636e-001	-4.773118e-002	8.605610e-004	1.563699e-002	8.050545e-004	1.563772e-002	9.995799e-001	-2.943594e-002
405077500	9.984213e-001	-4.821004e-002	8.256651e-004	1.603013e-002	8.484181e-004	1.601703e-002	9.993030e-001	-2.959031e-002
414077000	9.987672e-001	-4.969807e-002	8.393006e-004	1.644123e-002	8.262362e-004	1.640777e-002	9.995400e-001	-3.040335e-002
423076500	9.981151e-001	-5.063532e-002	9.349257e-004	1.673035e-002	8.923753e-004	1.669009e-002	9.993266e-001	-3.066775e-002
432076000	9.989501e-001	-5.136511e-002	9.135906e-004	1.708552e-002	8.769802e-004	1.705104e-002	9.993982e-001	-3.182084e-002
441075500	9.992979e-001	-5.225839e-002	8.760867e-004	1.739752e-002	9.201219e-004	1.735689e-002	9.998011e-001	-3.184830e-002
450075000	9.987878e-001	-5.360132e-002	9.269491e-004	1.777701e-002	8.956712e-004	1.778372e-002	1.000247e+000	-3.244646e-002
459074500	9.987797e-001	-5.396729e-002	9.813104e-004	1.812860e-002	1.007019e-003	1.809188e-002	1.000249e+000	-3.291281e-002
468074000	9.986638e-001	-5.535815e-002	9.698177e-004	1.845603e-002	9.809918e-004	1.846093e-002	1.000171e+000	-3.396920e-002
477073500	9.985306e-001	-5.542712e-002	1.058527e-003	1.884978e-002	1.017456e-003	1.877391e-002	9.998343e-001	-3.380680e-002
486073000	9.985444e-001	-5.662737e-002	1.091580e-003	1.921198e-002	1.084604e-003	1.910382e-002	9.997553e-001	-3.438402e-002
495072500	9.983635e-001	-5.788989e-002	1.076366e-003	1.949648e-002	1.095743e-003	1.946179e-002	1.000053e+000	-3.527758e-002
504072000	9.989617e-001	-5.905497e-002	1.154328e-003	1.986171e-002	1.138914e-003	1.978502e-002	9.995912e-001	-3.546932e-002
513071500	9.984479e-001	-5.932363e-002	1.175899e-003	2.022128e-002	1.190966e-003	2.015758e-002	9.998888e-001	-3.562661e-002
522071000	9.980418e-001	-5.995330e-002	1.146992e-003	2.050888e-002	1.226636e-003	2.056390e-002	9.998690e-001	-3.562778e-002
531070500	9.984472e-001	-6.098783e-002	1.213939e-003	2.089832e-002	1.205939e-003	2.083939e-002	9.991710e-001	-3.630520e-002
540070000	9.977406e-001	-6.151272e-002	1.314259e-003	2.124983e-002	1.285585e-003	2.114077e-002	9.996646e-001	-3.683605e-002
549069500	9.978206e-001	-6.297882e-002	1.230485e-003	2.154037e-002	1.305633e-003	2.154258e-002	9.987520e-001	-3.763854e-002
558069000	9.976984e-001	-6.392228e-002	1.288244e-003	2.191966e-002	1.312820e-003	2.190008e-002	9.993646e-001	-3.763494e-002
567068500	9.974108e-001	-6.452109e-002	1.319040e-003	2.224279e-002	1.433134e-003	2.215399e-002	9.991777e-001	-3.911817e-002
576068000	9.976692e-001	-6.581896e-002	1.357232e-003	2.253891e-002	1.441579e-003	2.253331e-002	9.996985e-001	-3.918058e-002
585067500	9.978067e-001	-6.622587e-002	1.469903e-003	2.282674e-002	1.426964e-003	2.282750e-002	9.995338e-001	-3.983504e-002
594067000	9.976677e-001	-6.726791e-002	1.485815e-003	2.330168e-002	1.513644e-003	2.321284e-002	9.999536e-001	-3.972834e-002
603066500	9.978381e-001	-6.793335e-002	1.463490e-003	2.366868e-002	1.517217e-003	2.357624e-002	1.000093e+000	-4.037149e-002
612066000	9.975307e-001	-6.881460e-002	1.473471e-003	2.397301e-002	1.527742e-003	2.391174e-002	9.995484e-001	-4.067153e-002
621065500	9.977005e-001	-6.963229e-002	1.516269e-003	2.426598e-002	1.573343e-003	2.425646e-002	9.994829e-001	-4.098060e-002
630065000	9.976208e-001	-7.064566e-002	1.554120e-003	2.466347e-002	1.641370e-003	2.457250e-002	9.993158e-001	-4.140752e-002
639064500	9.980068e-001	-7.159348e-002	1.578166e-003	2.499072e-002	1.607831e-003	2.490930e-002	9.996083e-001	-4.155468e-002
648064000	9.979740e-001	-7.199002e-002	1.667138e-003	2.538385e-002	1.577099e-003	2.531486e-002	9.999716e-001	-4.197955e-002
657063500	9.977080e-001	-7.259198e-002	1.639347e-003	2.574005e-002	1.608298e-003	2.568108e-002	9.996429e-001	-4.224535e-002
666063000	9.981017e-001	-7.358307e-002	1.730250e-003	2.608466e-002	1.693584e-003	2.598585e-002	9.996079e-001	-4.282003e-002
675062500	9.976025e-001	-7.433504e-002	1.794167e-003	2.636662e-002	1.779842e-003	2.639291e-002	9.995639e-001	-4.322835e-002
684062000	9.978774e-001	-7.444305e-002	1.851139e-003	2.679621e-002	1.815106e-003	2.678838e-002	9.995910e-001	-4.328681e-002
693061500	9.975311e-001	-7.502532e-002	1.863464e-003	2.715612e-002	1.879995e-003	2.710236e-002	9.996639e-001	-4.358683e-002
702061000	9.974250e-001	-7.588393e-002	1.900304e-003	2.737335e-002	1.890811e-003	2.740246e-002	9.996235e-001	-4.398448e-002
711060500	9.978669e-001	-7.642925e-002	1.927347e-003	2.781906e-002	1.906435e-003	2.776045e-002	1.000267e+000	-4.371780e-002
720060000	9.978320e-001	-7.708800e-002	1.895971e-003	2.816691e-002	1.987989e-003	2.815791e-002	1.000515e+000	-4.368175e-002
729059500	9.979458e-001	-7.792240e-002	2.055818e-003	2.852111e-002	2.041428e-003	2.842704e-002	9.998488e-001	-4.505168e-002
738059000	9.978266e-001	-7.863089e-002	2.040015e-003	2.882290e-002	2.036813e-003	2.876874e-002	1.000492e+000	-4.467615e-002
747058500	9.987539e-001	-7.926249e-002	2.124707e-003	2.914262e-002	2.149786e-003	2.913413e-002	1.000310e+000	-4.536034e-002
756058000	9.982185e-001	-7.937822e-002	2.093031e-003	2.946908e-002	2.210761e-003	2.945210e-002	1.000326e+000	-4.534533e-002
765057500	9.977085e-001	-8.011549e-002	2.226183e-003	2.984713e-002	2.285971e-003	2.970845e-002	9.997448e-001	-4.545072e-002
774057000	9.970604e-001	-8.188732e-002	2.232403e-003	3.017388e-002	2.249300e-003	3.008586e-002	9.996905e-001	-4.578869e-002
783056500	9.970934e-001	-8.113445e-002	2.278548e-003	3.043754e-002	2.306677e-003	3.041097e-002	1.000161e+000	-4.657384e-002
792056000	9.974899e-001	-8.293808e-002	2.307589e-003	3.080185e-002	2.300759e-003	3.070018e-002	9.993764e-001	-4.645367e-002
801055500	9.973068e-001	-8.373073e-002	2.303215e-003	3.113265e-002	2.415461e-003	3.110702e-002	9.995263e-001	-4.651073e-002
810055000	9.972215e-001	-8.464433e-002	2.426340e-003	3.149921e-002	2.415985e-003	3.135059e-002	9.997055e-001	-4.764966e-002
819054500	9.972817e-001	-8.505744e-002	2.413753e-003	3.186544e-002	2.536252e-003	3.183513e-002	9.996712e-001	-4.724397e-002
828054000	9.963822e-001	-8.624303e-002	2.447971e-003	3.219403e-002	2.587287e-003	3.214565e-002	1.000016e+000	-4.755466e-002
837053500	9.973530e-001	-8.615038e-002	2.566088e-003	3.248639e-002	2.613130e-003	3.255111e-002	1.000144e+000	-4.835356e-002
846053000	9.969372e-001	-8.723264e-002	2.633539e-003	3.281962e-002	2.599121e-003	3.280640e-002	9.994115e-001	-4.867169e-002
855052500	9.975605e-001	-8.769611e-002	2.689620e-003	3.308359e-002	2.659949e-003	3.309467e-002	9.998512e-001	-4.917689e-002
864052000	9.972585e-001	-8.844169e-002	2.639240e-003	3.348150e-002	2.701355e-003	3.345609e-002	1.000576e+000	-4.944279e-002
873051500	9.967094e-001	-8.926319e-002	2.717786e-003	3.379324e-002	2.793949e-003	3.384514e-002	1.000141e+000	-4.925314e-002
882051000	9.968091e-001	-8.989871e-002	2.770372e-003	3.415540e-002	2.811261e-003	3.407991e-002	9.997807e-001	-4.988373e-002
891050500	9.972313e-001	-9.093874e-002	2.824344e-003	3.447290e-002	2.923619e-003	3.446483e-002	9.999417e-001	-5.001595e-002
900050000	9.967011e-001	-9.151413e-002	2.825088e-003	3.479587e-002	2.937308e-003	3.480744e-002	1.000189e+000	-5.016892e-002
909049500	9.973079e-001	-9.228054e-002	2.963750e-003	3.511755e-002	2.932210e-003	3.515986e-002	1.000152e+000	-5.064278e-002
918049000	9.973295e-001	-9.286873e-002	2.869954e-003	3.546715e-002	2.987967e-003	3.536207e-002	1.000486e+000	-5.043416e-002
927048500	9.966950e-001	-9.306687e-002	2.944773e-003	3.579827e-002	2.998923e-003	3.579380e-002	1.000016e+000	-5.104440e-002
936048000	9.964520e-001	-9.390150e-002	2.931280e-003	3.612997e-002	3.018220e-003	3.608983e-002	1.000500e+000	-5.209942e-002
945047500	9.968105e-001	-9.479170e-002	3.008169e-003	3.644266e-002	3.034380e-003	3.642070e-002	1.001017e+000	-5.120181e-002
954047000	9.967946e-001	-9.576930e-002	3.131250e-003	3.682806e-002	3.119928e-003	3.679887e-002	1.001216e+000	-5.206525e-002
963046500	9.967327e-001	-9.585571e-002	3.145684e-003	3.713075e-002	3.099287e-003	3.709298e-002	1.000865e+000	-5.155326e-002
972046000	9.969654e-001	-9.615230e-002	3.026864e-003	3.754586e-002	3.195641e-003	3.742672e-002	1.001077e+000	-5.192436e-002
981045500	9.973157e-001	-9.673636e-002	3.161449e-003	3.791092e-002	3.143235e-003	3.780841e-002	1.000223e+000	-5.187026e-002
990045000	9.978960e-001	-9.756344e-002	3.243326e-003	3.817457e-002	3.223698e-003	3.813971e-002	1.000438e+000	-5.292738e-002
999044500	9.970064e-001	-9.796323e-002	3.279181e-003	3.858519e-002	3.277336e-003	3.848031e-002	1.000735e+000	-5.217405e-002
1008044000	9.972941e-001	-9.778380e-002	3.363512e-003	3.893371e-002	3.357712e-003	3.882890e-002	1.000821e+000	-5.288912e-002
1017043500	9.971929e-001	-9.746613e-002	3.356754e-003	3.930793e-002	3.452171e-003	3.920030e-002	1.000718e+000	-5.293290e-002
1026043000	9.963493e-001	-9.882515e-002	3.350628e-003	3.955618e-002	3.423215e-003	3.958000e-002	1.000862e+000	-5.279553e-002
1035042500	9.965114e-001	-9.927549e-002	3.551320e-003	3.998761e-002	3.513120e-003	3.988447e-002	1.000794e+000	-5.302891e-002
1044042000	9.963830e-001	-9.942181e-002	3.453384e-003	4.023212e-002	3.583107e-003	4.024888e-002	1.000874e+000	-5.341958e-002
1053041500	9.967220e-001	-9.973505e-002	3.587050e-003	4.055748e-002	3.652960e-003	4.056836e-002	1.000655e+000	-5.360832e-002
1062041000	9.968703e-001	-1.003786e-001	3.758063e-003	4.093446e-002	3.618996e-003	4.089076e-002	1.000277e+000	-5.323549e-002
1071040500	9.965962e-001	-1.007698e-001	3.686285e-003	4.135226e-002	3.726371e-003	4.122116e-002	1.001106e+000	-5.356559e-002
1080040000	9.963281e-001	-1.008527e-001	3.669750e-003	4.164378e-002	3.883308e-003	4.158140e-002	1.000462e+000	-5.421777e-002
1089039500	9.971868e-001	-1.026453e-001	3.919295e-003	4.184135e-002	3.845131e-003	4.189049e-002	1.000886e+000	-5.431123e-002
1098039000	9.971492e-001	-1.022914e-001	3.925179e-003	4.227599e-002	3.869210e-003	4.223629e-002	1.001210e+000	-5.418789e-002
1107038500	9.970969e-001	-1.030550e-001	3.951871e-003	4.261483e-002	3.947054e-003	4.251470e-002	1.000984e+000	-5.437298e-002
1116038000	9.967517e-001	-1.028786e-001	3.945828e-003	4.295166e-002	3.993929e-003	4.287288e-002	1.001005e+000	-5.469277e-002
1125037500	9.968367e-001	-1.035991e-001	4.072591e-003	4.330115e-002	3.951351e-003	4.315542e-002	1.000706e+000	-5.452044e-002
1134037000	9.964305e-001	-1.046379e-001	4.052709e-003	4.357261e-002	4.098090e-003	4.351213e-002	1.001320e+000	-5.502408e-002
1143036500	9.968704e-001	-1.052688e-001	4.144045e-003	4.385581e-002	4.203641e-003	4.381692e-002	1.001526e+000	-5.499747e-002
1152036000	9.960343e-001	-1.058861e-001	4.101122e-003	4.416897e-002	4.192683e-003	4.422396e-002	1.001548e+000	-5.550439e-002
1161035500	9.966396e-001	-1.065851e-001	4.222599e-003	4.459516e-002	4.226436e-003	4.450485e-002	1.001354e+000	-5.497246e-002
1170035000	9.962157e-001	-1.056309e-001	4.211983e-003	4.480203e-002	4.324267e-003	4.478513e-002	1.001236e+000	-5.581576e-002
1179034500	9.961275e-001	-1.069686e-001	4.355942e-003	4.522593e-002	4.368657e-003	4.514541e-002	1.002103e+000	-5.530645e-002
1188034000	9.959886e-001	-1.082507e-001	4.440484e-003	4.554666e-002	4.435831e-003	4.548130e-002	1.001606e+000	-5.528063e-002
1197033500	9.968925e-001	-1.080511e-001	4.486682e-003	4.588601e-002	4.465141e-003	4.584340e-002	1.001599e+000	-5.557385e-002
1206033000	9.966711e-001	-1.086730e-001	4.502617e-003	4.621722e-002	4.580323e-003	4.613597e-002	1.001684e+000	-5.653655e-002
1215032500	9.956730e-001	-1.092224e-001	4.551524e-003	4.643565e-002	4.572425e-003	4.643162e-002	1.001560e+000	-5.658267e-002
1224032000	9.959357e-001	-1.098586e-001	4.610428e-003	4.674957e-002	4.618843e-003	4.678746e-002	1.001179e+000	-5.611832e-002
1233031500	9.965613e-001	-1.093736e-001	4.663559e-003	4.728056e-002	4.613866e-003	4.707010e-002	1.001300e+000	-5.654567e-002
1242031000	9.964348e-001	-1.101558e-001	4.673389e-003	4.746145e-002	4.833886e-003	4.736935e-002	1.001746e+000	-5.701891e-002
1251030500	9.958789e-001	-1.108737e-001	4.779710e-003	4.787232e-002	4.777677e-003	4.777774e-002	1.002078e+000	-5.620518e-002
1260030000	9.964162e-001	-1.100441e-001	4.832292e-003	4.818567e-002	4.865911e-003	4.813903e-002	1.001919e+000	-5.633339e-002
1269029500	9.964561e-001	-1.101006e-001	4.793859e-003	4.853142e-002	4.949267e-003	4.844726e-002	1.001704e+000	-5.576010e-002
1278029000	9.970197e-001	-1.104609e-001	4.963822e-003	4.892930e-002	4.973835e-003	4.874343e-002	1.002575e+000	-5.592560e-002
1287028500	9.965058e-001	-1.120143e-001	5.060098e-003	4.925456e-002	4.997337e-003	4.912527e-002	1.002403e+000	-5.627673e-002
1296028000	9.965056e-001	-1.114884e-001	5.012880e-003	4.946926e-002	5.082086e-003	4.936608e-002	1.002382e+000	-5.640118e-002
1305027500	9.965919e-001	-1.123915e-001	5.148050e-003	4.991490e-002	5.193400e-003	4.980761e-002	1.002868e+000	-5.567796e-002
1314027000	9.966439e-001	-1.121800e-001	5.167899e-003	5.018945e-002	5.250860e-003	5.010651e-002	1.002635e+000	-5.587304e-002
1323026500	9.965626e-001	-1.129944e-001	5.286302e-003	5.058865e-002	5.290364e-003	5.043874e-002	1.002346e+000	-5.593913e-002
1332026000	9.961441e-001	-1.127685e-001	5.237998e-003	5.084116e-002	5.331135e-003	5.081048e-002	1.002585e+000	-5.623117e-002
1341025500	9.961209e-001	-1.138336e-001	5.402323e-003	5.115916e-002	5.341176e-003	5.108205e-002	1.001986e+000	-5.642379e-002
1350025000	9.969739e-001	-1.134658e-001	5.426306e-003	5.150396e-002	5.505695e-003	5.150593e-002	1.002888e+000	-5.685354e-002
1359024500	9.968463e-001	-1.133194e-001	5.457238e-003	5.180634e-002	5.538781e-003	5.168564e-002	1.002946e+000	-5.697433e-002
1368024000	9.965176e-001	-1.137039e-001	5.502487e-003	5.197885e-002	5.535743e-003	5.195285e-002	1.002253e+000	-5.615829e-002
1377023500	9.968260e-001	-1.143328e-001	5.604617e-003	5.232034e-002	5.590230e-003	5.222312e-002	1.001899e+000	-5.632218e-002
1386023000	9.963674e-001	-1.145468e-001	5.666677e-003	5.273543e-002	5.725625e-003	5.274014e-002	1.002694e+000	-5.650296e-002
1395022500	9.958900e-001	-1.148905e-001	5.641834e-003	5.304223e-002	5.739123e-003	5.298497e-002	1.002036e+000	-5.597152e-002
1404022000	9.969374e-001	-1.144223e-001	5.683431e-003	5.333618e-002	5.812240e-003	5.329603e-002	1.002932e+000	-5.593525e-002
1413021500	9.961959e-001	-1.150238e-001	5.747468e-003	5.362197e-002	5.903474e-003	5.365496e-002	1.003008e+000	-5.615699e-002
