!Agilent Technologies,E5071C,MY46101151,A.11.02
!Date: Sun Sep 24 15:37:04 2017
!Data & Calibration Information:
!Freq	S11:SOLT2(ON)	S21:SOLT2(ON)	S12:SOLT2(ON)	S22:SOLT2(ON)
!PortZ  Port1:50+j0    Port2:50+j0
!Above PortZ is port z conversion or system Z0 setting when saving the data.
!When reading, reference impedance value at option line is always used.
# Hz S RI R 50
100000	-9.931992e-001	-1.632533e-001	6.851646e-005	-3.339299e-004	-2.391412e-004	-2.690867e-004	-9.927850e-001	-1.605754e-001
9099500	-1.001221e+000	1.409574e-002	-9.582106e-005	1.484977e-003	2.776861e-005	1.228328e-003	-1.000351e+000	1.372252e-002
18099000	-1.001608e+000	9.487722e-003	4.399925e-005	2.659190e-003	9.631366e-005	2.678321e-003	-1.000950e+000	8.589808e-003
27098500	-1.001862e+000	8.225311e-003	1.219443e-004	3.959959e-003	3.614915e-005	3.907728e-003	-1.001486e+000	6.471727e-003
36098000	-1.001972e+000	8.370592e-003	8.599647e-005	5.264324e-003	1.156056e-004	5.289477e-003	-1.001054e+000	5.930930e-003
45097500	-1.002214e+000	8.404526e-003	1.641342e-004	6.468172e-003	1.419417e-004	6.584498e-003	-1.001490e+000	6.135446e-003
54097000	-1.002075e+000	8.572223e-003	2.094876e-004	7.849352e-003	1.535760e-004	7.883925e-003	-1.001293e+000	6.954488e-003
63096500	-1.002494e+000	8.983325e-003	1.923842e-004	9.142607e-003	2.120770e-004	9.163544e-003	-1.001572e+000	6.643987e-003
72096000	-1.002696e+000	1.038933e-002	2.264140e-004	1.040338e-002	2.115407e-004	1.045660e-002	-1.001716e+000	7.259035e-003
81095500	-1.002414e+000	1.071546e-002	2.843111e-004	1.171599e-002	2.262258e-004	1.169329e-002	-1.001222e+000	6.614077e-003
90095000	-1.002376e+000	1.120297e-002	2.590371e-004	1.303733e-002	3.240431e-004	1.308537e-002	-1.001304e+000	6.561847e-003
99094500	-1.001962e+000	1.248535e-002	3.367869e-004	1.433021e-002	3.210609e-004	1.435875e-002	-1.001701e+000	7.677795e-003
108094000	-1.001255e+000	1.318965e-002	3.059411e-004	1.560928e-002	4.079081e-004	1.566298e-002	-9.996353e-001	8.594855e-003
117093500	-1.000805e+000	1.447266e-002	3.957079e-004	1.692135e-002	4.515165e-004	1.688869e-002	-1.000894e+000	8.669031e-003
126093000	-1.000673e+000	1.518762e-002	4.231097e-004	1.819117e-002	3.516439e-004	1.825076e-002	-1.001187e+000	8.683773e-003
135092500	-1.001573e+000	1.521512e-002	4.268723e-004	1.949662e-002	4.295746e-004	1.949585e-002	-1.001055e+000	9.130081e-003
144092000	-1.001485e+000	1.565711e-002	4.880995e-004	2.077138e-002	5.146876e-004	2.080974e-002	-1.001019e+000	8.881646e-003
153091500	-1.000444e+000	1.728493e-002	6.064725e-004	2.204565e-002	4.870574e-004	2.205464e-002	-1.000404e+000	9.252630e-003
162091000	-1.000983e+000	1.732037e-002	5.312473e-004	2.330087e-002	5.867658e-004	2.336709e-002	-1.000535e+000	1.008850e-002
171090500	-1.002025e+000	1.865809e-002	6.043694e-004	2.463394e-002	6.413282e-004	2.468600e-002	-1.000918e+000	1.026951e-002
180090000	-1.001847e+000	1.875029e-002	6.477005e-004	2.593215e-002	6.704890e-004	2.592991e-002	-1.000658e+000	1.097396e-002
189089500	-1.001342e+000	1.964908e-002	6.123442e-004	2.721079e-002	6.476323e-004	2.726751e-002	-1.000351e+000	1.087312e-002
198089000	-1.002066e+000	1.962293e-002	7.013527e-004	2.847951e-002	7.211884e-004	2.855496e-002	-1.001050e+000	1.124518e-002
207088500	-1.002097e+000	2.115840e-002	7.104727e-004	2.977840e-002	6.991924e-004	2.991663e-002	-1.001398e+000	1.145077e-002
216088000	-1.001695e+000	2.135596e-002	7.797568e-004	3.100639e-002	7.679600e-004	3.130305e-002	-1.001934e+000	1.153226e-002
225087500	-1.002453e+000	2.199767e-002	8.204939e-004	3.241622e-002	7.801579e-004	3.249521e-002	-1.001326e+000	1.205382e-002
234087000	-1.001318e+000	2.312774e-002	8.869868e-004	3.362361e-002	8.864620e-004	3.387220e-002	-1.001542e+000	1.237209e-002
243086500	-1.001365e+000	2.405371e-002	9.411732e-004	3.492053e-002	9.235552e-004	3.507398e-002	-1.001093e+000	1.257458e-002
252086000	-1.001280e+000	2.471434e-002	9.494170e-004	3.626124e-002	1.003442e-003	3.637194e-002	-1.001445e+000	1.317818e-002
261085500	-1.001962e+000	2.576450e-002	1.070502e-003	3.761917e-002	1.077020e-003	3.761709e-002	-1.001939e+000	1.320457e-002
270085000	-1.001791e+000	2.608916e-002	1.027763e-003	3.873360e-002	9.869583e-004	3.885790e-002	-1.001644e+000	1.281354e-002
279084500	-1.002028e+000	2.743600e-002	1.140210e-003	4.008040e-002	1.150622e-003	4.019929e-002	-1.001235e+000	1.341131e-002
288084000	-1.001918e+000	2.762216e-002	1.128718e-003	4.139582e-002	1.136972e-003	4.150227e-002	-1.001663e+000	1.335946e-002
297083500	-1.001851e+000	2.802680e-002	1.176705e-003	4.273360e-002	1.229412e-003	4.281699e-002	-1.001721e+000	1.394836e-002
306083000	-1.002797e+000	2.906531e-002	1.219608e-003	4.407425e-002	1.330840e-003	4.413182e-002	-1.002619e+000	1.521866e-002
315082500	-1.001853e+000	3.057504e-002	1.311644e-003	4.524401e-002	1.330093e-003	4.534036e-002	-1.001517e+000	1.467527e-002
324082000	-1.001451e+000	3.136461e-002	1.333437e-003	4.638447e-002	1.291915e-003	4.671738e-002	-1.001915e+000	1.437678e-002
333081500	-1.002559e+000	3.146419e-002	1.366967e-003	4.784734e-002	1.365419e-003	4.789257e-002	-1.001990e+000	1.518187e-002
342081000	-1.002385e+000	3.273251e-002	1.514094e-003	4.903356e-002	1.429009e-003	4.914257e-002	-1.001508e+000	1.618810e-002
351080500	-1.003184e+000	3.352610e-002	1.501901e-003	5.035829e-002	1.458435e-003	5.035925e-002	-1.001574e+000	1.599206e-002
360080000	-1.002074e+000	3.472821e-002	1.614965e-003	5.156564e-002	1.452848e-003	5.156752e-002	-1.002359e+000	1.599395e-002
369079500	-1.000982e+000	3.462332e-002	1.541053e-003	5.264195e-002	1.521409e-003	5.278044e-002	-1.001667e+000	1.700359e-002
378079000	-1.002170e+000	3.490338e-002	1.382751e-003	5.373234e-002	1.468876e-003	5.388246e-002	-1.001037e+000	1.741883e-002
387078500	-1.001225e+000	3.668351e-002	1.265601e-003	5.478181e-002	1.192351e-003	5.492011e-002	-1.001265e+000	1.807469e-002
396078000	-1.000694e+000	3.806269e-002	5.679418e-004	5.606264e-002	5.272491e-004	5.628287e-002	-1.000501e+000	1.798437e-002
405077500	-1.000527e+000	3.805957e-002	3.071013e-005	5.817765e-002	6.912241e-005	5.833992e-002	-9.994196e-001	1.909171e-002
414077000	-1.000584e+000	3.732707e-002	3.380942e-004	6.045503e-002	2.383734e-004	6.054373e-002	-1.000598e+000	1.748961e-002
423076500	-1.000519e+000	3.752356e-002	1.040180e-003	6.190625e-002	1.134219e-003	6.209311e-002	-1.000574e+000	1.834189e-002
432076000	-1.000921e+000	3.956668e-002	1.400915e-003	6.309163e-002	1.394452e-003	6.329377e-002	-1.000474e+000	1.777267e-002
441075500	-1.000977e+000	3.947554e-002	1.663883e-003	6.428176e-002	1.649884e-003	6.459813e-002	-1.000545e+000	1.861977e-002
450075000	-1.000882e+000	4.156612e-002	1.858566e-003	6.572480e-002	1.862880e-003	6.576852e-002	-1.000962e+000	1.877834e-002
459074500	-1.002019e+000	4.208158e-002	2.036350e-003	6.698469e-002	1.870220e-003	6.712418e-002	-1.001598e+000	1.869003e-002
468074000	-1.002322e+000	4.300773e-002	2.146046e-003	6.828458e-002	2.093050e-003	6.832806e-002	-1.000659e+000	1.901853e-002
477073500	-1.001614e+000	4.422756e-002	2.333536e-003	6.943062e-002	2.238540e-003	6.967970e-002	-1.001882e+000	1.984192e-002
486073000	-1.001855e+000	4.490466e-002	2.420894e-003	7.087618e-002	2.419781e-003	7.101483e-002	-1.002229e+000	2.038090e-002
495072500	-1.001204e+000	4.590864e-002	2.619164e-003	7.212210e-002	2.549019e-003	7.208782e-002	-1.001012e+000	2.114208e-002
504072000	-1.001446e+000	4.661033e-002	2.602181e-003	7.337542e-002	2.647127e-003	7.353877e-002	-1.001701e+000	2.169254e-002
513071500	-1.001176e+000	4.740922e-002	2.817349e-003	7.458356e-002	2.539989e-003	7.483445e-002	-1.001486e+000	2.113209e-002
522071000	-1.001938e+000	4.829457e-002	2.979712e-003	7.604623e-002	3.033347e-003	7.606931e-002	-1.001737e+000	2.253556e-002
531070500	-1.001286e+000	4.979094e-002	3.016515e-003	7.717713e-002	2.895816e-003	7.737336e-002	-1.001334e+000	2.225531e-002
540070000	-1.001216e+000	5.059233e-002	3.153353e-003	7.856204e-002	3.041487e-003	7.874749e-002	-1.001957e+000	2.276716e-002
549069500	-1.001219e+000	5.166507e-002	3.320304e-003	7.993711e-002	3.139202e-003	8.010463e-002	-1.001589e+000	2.287937e-002
558069000	-1.001392e+000	5.175556e-002	3.358731e-003	8.114103e-002	3.288648e-003	8.126356e-002	-1.001700e+000	2.385274e-002
567068500	-1.001097e+000	5.307393e-002	3.537142e-003	8.267701e-002	3.396525e-003	8.262172e-002	-1.001694e+000	2.436248e-002
576068000	-1.001800e+000	5.362616e-002	3.518636e-003	8.389028e-002	3.399602e-003	8.399691e-002	-1.001431e+000	2.418529e-002
585067500	-1.001257e+000	5.477500e-002	3.628406e-003	8.508768e-002	3.594680e-003	8.531126e-002	-1.001721e+000	2.509748e-002
594067000	-1.001663e+000	5.517616e-002	3.788916e-003	8.652094e-002	3.638373e-003	8.670090e-002	-1.001853e+000	2.537509e-002
603066500	-1.002199e+000	5.531186e-002	3.782418e-003	8.775646e-002	3.756118e-003	8.794551e-002	-1.001651e+000	2.664845e-002
612066000	-1.001118e+000	5.750008e-002	4.025245e-003	8.906489e-002	3.833904e-003	8.936635e-002	-1.001267e+000	2.587787e-002
621065500	-1.001192e+000	5.837540e-002	4.137070e-003	9.049258e-002	4.105555e-003	9.070279e-002	-1.001508e+000	2.719661e-002
630065000	-1.000864e+000	5.975732e-002	4.356445e-003	9.188008e-002	4.116552e-003	9.195926e-002	-1.001523e+000	2.751689e-002
639064500	-1.000320e+000	5.978513e-002	4.374177e-003	9.313209e-002	4.298124e-003	9.339595e-002	-1.000696e+000	2.822243e-002
648064000	-9.998245e-001	6.074765e-002	4.439350e-003	9.442693e-002	4.470967e-003	9.474147e-002	-1.001512e+000	2.816620e-002
657063500	-9.998809e-001	6.283303e-002	4.662478e-003	9.570539e-002	4.676323e-003	9.595753e-002	-1.000807e+000	2.868873e-002
666063000	-9.996805e-001	6.289049e-002	4.685528e-003	9.692473e-002	4.648327e-003	9.732862e-002	-1.001017e+000	2.905729e-002
675062500	-1.000735e+000	6.378662e-002	4.820222e-003	9.846194e-002	4.993930e-003	9.865236e-002	-1.000908e+000	3.060300e-002
684062000	-1.000010e+000	6.551220e-002	5.085518e-003	9.959458e-002	5.047016e-003	9.986046e-002	-1.000502e+000	3.117757e-002
693061500	-1.000315e+000	6.613484e-002	5.114025e-003	1.010067e-001	5.182409e-003	1.011143e-001	-1.000428e+000	3.143853e-002
702061000	-1.000540e+000	6.752089e-002	5.336243e-003	1.022534e-001	5.243642e-003	1.024590e-001	-1.000908e+000	3.206826e-002
711060500	-9.998309e-001	6.794471e-002	5.359219e-003	1.035515e-001	5.371904e-003	1.036441e-001	-1.000154e+000	3.186658e-002
720060000	-9.994588e-001	6.947023e-002	5.647307e-003	1.047250e-001	5.594444e-003	1.048207e-001	-1.000114e+000	3.400419e-002
729059500	-9.983418e-001	7.020357e-002	5.610319e-003	1.059113e-001	5.790959e-003	1.061430e-001	-1.000398e+000	3.459504e-002
738059000	-9.988172e-001	7.147094e-002	5.794391e-003	1.073767e-001	5.846376e-003	1.075728e-001	-1.000265e+000	3.528692e-002
747058500	-9.987471e-001	7.275333e-002	5.855291e-003	1.087320e-001	5.737778e-003	1.088139e-001	-9.998603e-001	3.478325e-002
756058000	-9.977627e-001	7.449949e-002	5.928563e-003	1.096377e-001	5.681164e-003	1.099766e-001	-1.000438e+000	3.476369e-002
765057500	-9.985256e-001	7.471920e-002	5.802518e-003	1.113544e-001	5.733454e-003	1.112719e-001	-9.989416e-001	3.562272e-002
774057000	-9.983333e-001	7.601485e-002	6.244540e-003	1.126865e-001	5.983664e-003	1.129375e-001	-9.996064e-001	3.582130e-002
783056500	-9.984269e-001	7.712681e-002	6.241238e-003	1.138530e-001	6.071414e-003	1.141713e-001	-9.993629e-001	3.695953e-002
792056000	-9.978595e-001	7.730186e-002	6.256177e-003	1.153603e-001	6.354334e-003	1.155642e-001	-9.996721e-001	3.760817e-002
801055500	-9.979880e-001	7.855788e-002	6.425705e-003	1.166661e-001	6.244186e-003	1.167013e-001	-9.987995e-001	3.728240e-002
810055000	-9.973573e-001	7.950265e-002	6.478024e-003	1.177717e-001	6.434950e-003	1.182767e-001	-1.000064e+000	3.842986e-002
819054500	-9.971208e-001	8.048789e-002	6.454263e-003	1.192942e-001	6.539827e-003	1.193954e-001	-9.984469e-001	3.851631e-002
828054000	-9.982456e-001	8.219928e-002	6.733260e-003	1.208874e-001	6.485262e-003	1.208411e-001	-9.988080e-001	3.902606e-002
837053500	-9.965465e-001	8.243976e-002	6.653565e-003	1.218961e-001	6.556161e-003	1.221481e-001	-9.980652e-001	3.888239e-002
846053000	-9.967291e-001	8.424018e-002	6.676019e-003	1.233364e-001	6.846955e-003	1.234289e-001	-9.982150e-001	4.071967e-002
855052500	-9.966472e-001	8.497028e-002	6.662345e-003	1.248288e-001	6.509607e-003	1.251078e-001	-9.986150e-001	4.051971e-002
864052000	-9.961482e-001	8.549976e-002	6.737933e-003	1.263598e-001	6.517952e-003	1.266054e-001	-9.985439e-001	4.019522e-002
873051500	-9.961024e-001	8.696225e-002	6.967013e-003	1.277506e-001	6.904399e-003	1.279143e-001	-9.975112e-001	4.198544e-002
882051000	-9.961216e-001	8.706148e-002	6.808340e-003	1.293112e-001	7.056967e-003	1.295748e-001	-9.978574e-001	4.210408e-002
891050500	-9.951810e-001	8.725393e-002	6.911577e-003	1.308494e-001	7.028720e-003	1.310595e-001	-9.976915e-001	4.200020e-002
900050000	-9.957581e-001	8.975420e-002	7.345084e-003	1.324812e-001	7.219703e-003	1.324014e-001	-9.968237e-001	4.237929e-002
909049500	-9.960067e-001	9.033660e-002	7.574160e-003	1.339074e-001	7.261534e-003	1.341622e-001	-9.976074e-001	4.224222e-002
918049000	-9.947122e-001	9.134744e-002	7.796238e-003	1.352784e-001	7.479933e-003	1.355764e-001	-9.974542e-001	4.296624e-002
927048500	-9.946250e-001	9.205778e-002	8.134424e-003	1.370599e-001	8.072098e-003	1.373881e-001	-9.976258e-001	4.407998e-002
936048000	-9.953544e-001	9.404070e-002	8.674098e-003	1.384552e-001	8.126667e-003	1.386874e-001	-9.977230e-001	4.399221e-002
945047500	-9.956616e-001	9.410753e-002	8.834684e-003	1.398859e-001	8.458162e-003	1.399514e-001	-9.968629e-001	4.409627e-002
954047000	-9.948957e-001	9.507546e-002	8.968854e-003	1.411693e-001	8.684757e-003	1.416914e-001	-9.973104e-001	4.417633e-002
963046500	-9.942864e-001	9.649892e-002	9.609806e-003	1.425080e-001	9.373320e-003	1.429387e-001	-9.970840e-001	4.700489e-002
972046000	-9.946375e-001	9.839451e-002	1.004102e-002	1.438947e-001	9.485372e-003	1.439743e-001	-9.973152e-001	4.784575e-002
981045500	-9.938809e-001	9.914713e-002	1.009841e-002	1.450025e-001	1.004427e-002	1.453955e-001	-9.975406e-001	4.879611e-002
990045000	-9.941065e-001	1.003840e-001	1.018300e-002	1.465714e-001	1.018117e-002	1.471691e-001	-9.986599e-001	4.903645e-002
999044500	-9.940530e-001	1.018088e-001	1.068430e-002	1.477757e-001	1.040687e-002	1.479924e-001	-9.976002e-001	4.975853e-002
1008044000	-9.930313e-001	1.035325e-001	1.101167e-002	1.490388e-001	1.083261e-002	1.495373e-001	-9.976280e-001	5.083642e-002
1017043500	-9.927007e-001	1.049223e-001	1.134182e-002	1.501013e-001	1.107692e-002	1.506391e-001	-9.972560e-001	5.138526e-002
1026043000	-9.930535e-001	1.069693e-001	1.162019e-002	1.517307e-001	1.129724e-002	1.520775e-001	-9.974003e-001	5.240980e-002
1035042500	-9.931680e-001	1.070974e-001	1.176052e-002	1.532464e-001	1.165879e-002	1.535055e-001	-9.969250e-001	5.368958e-002
1044042000	-9.923111e-001	1.096667e-001	1.223886e-002	1.542267e-001	1.175791e-002	1.545014e-001	-9.968457e-001	5.363326e-002
1053041500	-9.921115e-001	1.104917e-001	1.188838e-002	1.556175e-001	1.175328e-002	1.559533e-001	-9.964880e-001	5.454315e-002
1062041000	-9.927361e-001	1.115076e-001	1.236591e-002	1.570925e-001	1.245616e-002	1.572536e-001	-9.959046e-001	5.571622e-002
1071040500	-9.912070e-001	1.124594e-001	1.252130e-002	1.583348e-001	1.240109e-002	1.584060e-001	-9.955508e-001	5.633805e-002
1080040000	-9.920274e-001	1.151751e-001	1.299152e-002	1.596743e-001	1.252306e-002	1.600534e-001	-9.965062e-001	5.643548e-002
1089039500	-9.906978e-001	1.140466e-001	1.270733e-002	1.612351e-001	1.260765e-002	1.613217e-001	-9.958199e-001	5.803703e-002
1098039000	-9.899546e-001	1.163449e-001	1.308626e-002	1.624920e-001	1.305945e-002	1.626647e-001	-9.948265e-001	5.797987e-002
1107038500	-9.896396e-001	1.174021e-001	1.328094e-002	1.638534e-001	1.324415e-002	1.643482e-001	-9.961232e-001	5.900302e-002
1116038000	-9.898973e-001	1.200152e-001	1.379221e-002	1.651130e-001	1.360641e-002	1.654616e-001	-9.949672e-001	6.002036e-002
1125037500	-9.892824e-001	1.205956e-001	1.372064e-002	1.665880e-001	1.404719e-002	1.670345e-001	-9.947579e-001	6.149328e-002
1134037000	-9.899043e-001	1.213227e-001	1.425418e-002	1.682573e-001	1.419522e-002	1.681102e-001	-9.947228e-001	6.150888e-002
1143036500	-9.891657e-001	1.226441e-001	1.424260e-002	1.693771e-001	1.420794e-002	1.696590e-001	-9.946079e-001	6.192389e-002
1152036000	-9.899505e-001	1.240010e-001	1.487275e-002	1.709730e-001	1.428011e-002	1.709507e-001	-9.942376e-001	6.255820e-002
1161035500	-9.885196e-001	1.249393e-001	1.478049e-002	1.721297e-001	1.475294e-002	1.722912e-001	-9.935434e-001	6.389057e-002
1170035000	-9.876269e-001	1.264192e-001	1.523988e-002	1.733443e-001	1.484806e-002	1.739696e-001	-9.931403e-001	6.440276e-002
1179034500	-9.878921e-001	1.277663e-001	1.537348e-002	1.748847e-001	1.502383e-002	1.750686e-001	-9.924244e-001	6.457018e-002
1188034000	-9.875904e-001	1.290191e-001	1.565956e-002	1.765460e-001	1.519420e-002	1.763864e-001	-9.919328e-001	6.597221e-002
1197033500	-9.868090e-001	1.301106e-001	1.575737e-002	1.777399e-001	1.571812e-002	1.780216e-001	-9.919401e-001	6.715473e-002
1206033000	-9.866447e-001	1.317482e-001	1.630995e-002	1.790767e-001	1.599309e-002	1.796594e-001	-9.926592e-001	6.710042e-002
1215032500	-9.869258e-001	1.338723e-001	1.679627e-002	1.805733e-001	1.639156e-002	1.808453e-001	-9.918224e-001	6.867076e-002
1224032000	-9.865792e-001	1.354373e-001	1.696582e-002	1.818745e-001	1.681370e-002	1.821693e-001	-9.923308e-001	6.963915e-002
1233031500	-9.849197e-001	1.362853e-001	1.733228e-002	1.826394e-001	1.697757e-002	1.834980e-001	-9.921029e-001	7.068873e-002
1242031000	-9.859104e-001	1.376032e-001	1.749112e-002	1.841217e-001	1.704226e-002	1.846027e-001	-9.909767e-001	7.087568e-002
1251030500	-9.843170e-001	1.396809e-001	1.743068e-002	1.853626e-001	1.715760e-002	1.856602e-001	-9.900907e-001	7.246920e-002
1260030000	-9.831445e-001	1.415392e-001	1.750099e-002	1.865723e-001	1.707968e-002	1.872718e-001	-9.900482e-001	7.328592e-002
1269029500	-9.818954e-001	1.436279e-001	1.761290e-002	1.879929e-001	1.730853e-002	1.885380e-001	-9.891011e-001	7.455707e-002
1278029000	-9.808691e-001	1.446344e-001	1.743313e-002	1.893502e-001	1.728580e-002	1.898594e-001	-9.883009e-001	7.504825e-002
1287028500	-9.811070e-001	1.452862e-001	1.744483e-002	1.910996e-001	1.725799e-002	1.914339e-001	-9.874791e-001	7.587530e-002
1296028000	-9.801080e-001	1.469538e-001	1.776991e-002	1.928308e-001	1.739247e-002	1.933602e-001	-9.874245e-001	7.579357e-002
1305027500	-9.790825e-001	1.475338e-001	1.769220e-002	1.946902e-001	1.743136e-002	1.946019e-001	-9.864265e-001	7.667069e-002
1314027000	-9.787344e-001	1.492737e-001	1.816643e-002	1.962657e-001	1.799096e-002	1.966895e-001	-9.859621e-001	7.734592e-002
1323026500	-9.781491e-001	1.497193e-001	1.837428e-002	1.982178e-001	1.826071e-002	1.984124e-001	-9.856826e-001	7.780152e-002
1332026000	-9.780090e-001	1.514961e-001	1.881982e-002	1.998671e-001	1.856521e-002	2.002661e-001	-9.859399e-001	7.807153e-002
1341025500	-9.781839e-001	1.530021e-001	1.939775e-002	2.015819e-001	1.951873e-002	2.018024e-001	-9.856068e-001	7.948873e-002
1350025000	-9.767741e-001	1.533797e-001	1.975908e-002	2.030330e-001	1.948164e-002	2.032736e-001	-9.853265e-001	7.941033e-002
1359024500	-9.765827e-001	1.563975e-001	2.034162e-002	2.044799e-001	2.022311e-002	2.048647e-001	-9.852701e-001	8.042144e-002
1368024000	-9.769091e-001	1.570366e-001	2.101608e-002	2.065387e-001	2.093272e-002	2.067200e-001	-9.855068e-001	8.141017e-002
1377023500	-9.772470e-001	1.584924e-001	2.142103e-002	2.082257e-001	2.173310e-002	2.084018e-001	-9.856233e-001	8.288593e-002
1386023000	-9.762006e-001	1.602106e-001	2.195728e-002	2.096460e-001	2.181893e-002	2.095544e-001	-9.845327e-001	8.220257e-002
1395022500	-9.758182e-001	1.626898e-001	2.289577e-002	2.112799e-001	2.246442e-002	2.110987e-001	-9.847944e-001	8.342206e-002
1404022000	-9.741111e-001	1.635230e-001	2.333589e-002	2.122194e-001	2.295480e-002	2.125001e-001	-9.840072e-001	8.473759e-002
