!Agilent Technologies,E5071C,MY46101151,A.11.02
!Date: Sun Sep 24 15:50:45 2017
!Data & Calibration Information:
!Freq	S11:SOLT2(ON)	S21:SOLT2(ON)	S12:SOLT2(ON)	S22:SOLT2(ON)
!PortZ  Port1:50+j0    Port2:50+j0
!Above PortZ is port z conversion or system Z0 setting when saving the data.
!When reading, reference impedance value at option line is always used.
# Hz S dB R 50
100000	-3.668645e+001	-1.235575e+002	-3.794564e-002	8.894222e+000	2.487957e-002	8.992771e+000	-4.261505e+001	-1.105060e+002
9099500	-4.601931e+001	9.403663e+001	1.480011e-003	-3.729856e-001	2.039233e-003	-4.102080e-001	-4.309294e+001	9.224365e+001
18099000	-5.071397e+001	8.332509e+001	-2.087987e-003	-2.584243e-001	-1.066367e-003	-2.857071e-001	-4.762725e+001	7.406413e+001
27098500	-5.651846e+001	8.380685e+001	1.623504e-003	-1.960597e-001	-2.553389e-003	-2.392702e-001	-5.194962e+001	6.891081e+001
36098000	-5.807178e+001	-1.363053e+002	-1.893680e-003	-1.481029e-001	-3.332330e-003	-2.269840e-001	-5.369527e+001	6.674213e+001
45097500	-8.040405e+001	-7.489824e+001	-9.737415e-004	-2.003064e-001	-5.095973e-005	-2.478616e-001	-5.939766e+001	3.685950e+001
54097000	-6.253400e+001	1.575739e+002	-3.964716e-003	-2.541973e-001	1.158641e-005	-2.487669e-001	-5.617958e+001	-6.456872e+001
63096500	-5.695072e+001	-1.357718e+002	-1.000300e-003	-2.471947e-001	3.555625e-003	-2.438326e-001	-5.550609e+001	-9.518794e+001
72096000	-5.864370e+001	-7.559723e+001	-5.989515e-003	-2.721674e-001	3.107839e-003	-2.461761e-001	-5.236027e+001	-1.137231e+002
81095500	-6.031741e+001	-9.066024e+001	-4.013453e-003	-2.868401e-001	-5.787457e-004	-2.673600e-001	-5.269015e+001	-1.100635e+002
90095000	-4.934600e+001	-9.634973e+001	-4.250341e-003	-2.875011e-001	5.559673e-004	-3.037488e-001	-4.943559e+001	-1.068479e+002
99094500	-5.034433e+001	-9.341175e+001	-2.081682e-003	-3.052194e-001	4.962771e-004	-3.379833e-001	-5.016562e+001	-1.067868e+002
108094000	-4.882536e+001	-9.395818e+001	-9.330278e-003	-3.257825e-001	-7.728947e-003	-3.298441e-001	-4.908872e+001	-9.920314e+001
117093500	-4.801280e+001	-8.560352e+001	-1.498591e-002	-3.376743e-001	-9.882177e-003	-3.549283e-001	-4.893899e+001	-9.351012e+001
126093000	-4.764087e+001	-8.266925e+001	-1.103515e-002	-3.560644e-001	-6.409294e-003	-3.380996e-001	-4.670444e+001	-9.018010e+001
135092500	-4.627782e+001	-8.708349e+001	-8.407708e-003	-3.399336e-001	-5.746151e-003	-3.552612e-001	-4.627827e+001	-9.012086e+001
144092000	-4.714661e+001	-8.785731e+001	-7.025036e-003	-3.826206e-001	-5.005490e-003	-3.586505e-001	-4.531175e+001	-8.398236e+001
153091500	-4.722116e+001	-7.915192e+001	-8.206133e-003	-3.975388e-001	-1.709348e-003	-3.772218e-001	-4.456794e+001	-9.351177e+001
162091000	-4.511003e+001	-8.612397e+001	-3.770924e-003	-3.884277e-001	-2.850284e-003	-3.898238e-001	-4.458916e+001	-9.491524e+001
171090500	-4.542143e+001	-8.336133e+001	-7.346050e-003	-3.892816e-001	-3.869261e-003	-3.966230e-001	-4.480463e+001	-8.799365e+001
180090000	-4.436329e+001	-8.677796e+001	-6.091242e-003	-4.053144e-001	-3.499076e-003	-4.084054e-001	-4.336398e+001	-8.596111e+001
189089500	-4.436269e+001	-7.869804e+001	-9.410066e-003	-4.168057e-001	-2.001655e-003	-4.524959e-001	-4.297014e+001	-9.821356e+001
198089000	-4.281653e+001	-8.319038e+001	-8.584296e-003	-3.924341e-001	-3.849646e-003	-4.176500e-001	-4.223955e+001	-9.223567e+001
207088500	-4.321185e+001	-8.481371e+001	-7.898458e-003	-3.907301e-001	-6.046036e-004	-4.383373e-001	-4.240341e+001	-9.774136e+001
216088000	-4.267021e+001	-8.391511e+001	-9.459435e-003	-4.174514e-001	4.855812e-003	-4.319860e-001	-4.069209e+001	-9.518387e+001
225087500	-4.225273e+001	-9.144944e+001	-6.648662e-003	-4.368453e-001	1.526875e-003	-4.306489e-001	-4.091968e+001	-9.336005e+001
234087000	-4.145154e+001	-9.095122e+001	-7.010492e-003	-4.526566e-001	-7.524046e-004	-4.322863e-001	-4.149818e+001	-9.832076e+001
243086500	-4.088454e+001	-8.618068e+001	-8.772076e-003	-4.598522e-001	-1.899868e-003	-4.395269e-001	-4.094967e+001	-9.561154e+001
252086000	-4.100957e+001	-9.117741e+001	-5.715154e-003	-4.765044e-001	1.863412e-004	-4.562043e-001	-4.115792e+001	-9.633726e+001
261085500	-4.091343e+001	-9.385876e+001	-3.404431e-003	-4.824720e-001	-4.094711e-004	-4.675972e-001	-4.024844e+001	-9.455689e+001
270085000	-3.953792e+001	-8.966463e+001	-6.405184e-003	-4.675886e-001	-8.198616e-004	-4.637972e-001	-3.982072e+001	-9.046350e+001
279084500	-3.949752e+001	-8.846503e+001	-5.682931e-003	-4.971051e-001	2.450501e-003	-5.060149e-001	-4.046446e+001	-9.235144e+001
288084000	-3.952909e+001	-9.098537e+001	-3.573276e-003	-4.800553e-001	1.838900e-003	-5.167381e-001	-3.961961e+001	-9.160831e+001
297083500	-3.878255e+001	-9.076328e+001	-3.265698e-003	-4.922212e-001	3.181108e-003	-5.283673e-001	-3.927554e+001	-9.505479e+001
306083000	-3.845424e+001	-8.861082e+001	-2.841892e-003	-5.110167e-001	2.531618e-003	-5.574886e-001	-3.932961e+001	-9.641605e+001
315082500	-3.831537e+001	-8.833155e+001	-9.173008e-004	-5.417095e-001	3.449568e-003	-5.456121e-001	-3.968252e+001	-9.456387e+001
324082000	-3.878968e+001	-8.787425e+001	-2.119036e-003	-5.522495e-001	3.472198e-003	-5.402170e-001	-3.841544e+001	-9.462510e+001
333081500	-3.817846e+001	-8.973161e+001	-1.359488e-003	-5.526745e-001	3.442485e-003	-5.416102e-001	-3.833031e+001	-9.660884e+001
342081000	-3.842749e+001	-8.789118e+001	-1.614369e-003	-5.807538e-001	4.497321e-003	-5.647514e-001	-3.803017e+001	-9.966234e+001
351080500	-3.838302e+001	-9.416422e+001	3.182003e-003	-5.882173e-001	2.946414e-003	-5.590325e-001	-3.757726e+001	-9.643837e+001
360080000	-3.813682e+001	-9.337879e+001	3.515788e-003	-5.964680e-001	1.763453e-003	-5.958593e-001	-3.762370e+001	-9.496672e+001
369079500	-3.787991e+001	-8.872722e+001	-2.713078e-003	-6.057356e-001	-2.734711e-004	-6.428834e-001	-3.749456e+001	-9.317288e+001
378079000	-3.814838e+001	-8.722493e+001	-5.159128e-003	-6.439117e-001	2.846598e-003	-6.732841e-001	-3.756228e+001	-9.508392e+001
387078500	-3.805379e+001	-8.392908e+001	-8.650347e-003	-6.675398e-001	-2.262209e-003	-6.952756e-001	-3.705819e+001	-9.300644e+001
396078000	-3.781699e+001	-8.460489e+001	-1.587114e-002	-6.722538e-001	-7.664070e-003	-6.621218e-001	-3.627827e+001	-8.903959e+001
405077500	-3.662432e+001	-8.238876e+001	-1.407839e-002	-6.083702e-001	-8.272811e-003	-6.550574e-001	-3.587090e+001	-9.261014e+001
414077000	-3.646481e+001	-8.781302e+001	-9.037946e-003	-6.085161e-001	-6.024451e-004	-6.262264e-001	-3.537748e+001	-9.272602e+001
423076500	-3.595840e+001	-8.513778e+001	-6.010853e-003	-5.859426e-001	3.095472e-004	-6.134694e-001	-3.564785e+001	-9.262311e+001
432076000	-3.595496e+001	-8.663955e+001	-2.101914e-003	-6.085132e-001	4.715689e-003	-6.136317e-001	-3.541440e+001	-9.455706e+001
441075500	-3.598151e+001	-8.708331e+001	-1.498973e-003	-6.220643e-001	3.825673e-003	-6.342309e-001	-3.535554e+001	-9.699900e+001
450075000	-3.548684e+001	-8.871184e+001	-6.390896e-004	-6.419425e-001	-2.059718e-003	-6.097742e-001	-3.553716e+001	-9.574203e+001
459074500	-3.559359e+001	-8.743705e+001	9.598905e-004	-6.204483e-001	3.392283e-003	-6.182670e-001	-3.466256e+001	-9.523882e+001
468074000	-3.544665e+001	-8.870966e+001	2.910700e-003	-6.539023e-001	3.873535e-003	-6.391612e-001	-3.497851e+001	-9.631854e+001
477073500	-3.544686e+001	-8.656619e+001	-7.993131e-005	-6.477959e-001	3.147513e-003	-6.557417e-001	-3.471253e+001	-9.599758e+001
486073000	-3.493770e+001	-9.089596e+001	1.476388e-003	-6.777264e-001	6.425480e-003	-6.701500e-001	-3.454146e+001	-9.648067e+001
495072500	-3.535568e+001	-9.091346e+001	-1.046580e-003	-6.883217e-001	1.929590e-003	-6.777109e-001	-3.432046e+001	-9.326412e+001
504072000	-3.484314e+001	-8.831430e+001	1.575579e-003	-6.978100e-001	5.090226e-003	-7.120357e-001	-3.445417e+001	-9.631201e+001
513071500	-3.486368e+001	-8.734028e+001	1.198546e-003	-7.108797e-001	4.657820e-003	-6.812581e-001	-3.376396e+001	-9.330562e+001
522071000	-3.462299e+001	-9.028785e+001	5.856033e-003	-7.290028e-001	5.646817e-003	-7.316945e-001	-3.454054e+001	-9.681754e+001
531070500	-3.453424e+001	-8.922550e+001	3.003228e-003	-7.419827e-001	3.798381e-003	-7.130653e-001	-3.388706e+001	-9.575905e+001
540070000	-3.442370e+001	-9.179552e+001	2.485121e-003	-7.409448e-001	8.801099e-003	-7.237221e-001	-3.408068e+001	-9.632848e+001
549069500	-3.464345e+001	-9.305822e+001	2.453084e-003	-7.701978e-001	6.243483e-003	-7.439418e-001	-3.390394e+001	-9.545327e+001
558069000	-3.436601e+001	-9.079684e+001	1.511819e-003	-7.532594e-001	4.633990e-003	-7.547157e-001	-3.385904e+001	-9.418968e+001
567068500	-3.416441e+001	-9.288995e+001	7.318458e-003	-7.788945e-001	5.423703e-003	-7.743653e-001	-3.381016e+001	-9.403868e+001
576068000	-3.397609e+001	-9.336469e+001	7.567475e-003	-7.751444e-001	6.963320e-003	-7.698962e-001	-3.321395e+001	-9.643226e+001
585067500	-3.412350e+001	-9.100251e+001	4.718311e-003	-7.901856e-001	7.033278e-003	-8.188413e-001	-3.346064e+001	-9.615270e+001
594067000	-3.411065e+001	-9.067885e+001	5.086325e-003	-7.899825e-001	9.164299e-003	-8.211688e-001	-3.305024e+001	-9.603542e+001
603066500	-3.396663e+001	-9.042833e+001	4.117787e-003	-7.650012e-001	7.887249e-003	-8.274029e-001	-3.318997e+001	-9.533070e+001
612066000	-3.406265e+001	-9.102127e+001	4.622192e-003	-7.957044e-001	1.116270e-002	-8.052120e-001	-3.312447e+001	-9.622662e+001
621065500	-3.412405e+001	-9.193249e+001	7.655027e-003	-8.003568e-001	1.172701e-002	-8.498356e-001	-3.341226e+001	-9.701358e+001
630065000	-3.399098e+001	-9.284299e+001	9.403088e-003	-8.184368e-001	1.032546e-002	-8.161808e-001	-3.351023e+001	-9.536893e+001
639064500	-3.394543e+001	-9.131966e+001	6.820726e-003	-8.090011e-001	1.075776e-002	-8.144616e-001	-3.319337e+001	-9.760109e+001
648064000	-3.375029e+001	-9.164251e+001	1.020102e-002	-8.056663e-001	1.401572e-002	-8.223283e-001	-3.343717e+001	-9.932945e+001
657063500	-3.382604e+001	-9.115204e+001	9.971732e-003	-8.155301e-001	1.621422e-002	-8.435994e-001	-3.348130e+001	-1.005960e+002
666063000	-3.390419e+001	-9.164163e+001	6.056079e-003	-8.226087e-001	1.461234e-002	-8.269872e-001	-3.300473e+001	-1.002311e+002
675062500	-3.372736e+001	-9.303452e+001	1.244126e-002	-8.497030e-001	1.525952e-002	-8.814155e-001	-3.323619e+001	-1.011484e+002
684062000	-3.387965e+001	-9.181730e+001	9.640002e-003	-8.432670e-001	1.397358e-002	-8.666029e-001	-3.312657e+001	-9.789077e+001
693061500	-3.332776e+001	-9.242876e+001	1.069806e-002	-8.503411e-001	1.412902e-002	-8.920641e-001	-3.305309e+001	-9.771627e+001
702061000	-3.369553e+001	-9.269018e+001	1.039114e-002	-8.702030e-001	1.564428e-002	-8.985887e-001	-3.313229e+001	-9.973753e+001
711060500	-3.336662e+001	-9.030902e+001	1.412391e-002	-8.551562e-001	1.472548e-002	-8.977183e-001	-3.328435e+001	-9.815553e+001
720060000	-3.374636e+001	-9.293434e+001	9.679289e-003	-8.763579e-001	1.444711e-002	-9.094632e-001	-3.316885e+001	-9.818781e+001
729059500	-3.357065e+001	-9.004793e+001	9.647661e-003	-8.734391e-001	1.364668e-002	-8.977736e-001	-3.342613e+001	-9.911987e+001
738059000	-3.372172e+001	-9.196576e+001	1.044176e-002	-9.025407e-001	1.317572e-002	-9.115406e-001	-3.318418e+001	-9.734909e+001
747058500	-3.353476e+001	-9.262091e+001	1.179730e-002	-8.940123e-001	1.815167e-002	-9.074741e-001	-3.284068e+001	-9.807341e+001
756058000	-3.379949e+001	-9.102173e+001	8.550177e-003	-9.020624e-001	1.638420e-002	-9.194588e-001	-3.268185e+001	-9.735264e+001
765057500	-3.319356e+001	-9.221326e+001	1.127358e-002	-9.281393e-001	1.377188e-002	-9.084780e-001	-3.301228e+001	-9.540717e+001
774057000	-3.377673e+001	-9.045082e+001	1.315381e-002	-9.532078e-001	1.779323e-002	-9.551322e-001	-3.283601e+001	-9.849513e+001
783056500	-3.343113e+001	-8.848222e+001	8.274870e-003	-9.771813e-001	1.329732e-002	-9.378683e-001	-3.292398e+001	-9.865764e+001
792056000	-3.337089e+001	-9.035398e+001	1.251929e-002	-9.604593e-001	1.484228e-002	-9.799084e-001	-3.300675e+001	-9.866582e+001
801055500	-3.357151e+001	-9.067639e+001	9.490969e-003	-9.859404e-001	1.192046e-002	-9.701663e-001	-3.257631e+001	-9.752423e+001
810055000	-3.346903e+001	-8.763591e+001	1.072041e-002	-9.959495e-001	1.327754e-002	-9.886012e-001	-3.253406e+001	-9.904221e+001
819054500	-3.307148e+001	-8.827371e+001	9.699070e-003	-9.854137e-001	1.333193e-002	-9.985377e-001	-3.289450e+001	-9.687672e+001
828054000	-3.315653e+001	-9.015925e+001	1.264238e-002	-1.026569e+000	1.380803e-002	-1.012129e+000	-3.245268e+001	-9.626117e+001
837053500	-3.325568e+001	-8.950892e+001	9.781416e-003	-9.982578e-001	1.457679e-002	-1.000147e+000	-3.234714e+001	-9.654195e+001
846053000	-3.292639e+001	-8.819045e+001	1.025380e-002	-1.029415e+000	1.216087e-002	-1.036354e+000	-3.277832e+001	-9.682519e+001
855052500	-3.302724e+001	-8.990360e+001	8.670271e-003	-1.013687e+000	1.736356e-002	-1.021517e+000	-3.236085e+001	-9.704084e+001
864052000	-3.305107e+001	-8.762016e+001	1.002981e-002	-1.017185e+000	1.359923e-002	-1.011240e+000	-3.222293e+001	-9.546963e+001
873051500	-3.306894e+001	-8.822626e+001	9.897079e-003	-1.024653e+000	1.429230e-002	-1.036793e+000	-3.251274e+001	-9.681876e+001
882051000	-3.260661e+001	-8.795278e+001	1.061861e-002	-1.000252e+000	1.791136e-002	-1.039128e+000	-3.235725e+001	-9.708829e+001
891050500	-3.258572e+001	-8.753678e+001	1.357254e-002	-9.949694e-001	1.394273e-002	-1.029671e+000	-3.213677e+001	-9.594298e+001
900050000	-3.293238e+001	-8.880121e+001	1.191965e-002	-1.039899e+000	1.443482e-002	-1.023194e+000	-3.226091e+001	-9.576797e+001
909049500	-3.283342e+001	-8.829623e+001	1.099909e-002	-1.017412e+000	1.899113e-002	-9.992349e-001	-3.182033e+001	-9.664892e+001
918049000	-3.281859e+001	-8.740807e+001	1.086690e-002	-1.025960e+000	1.895679e-002	-1.005296e+000	-3.187711e+001	-9.703748e+001
927048500	-3.250407e+001	-8.896691e+001	1.410585e-002	-1.044466e+000	2.108120e-002	-1.017283e+000	-3.195289e+001	-9.811466e+001
936048000	-3.241712e+001	-9.194264e+001	1.833730e-002	-1.065157e+000	2.451843e-002	-9.984621e-001	-3.159843e+001	-9.859447e+001
945047500	-3.278312e+001	-9.047512e+001	1.794191e-002	-1.054917e+000	2.247974e-002	-9.945091e-001	-3.191152e+001	-9.781535e+001
954047000	-3.247629e+001	-8.916168e+001	1.717740e-002	-1.068453e+000	2.610842e-002	-1.015743e+000	-3.173468e+001	-9.903372e+001
963046500	-3.255222e+001	-8.996166e+001	1.751275e-002	-1.088579e+000	2.462711e-002	-1.034791e+000	-3.196684e+001	-1.010674e+002
972046000	-3.276545e+001	-9.239786e+001	1.475425e-002	-1.099041e+000	2.434494e-002	-1.042519e+000	-3.202487e+001	-9.907517e+001
981045500	-3.261931e+001	-8.986501e+001	1.638209e-002	-1.090455e+000	2.587977e-002	-1.077320e+000	-3.213088e+001	-9.948746e+001
990045000	-3.225563e+001	-9.116503e+001	2.063114e-002	-1.113666e+000	2.856560e-002	-1.067741e+000	-3.191171e+001	-1.016960e+002
999044500	-3.258138e+001	-8.993692e+001	1.959523e-002	-1.110143e+000	2.492203e-002	-1.072412e+000	-3.207355e+001	-9.871904e+001
1008044000	-3.260983e+001	-8.941481e+001	1.864947e-002	-1.113384e+000	2.780873e-002	-1.090512e+000	-3.223107e+001	-1.015399e+002
1017043500	-3.310335e+001	-8.847296e+001	1.759058e-002	-1.134445e+000	2.653590e-002	-1.109958e+000	-3.218525e+001	-9.966628e+001
1026043000	-3.290505e+001	-9.022247e+001	2.103906e-002	-1.146902e+000	2.711032e-002	-1.122091e+000	-3.214927e+001	-1.013708e+002
1035042500	-3.295961e+001	-8.836376e+001	2.584635e-002	-1.139476e+000	2.734035e-002	-1.124039e+000	-3.231070e+001	-1.016148e+002
1044042000	-3.315292e+001	-8.950141e+001	2.167707e-002	-1.173098e+000	2.822422e-002	-1.144442e+000	-3.238512e+001	-9.961051e+001
1053041500	-3.267285e+001	-8.848554e+001	2.206625e-002	-1.145934e+000	2.730917e-002	-1.141579e+000	-3.211406e+001	-9.854689e+001
1062041000	-3.288353e+001	-8.688577e+001	2.297686e-002	-1.188674e+000	2.688622e-002	-1.181703e+000	-3.276231e+001	-1.004041e+002
1071040500	-3.302014e+001	-8.707684e+001	2.536185e-002	-1.176994e+000	2.793661e-002	-1.172541e+000	-3.266202e+001	-9.839744e+001
1080040000	-3.339099e+001	-8.961906e+001	2.484536e-002	-1.216600e+000	3.103904e-002	-1.220065e+000	-3.244458e+001	-1.001711e+002
1089039500	-3.290072e+001	-8.658493e+001	2.431310e-002	-1.219289e+000	2.902145e-002	-1.216160e+000	-3.247279e+001	-9.866547e+001
1098039000	-3.313509e+001	-8.601712e+001	2.175979e-002	-1.228945e+000	2.716187e-002	-1.246627e+000	-3.289622e+001	-9.852773e+001
1107038500	-3.301077e+001	-8.599058e+001	2.171296e-002	-1.225324e+000	2.806218e-002	-1.231805e+000	-3.254591e+001	-1.005146e+002
1116038000	-3.373108e+001	-8.627304e+001	1.891081e-002	-1.240228e+000	2.940116e-002	-1.255110e+000	-3.266983e+001	-1.006475e+002
1125037500	-3.307553e+001	-8.505426e+001	2.311391e-002	-1.237419e+000	2.686665e-002	-1.258035e+000	-3.308274e+001	-1.010476e+002
1134037000	-3.317581e+001	-8.888941e+001	2.581235e-002	-1.250944e+000	2.681889e-002	-1.253100e+000	-3.325722e+001	-1.007179e+002
1143036500	-3.316075e+001	-8.601178e+001	2.431081e-002	-1.242701e+000	3.083166e-002	-1.269291e+000	-3.282471e+001	-1.010981e+002
1152036000	-3.385872e+001	-8.998306e+001	2.384942e-002	-1.292943e+000	2.679110e-002	-1.243662e+000	-3.291386e+001	-9.916256e+001
1161035500	-3.359468e+001	-8.628150e+001	2.430128e-002	-1.259198e+000	2.747321e-002	-1.255515e+000	-3.307538e+001	-1.019767e+002
1170035000	-3.378174e+001	-8.592247e+001	2.202171e-002	-1.274715e+000	3.006556e-002	-1.230333e+000	-3.285253e+001	-1.019528e+002
1179034500	-3.361536e+001	-8.731149e+001	2.583501e-002	-1.280897e+000	2.825084e-002	-1.250572e+000	-3.309434e+001	-1.015785e+002
1188034000	-3.372872e+001	-8.811977e+001	2.657370e-002	-1.301598e+000	2.854536e-002	-1.244499e+000	-3.299851e+001	-9.978040e+001
1197033500	-3.340224e+001	-8.354668e+001	2.536121e-002	-1.304491e+000	2.949045e-002	-1.277685e+000	-3.310146e+001	-1.031133e+002
1206033000	-3.369882e+001	-8.617328e+001	2.663723e-002	-1.306821e+000	3.432749e-002	-1.273353e+000	-3.279905e+001	-1.043774e+002
1215032500	-3.362349e+001	-8.962855e+001	2.970044e-002	-1.353041e+000	3.316325e-002	-1.294866e+000	-3.283376e+001	-1.040507e+002
1224032000	-3.399731e+001	-8.766054e+001	2.642908e-002	-1.356305e+000	3.461712e-002	-1.340874e+000	-3.311248e+001	-1.051289e+002
1233031500	-3.431566e+001	-8.378441e+001	2.287236e-002	-1.393311e+000	3.024003e-002	-1.375809e+000	-3.315277e+001	-1.053939e+002
1242031000	-3.401413e+001	-8.261157e+001	2.396883e-002	-1.407119e+000	3.012163e-002	-1.365414e+000	-3.331318e+001	-1.039264e+002
1251030500	-3.443525e+001	-8.327410e+001	2.195646e-002	-1.412634e+000	2.712650e-002	-1.399792e+000	-3.354927e+001	-1.039677e+002
1260030000	-3.444905e+001	-7.975939e+001	1.701803e-002	-1.426714e+000	2.527640e-002	-1.405097e+000	-3.338542e+001	-1.050879e+002
1269029500	-3.455389e+001	-7.808868e+001	1.235462e-002	-1.437723e+000	2.048589e-002	-1.403382e+000	-3.382955e+001	-1.022599e+002
1278029000	-3.411865e+001	-7.522150e+001	7.666204e-003	-1.432250e+000	1.805809e-002	-1.406420e+000	-3.386724e+001	-1.004453e+002
1287028500	-3.433939e+001	-7.189860e+001	1.104987e-002	-1.435760e+000	1.481255e-002	-1.394925e+000	-3.423522e+001	-9.888481e+001
1296028000	-3.386787e+001	-7.162496e+001	6.614444e-003	-1.414274e+000	1.307185e-002	-1.393920e+000	-3.388873e+001	-9.927372e+001
1305027500	-3.369836e+001	-7.008830e+001	1.044651e-002	-1.395188e+000	1.178129e-002	-1.358679e+000	-3.391132e+001	-9.458572e+001
1314027000	-3.385687e+001	-6.936006e+001	9.849489e-003	-1.381360e+000	1.259345e-002	-1.362777e+000	-3.379981e+001	-9.889082e+001
1323026500	-3.384832e+001	-7.120989e+001	8.464081e-003	-1.371563e+000	1.243484e-002	-1.365666e+000	-3.391453e+001	-9.817756e+001
1332026000	-3.401730e+001	-7.042888e+001	7.212965e-003	-1.350947e+000	1.550394e-002	-1.355505e+000	-3.382642e+001	-9.682009e+001
1341025500	-3.376733e+001	-7.046208e+001	1.182794e-002	-1.328380e+000	1.352552e-002	-1.355475e+000	-3.425754e+001	-9.765781e+001
1350025000	-3.398223e+001	-7.011950e+001	1.058694e-002	-1.307990e+000	1.817535e-002	-1.323888e+000	-3.387967e+001	-9.485267e+001
1359024500	-3.431098e+001	-7.043047e+001	9.381082e-003	-1.310379e+000	1.766727e-002	-1.336849e+000	-3.421595e+001	-9.822267e+001
