!Agilent Technologies,E5071C,MY46101151,A.11.02
!Date: Sun Sep 24 16:01:06 2017
!Data & Calibration Information:
!Freq	S11:SOLT2(ON)	S21:SOLT2(ON)	S12:SOLT2(ON)	S22:SOLT2(ON)
!PortZ  Port1:50+j0    Port2:50+j0
!Above PortZ is port z conversion or system Z0 setting when saving the data.
!When reading, reference impedance value at option line is always used.
# Hz S dB R 50
100000	4.899322e-002	-1.706822e+002	-5.954716e+001	2.427653e+001	-6.187067e+001	2.931723e+001	3.803949e-002	-1.708452e+002
9099500	1.867026e-003	1.790901e+002	-5.129706e+001	7.514626e+001	-5.154117e+001	6.601640e+001	-1.921447e-003	1.791418e+002
18099000	5.799825e-004	1.792487e+002	-4.616852e+001	7.747704e+001	-4.626461e+001	7.674745e+001	2.213131e-004	1.793458e+002
27098500	6.886946e-003	1.792432e+002	-4.293411e+001	8.088000e+001	-4.287934e+001	8.112601e+001	3.545049e-003	1.794023e+002
36098000	1.465137e-003	1.791454e+002	-4.044165e+001	8.206420e+001	-4.043309e+001	8.168140e+001	3.088316e-003	1.793403e+002
45097500	4.106490e-003	1.790483e+002	-3.855366e+001	8.312893e+001	-3.857703e+001	8.321659e+001	2.819839e-003	1.792660e+002
54097000	3.363264e-003	1.789611e+002	-3.700903e+001	8.358520e+001	-3.705781e+001	8.414900e+001	-3.120527e-003	1.791610e+002
63096500	5.644576e-003	1.788549e+002	-3.568533e+001	8.417690e+001	-3.570426e+001	8.385630e+001	1.149000e-003	1.790994e+002
72096000	2.272732e-003	1.787198e+002	-3.460348e+001	8.454509e+001	-3.454509e+001	8.443451e+001	2.361152e-006	1.790204e+002
81095500	4.679618e-003	1.785960e+002	-3.360457e+001	8.466091e+001	-3.359475e+001	8.480229e+001	-4.407124e-003	1.789751e+002
90095000	3.039529e-003	1.784664e+002	-3.269379e+001	8.498721e+001	-3.269014e+001	8.494347e+001	-3.565525e-003	1.788645e+002
99094500	-4.220592e-003	1.783203e+002	-3.189161e+001	8.504001e+001	-3.186238e+001	8.498163e+001	-1.880826e-003	1.787709e+002
108094000	-1.088696e-002	1.781477e+002	-3.117904e+001	8.507566e+001	-3.115847e+001	8.501585e+001	-1.682234e-002	1.786397e+002
117093500	-1.467897e-002	1.780706e+002	-3.049419e+001	8.508211e+001	-3.049214e+001	8.500057e+001	-1.222640e-002	1.785791e+002
126093000	-2.564358e-002	1.779334e+002	-2.986448e+001	8.506085e+001	-2.983735e+001	8.515170e+001	-9.496266e-003	1.784815e+002
135092500	-1.424827e-002	1.778128e+002	-2.926820e+001	8.518462e+001	-2.925995e+001	8.511304e+001	-1.270913e-002	1.783942e+002
144092000	-1.330728e-002	1.776964e+002	-2.871760e+001	8.500160e+001	-2.870478e+001	8.514396e+001	-1.434543e-002	1.783540e+002
153091500	-2.189919e-002	1.775551e+002	-2.823552e+001	8.514939e+001	-2.818935e+001	8.512178e+001	-1.659941e-002	1.782589e+002
162091000	-2.100152e-002	1.774421e+002	-2.771644e+001	8.514192e+001	-2.770040e+001	8.517806e+001	-1.516905e-002	1.781723e+002
171090500	-1.628897e-002	1.772827e+002	-2.727070e+001	8.509968e+001	-2.725356e+001	8.512213e+001	-1.561501e-002	1.780792e+002
180090000	-1.587141e-002	1.772093e+002	-2.683011e+001	8.516671e+001	-2.682615e+001	8.512683e+001	-1.930364e-002	1.779633e+002
189089500	-2.275858e-002	1.770703e+002	-2.642362e+001	8.502870e+001	-2.639028e+001	8.508209e+001	-2.297856e-002	1.779033e+002
198089000	-1.944639e-002	1.769956e+002	-2.603103e+001	8.514404e+001	-2.598102e+001	8.508116e+001	-1.839069e-002	1.778298e+002
207088500	-1.893815e-002	1.768548e+002	-2.563723e+001	8.496517e+001	-2.561087e+001	8.502322e+001	-1.798086e-002	1.777473e+002
216088000	-2.208650e-002	1.767624e+002	-2.527489e+001	8.495093e+001	-2.523584e+001	8.503762e+001	-1.363347e-002	1.776489e+002
225087500	-1.556642e-002	1.766367e+002	-2.491038e+001	8.496535e+001	-2.490194e+001	8.497041e+001	-2.188368e-002	1.775696e+002
234087000	-3.070247e-002	1.764972e+002	-2.460192e+001	8.484699e+001	-2.456150e+001	8.489633e+001	-2.093483e-002	1.774785e+002
243086500	-3.065421e-002	1.763631e+002	-2.427880e+001	8.483430e+001	-2.425392e+001	8.484283e+001	-2.357188e-002	1.774248e+002
252086000	-3.249355e-002	1.762414e+002	-2.396387e+001	8.472176e+001	-2.393493e+001	8.473900e+001	-2.281840e-002	1.773148e+002
261085500	-2.525445e-002	1.761134e+002	-2.365367e+001	8.468266e+001	-2.364279e+001	8.464138e+001	-2.155265e-002	1.772518e+002
270085000	-2.756174e-002	1.760164e+002	-2.336678e+001	8.474878e+001	-2.334991e+001	8.469786e+001	-2.318988e-002	1.771942e+002
279084500	-2.879616e-002	1.758519e+002	-2.309284e+001	8.461712e+001	-2.307481e+001	8.450291e+001	-2.738845e-002	1.770988e+002
288084000	-3.129632e-002	1.757499e+002	-2.281740e+001	8.455647e+001	-2.280365e+001	8.455072e+001	-2.824973e-002	1.770315e+002
297083500	-3.274622e-002	1.756361e+002	-2.254762e+001	8.448711e+001	-2.253378e+001	8.443353e+001	-2.385051e-002	1.769499e+002
306083000	-2.514487e-002	1.755239e+002	-2.229316e+001	8.447681e+001	-2.227285e+001	8.432002e+001	-2.083567e-002	1.768111e+002
315082500	-3.444395e-002	1.753578e+002	-2.205945e+001	8.429279e+001	-2.204906e+001	8.422546e+001	-2.765721e-002	1.767692e+002
324082000	-3.776612e-002	1.752477e+002	-2.183300e+001	8.422143e+001	-2.179916e+001	8.428991e+001	-2.714871e-002	1.767122e+002
333081500	-3.442142e-002	1.751478e+002	-2.159311e+001	8.420616e+001	-2.156595e+001	8.422958e+001	-2.562017e-002	1.765879e+002
342081000	-3.342454e-002	1.750220e+002	-2.136558e+001	8.413942e+001	-2.134597e+001	8.416623e+001	-3.570494e-002	1.765144e+002
351080500	-2.877844e-002	1.748947e+002	-2.114951e+001	8.402336e+001	-2.114094e+001	8.417005e+001	-3.776407e-002	1.764088e+002
360080000	-3.738523e-002	1.747995e+002	-2.094065e+001	8.405818e+001	-2.093339e+001	8.417017e+001	-3.450596e-002	1.763367e+002
369079500	-5.056552e-002	1.746808e+002	-2.074877e+001	8.424021e+001	-2.073147e+001	8.414720e+001	-3.899584e-002	1.762260e+002
378079000	-4.490689e-002	1.746116e+002	-2.053707e+001	8.434064e+001	-2.051592e+001	8.427320e+001	-4.522482e-002	1.761399e+002
387078500	-5.585240e-002	1.744425e+002	-2.032262e+001	8.434876e+001	-2.029520e+001	8.444165e+001	-4.172017e-002	1.761056e+002
396078000	-5.557483e-002	1.743525e+002	-2.008259e+001	8.433751e+001	-2.005513e+001	8.439057e+001	-4.795346e-002	1.760667e+002
405077500	-5.544788e-002	1.742252e+002	-1.986082e+001	8.411476e+001	-1.983624e+001	8.411786e+001	-5.366512e-002	1.759000e+002
414077000	-5.087272e-002	1.741472e+002	-1.965542e+001	8.392934e+001	-1.963455e+001	8.400073e+001	-4.680992e-002	1.758828e+002
423076500	-6.084592e-002	1.740358e+002	-1.948558e+001	8.376872e+001	-1.945060e+001	8.372538e+001	-4.899583e-002	1.757550e+002
432076000	-5.712589e-002	1.738854e+002	-1.930214e+001	8.365149e+001	-1.927321e+001	8.374378e+001	-5.949377e-002	1.757561e+002
441075500	-6.542230e-002	1.737944e+002	-1.913577e+001	8.351181e+001	-1.909124e+001	8.354012e+001	-5.795571e-002	1.756208e+002
450075000	-6.333091e-002	1.736153e+002	-1.895292e+001	8.337865e+001	-1.892812e+001	8.337739e+001	-6.255461e-002	1.755468e+002
459074500	-5.651462e-002	1.735381e+002	-1.877531e+001	8.325156e+001	-1.876021e+001	8.339122e+001	-5.312468e-002	1.755204e+002
468074000	-5.336498e-002	1.734159e+002	-1.860995e+001	8.315496e+001	-1.860185e+001	8.325736e+001	-6.556099e-002	1.754043e+002
477073500	-6.246021e-002	1.732728e+002	-1.846438e+001	8.305935e+001	-1.843971e+001	8.312014e+001	-5.673009e-002	1.753022e+002
486073000	-6.195952e-002	1.731755e+002	-1.828653e+001	8.295713e+001	-1.826231e+001	8.301540e+001	-5.264274e-002	1.752083e+002
495072500	-7.092054e-002	1.730288e+002	-1.813695e+001	8.281981e+001	-1.813620e+001	8.294339e+001	-6.560316e-002	1.751024e+002
504072000	-6.921416e-002	1.729490e+002	-1.798870e+001	8.281975e+001	-1.795873e+001	8.274981e+001	-6.368164e-002	1.750248e+002
513071500	-7.105609e-002	1.728246e+002	-1.783765e+001	8.261192e+001	-1.781920e+001	8.282420e+001	-6.595239e-002	1.749712e+002
522071000	-6.683023e-002	1.727133e+002	-1.767192e+001	8.253961e+001	-1.766700e+001	8.249079e+001	-6.443684e-002	1.748319e+002
531070500	-7.319712e-002	1.725386e+002	-1.754431e+001	8.242472e+001	-1.752241e+001	8.254637e+001	-7.124091e-002	1.748011e+002
540070000	-7.455369e-002	1.724524e+002	-1.738921e+001	8.233567e+001	-1.736959e+001	8.240463e+001	-6.808193e-002	1.747060e+002
549069500	-7.815257e-002	1.723163e+002	-1.724794e+001	8.216041e+001	-1.722518e+001	8.236563e+001	-7.077723e-002	1.746144e+002
558069000	-7.789239e-002	1.722238e+002	-1.710990e+001	8.219206e+001	-1.710206e+001	8.222696e+001	-6.901569e-002	1.745020e+002
567068500	-7.943636e-002	1.720893e+002	-1.695958e+001	8.206687e+001	-1.695921e+001	8.212202e+001	-7.420078e-002	1.744128e+002
576068000	-7.855713e-002	1.719952e+002	-1.682172e+001	8.199647e+001	-1.681832e+001	8.211831e+001	-8.026747e-002	1.743549e+002
585067500	-8.612781e-002	1.718746e+002	-1.670292e+001	8.186691e+001	-1.668679e+001	8.193459e+001	-7.851619e-002	1.742383e+002
594067000	-7.755959e-002	1.717798e+002	-1.657166e+001	8.178087e+001	-1.655596e+001	8.186931e+001	-7.793722e-002	1.741563e+002
603066500	-8.106916e-002	1.717027e+002	-1.645145e+001	8.173891e+001	-1.642672e+001	8.169380e+001	-8.303372e-002	1.740513e+002
612066000	-8.675607e-002	1.715150e+002	-1.632721e+001	8.161370e+001	-1.630476e+001	8.170527e+001	-8.607525e-002	1.740153e+002
621065500	-8.927021e-002	1.713853e+002	-1.619306e+001	8.149022e+001	-1.617206e+001	8.149910e+001	-8.450462e-002	1.738482e+002
630065000	-9.525248e-002	1.712546e+002	-1.606600e+001	8.137852e+001	-1.605873e+001	8.145590e+001	-8.819064e-002	1.737580e+002
639064500	-1.042926e-001	1.711709e+002	-1.595030e+001	8.136104e+001	-1.592831e+001	8.140187e+001	-9.610437e-002	1.737111e+002
648064000	-1.086183e-001	1.710402e+002	-1.583332e+001	8.128514e+001	-1.580919e+001	8.128620e+001	-9.917398e-002	1.736283e+002
657063500	-1.116951e-001	1.708918e+002	-1.571899e+001	8.116950e+001	-1.568952e+001	8.112507e+001	-1.025467e-001	1.735239e+002
666063000	-1.109076e-001	1.708067e+002	-1.560390e+001	8.107705e+001	-1.556818e+001	8.109161e+001	-1.026068e-001	1.734254e+002
675062500	-1.057842e-001	1.706856e+002	-1.547566e+001	8.098671e+001	-1.545720e+001	8.091371e+001	-1.026165e-001	1.732687e+002
684062000	-1.129398e-001	1.705555e+002	-1.537390e+001	8.087617e+001	-1.535461e+001	8.089658e+001	-1.122767e-001	1.732147e+002
693061500	-1.135307e-001	1.704500e+002	-1.525619e+001	8.082500e+001	-1.524593e+001	8.080764e+001	-1.142131e-001	1.731457e+002
702061000	-1.138289e-001	1.702977e+002	-1.514550e+001	8.065585e+001	-1.512943e+001	8.066039e+001	-1.094665e-001	1.730376e+002
711060500	-1.185127e-001	1.702157e+002	-1.504395e+001	8.063257e+001	-1.503161e+001	8.061504e+001	-1.200993e-001	1.729623e+002
720060000	-1.252120e-001	1.700517e+002	-1.494199e+001	8.047019e+001	-1.493338e+001	8.048151e+001	-1.226327e-001	1.728365e+002
729059500	-1.350048e-001	1.699612e+002	-1.485598e+001	8.042199e+001	-1.482115e+001	8.035147e+001	-1.236960e-001	1.727202e+002
738059000	-1.355909e-001	1.698453e+002	-1.474027e+001	8.028197e+001	-1.473250e+001	8.030086e+001	-1.256745e-001	1.726080e+002
747058500	-1.388859e-001	1.697169e+002	-1.463609e+001	8.030154e+001	-1.462383e+001	8.031664e+001	-1.323705e-001	1.725624e+002
756058000	-1.498567e-001	1.695677e+002	-1.455147e+001	8.018237e+001	-1.452466e+001	8.033773e+001	-1.312426e-001	1.724796e+002
765057500	-1.442272e-001	1.694841e+002	-1.442675e+001	8.018976e+001	-1.443032e+001	8.021545e+001	-1.468934e-001	1.723884e+002
774057000	-1.445519e-001	1.693486e+002	-1.432946e+001	7.996201e+001	-1.430908e+001	8.008468e+001	-1.424979e-001	1.723160e+002
783056500	-1.471297e-001	1.692267e+002	-1.424075e+001	7.992263e+001	-1.422144e+001	8.002544e+001	-1.468848e-001	1.721921e+002
792056000	-1.533657e-001	1.691643e+002	-1.413353e+001	7.992984e+001	-1.411722e+001	7.985399e+001	-1.483285e-001	1.720826e+002
801055500	-1.531612e-001	1.690117e+002	-1.403501e+001	7.979311e+001	-1.402745e+001	7.986794e+001	-1.613102e-001	1.720346e+002
810055000	-1.604028e-001	1.689195e+002	-1.395452e+001	7.974923e+001	-1.392015e+001	7.973262e+001	-1.497066e-001	1.719278e+002
819054500	-1.646615e-001	1.688025e+002	-1.385018e+001	7.970853e+001	-1.384147e+001	7.967719e+001	-1.632882e-001	1.718324e+002
828054000	-1.589906e-001	1.686622e+002	-1.373652e+001	7.954194e+001	-1.373519e+001	7.968005e+001	-1.595663e-001	1.717972e+002
837053500	-1.730665e-001	1.685782e+002	-1.366104e+001	7.952184e+001	-1.364439e+001	7.959204e+001	-1.753452e-001	1.716825e+002
846053000	-1.707189e-001	1.684256e+002	-1.356733e+001	7.944824e+001	-1.356003e+001	7.941807e+001	-1.760866e-001	1.715472e+002
855052500	-1.718567e-001	1.683445e+002	-1.346915e+001	7.940656e+001	-1.345370e+001	7.948254e+001	-1.743586e-001	1.715184e+002
864052000	-1.814076e-001	1.682438e+002	-1.338209e+001	7.932799e+001	-1.336213e+001	7.942175e+001	-1.803830e-001	1.714293e+002
873051500	-1.809854e-001	1.680799e+002	-1.328138e+001	7.920309e+001	-1.327514e+001	7.926299e+001	-1.937510e-001	1.713213e+002
882051000	-1.883453e-001	1.680339e+002	-1.319210e+001	7.921631e+001	-1.317302e+001	7.917752e+001	-1.931581e-001	1.712701e+002
891050500	-1.957515e-001	1.679767e+002	-1.309507e+001	7.920203e+001	-1.308682e+001	7.912657e+001	-1.940375e-001	1.711534e+002
900050000	-1.941176e-001	1.677757e+002	-1.300378e+001	7.894265e+001	-1.300599e+001	7.904352e+001	-2.033957e-001	1.711011e+002
909049500	-1.963311e-001	1.676974e+002	-1.291937e+001	7.889622e+001	-1.289819e+001	7.900194e+001	-2.054956e-001	1.710327e+002
918049000	-2.083309e-001	1.676003e+002	-1.283472e+001	7.879156e+001	-1.281229e+001	7.885417e+001	-2.037008e-001	1.709289e+002
927048500	-2.110409e-001	1.674961e+002	-1.272821e+001	7.867125e+001	-1.271136e+001	7.868491e+001	-2.039593e-001	1.708163e+002
936048000	-2.056650e-001	1.673337e+002	-1.263672e+001	7.843854e+001	-1.261920e+001	7.868898e+001	-2.048435e-001	1.707646e+002
945047500	-2.115039e-001	1.672514e+002	-1.255827e+001	7.835058e+001	-1.255055e+001	7.853558e+001	-2.155312e-001	1.706979e+002
954047000	-2.194492e-001	1.671745e+002	-1.248164e+001	7.831465e+001	-1.245506e+001	7.846640e+001	-2.177980e-001	1.705847e+002
963046500	-2.222979e-001	1.670115e+002	-1.240154e+001	7.809030e+001	-1.238392e+001	7.817688e+001	-2.220282e-001	1.704221e+002
972046000	-2.268083e-001	1.668693e+002	-1.232213e+001	7.795090e+001	-1.231454e+001	7.811713e+001	-2.252346e-001	1.703052e+002
981045500	-2.302185e-001	1.667792e+002	-1.225714e+001	7.790205e+001	-1.223177e+001	7.794586e+001	-2.253721e-001	1.702012e+002
990045000	-2.354684e-001	1.666615e+002	-1.216172e+001	7.786081e+001	-1.213267e+001	7.785347e+001	-2.208767e-001	1.700957e+002
999044500	-2.347584e-001	1.665343e+002	-1.209123e+001	7.765094e+001	-1.208384e+001	7.774980e+001	-2.310397e-001	1.699929e+002
1008044000	-2.489338e-001	1.663825e+002	-1.202469e+001	7.755099e+001	-1.199303e+001	7.759196e+001	-2.349746e-001	1.698967e+002
1017043500	-2.511120e-001	1.662540e+002	-1.195752e+001	7.737267e+001	-1.192736e+001	7.752661e+001	-2.423712e-001	1.697902e+002
1026043000	-2.511744e-001	1.661038e+002	-1.186645e+001	7.729462e+001	-1.184758e+001	7.739289e+001	-2.420703e-001	1.696955e+002
1035042500	-2.544490e-001	1.660360e+002	-1.178849e+001	7.725321e+001	-1.177155e+001	7.726728e+001	-2.516035e-001	1.695561e+002
1044042000	-2.612932e-001	1.658512e+002	-1.172509e+001	7.703690e+001	-1.170903e+001	7.722016e+001	-2.547670e-001	1.694917e+002
1053041500	-2.653128e-001	1.657715e+002	-1.164646e+001	7.712000e+001	-1.163355e+001	7.717973e+001	-2.569995e-001	1.693576e+002
1062041000	-2.656124e-001	1.656607e+002	-1.156879e+001	7.696654e+001	-1.156145e+001	7.696052e+001	-2.679310e-001	1.692412e+002
1071040500	-2.792348e-001	1.655646e+002	-1.150162e+001	7.689475e+001	-1.149594e+001	7.692259e+001	-2.733110e-001	1.691646e+002
1080040000	-2.748166e-001	1.653635e+002	-1.142996e+001	7.665380e+001	-1.140593e+001	7.682914e+001	-2.683717e-001	1.690828e+002
1089039500	-2.844105e-001	1.653671e+002	-1.135302e+001	7.675516e+001	-1.134575e+001	7.674791e+001	-2.777569e-001	1.689352e+002
1098039000	-2.952887e-001	1.651668e+002	-1.128835e+001	7.659957e+001	-1.127877e+001	7.660307e+001	-2.877713e-001	1.688785e+002
1107038500	-2.952702e-001	1.650918e+002	-1.121834e+001	7.648851e+001	-1.118928e+001	7.651637e+001	-2.839248e-001	1.687759e+002
1116038000	-2.978487e-001	1.649627e+002	-1.115389e+001	7.632384e+001	-1.113103e+001	7.639397e+001	-2.990792e-001	1.686415e+002
1125037500	-3.049742e-001	1.648426e+002	-1.107714e+001	7.630551e+001	-1.106223e+001	7.621153e+001	-2.996532e-001	1.685281e+002
1134037000	-3.046353e-001	1.647342e+002	-1.099682e+001	7.614749e+001	-1.100289e+001	7.614605e+001	-3.015521e-001	1.684659e+002
1143036500	-3.078370e-001	1.646162e+002	-1.093786e+001	7.610915e+001	-1.092437e+001	7.611049e+001	-3.089070e-001	1.683773e+002
1152036000	-3.091089e-001	1.645046e+002	-1.085856e+001	7.588485e+001	-1.085787e+001	7.605938e+001	-3.179393e-001	1.682877e+002
1161035500	-3.200418e-001	1.644175e+002	-1.080356e+001	7.589526e+001	-1.079245e+001	7.591733e+001	-3.222442e-001	1.681835e+002
1170035000	-3.308130e-001	1.643202e+002	-1.074220e+001	7.571412e+001	-1.071382e+001	7.586248e+001	-3.295241e-001	1.680830e+002
1179034500	-3.307873e-001	1.642128e+002	-1.066547e+001	7.562697e+001	-1.066136e+001	7.572917e+001	-3.389779e-001	1.679991e+002
1188034000	-3.342610e-001	1.640827e+002	-1.059259e+001	7.550845e+001	-1.059988e+001	7.565458e+001	-3.477320e-001	1.678705e+002
1197033500	-3.407496e-001	1.639484e+002	-1.054262e+001	7.546743e+001	-1.053147e+001	7.548981e+001	-3.481946e-001	1.677402e+002
1206033000	-3.458011e-001	1.638299e+002	-1.048153e+001	7.530035e+001	-1.045643e+001	7.540284e+001	-3.448250e-001	1.676892e+002
1215032500	-3.451077e-001	1.636654e+002	-1.040594e+001	7.512879e+001	-1.039964e+001	7.525153e+001	-3.587976e-001	1.675260e+002
1224032000	-3.508079e-001	1.635259e+002	-1.035798e+001	7.504876e+001	-1.034197e+001	7.512409e+001	-3.602188e-001	1.674055e+002
1233031500	-3.695945e-001	1.634193e+002	-1.031766e+001	7.495198e+001	-1.027941e+001	7.502520e+001	-3.673760e-001	1.672636e+002
1242031000	-3.652780e-001	1.632677e+002	-1.024854e+001	7.488492e+001	-1.022386e+001	7.503307e+001	-3.805733e-001	1.671917e+002
1251030500	-3.794094e-001	1.631290e+002	-1.018622e+001	7.484734e+001	-1.017176e+001	7.494847e+001	-3.927894e-001	1.670575e+002
1260030000	-3.950243e-001	1.629831e+002	-1.013183e+001	7.479462e+001	-1.009825e+001	7.491037e+001	-4.005329e-001	1.669725e+002
1269029500	-4.046591e-001	1.628282e+002	-1.006641e+001	7.472747e+001	-1.004276e+001	7.479329e+001	-4.117872e-001	1.668700e+002
1278029000	-4.159470e-001	1.627162e+002	-1.001178e+001	7.470531e+001	-9.984411e+000	7.475667e+001	-4.214468e-001	1.667699e+002
1287028500	-4.154697e-001	1.626257e+002	-9.935769e+000	7.460253e+001	-9.920822e+000	7.467348e+001	-4.297698e-001	1.666541e+002
1296028000	-4.264482e-001	1.625083e+002	-9.869500e+000	7.453516e+001	-9.845840e+000	7.460698e+001	-4.343587e-001	1.665889e+002
1305027500	-4.377746e-001	1.624388e+002	-9.791358e+000	7.448548e+001	-9.790274e+000	7.458311e+001	-4.438211e-001	1.664928e+002
1314027000	-4.409266e-001	1.622890e+002	-9.728254e+000	7.432814e+001	-9.712624e+000	7.437195e+001	-4.506998e-001	1.664145e+002
1323026500	-4.522869e-001	1.622036e+002	-9.656488e+000	7.423105e+001	-9.646791e+000	7.426100e+001	-4.566100e-001	1.663123e+002
1332026000	-4.518186e-001	1.620414e+002	-9.593601e+000	7.406417e+001	-9.577799e+000	7.414597e+001	-4.581352e-001	1.662213e+002
1341025500	-4.520264e-001	1.619389e+002	-9.525730e+000	7.394917e+001	-9.521925e+000	7.390378e+001	-4.658547e-001	1.660767e+002
1350025000	-4.717510e-001	1.618800e+002	-9.479278e+000	7.382569e+001	-9.464750e+000	7.389091e+001	-4.707980e-001	1.660294e+002
1359024500	-4.702583e-001	1.616673e+002	-9.421761e+000	7.365032e+001	-9.409230e+000	7.368273e+001	-4.772772e-001	1.659316e+002
1368024000	-4.718017e-001	1.615666e+002	-9.350535e+000	7.346827e+001	-9.343860e+000	7.348847e+001	-4.803658e-001	1.658023e+002
1377023500	-4.759134e-001	1.614617e+002	-9.279650e+000	7.340482e+001	-9.275053e+000	7.332143e+001	-4.844521e-001	1.656247e+002
1386023000	-4.827354e-001	1.612803e+002	-9.229219e+000	7.324139e+001	-9.236965e+000	7.330701e+001	-4.968635e-001	1.655996e+002
