!Agilent Technologies,E5071C,MY46101273,A.11.02
!Date: Fri Nov 03 16:34:24 2017
!Data & Calibration Information:
!Freq	S11:SOLT2(ON)	S21:SOLT2(ON)	S12:SOLT2(ON)	S22:SOLT2(ON)
!PortZ  Port1:50+j0    Port2:50+j0
!Above PortZ is port z conversion or system Z0 setting when saving the data.
!When reading, reference impedance value at option line is always used.
# Hz S dB R 50
100000000	-9.496026e-002	1.700174e+002	-7.733848e+001	-6.331041e+001	-7.004049e+001	-1.143300e+002	-9.432875e-002	1.704046e+002
104500000	-9.987423e-002	1.695523e+002	-5.592567e+001	-1.712713e+002	-6.017460e+001	-1.568720e+002	-1.035599e-001	1.701111e+002
109000000	-8.608150e-002	1.691781e+002	-7.116203e+001	-5.425188e+001	-7.213794e+001	-7.996952e+001	-8.328843e-002	1.696891e+002
113500000	-8.840583e-002	1.687579e+002	-7.355455e+001	1.412351e+002	-7.174245e+001	-2.356801e+001	-8.836941e-002	1.694614e+002
118000000	-8.984564e-002	1.683203e+002	-6.460702e+001	1.243594e+002	-7.070697e+001	1.549104e+002	-9.359953e-002	1.689112e+002
122500000	-1.031777e-001	1.679569e+002	-6.659306e+001	1.123143e+002	-6.972307e+001	6.220107e+001	-9.104464e-002	1.685849e+002
127000000	-1.017441e-001	1.674367e+002	-7.727230e+001	1.580353e+002	-7.276121e+001	8.501380e+000	-9.130352e-002	1.681962e+002
131500000	-9.343122e-002	1.670067e+002	-7.928590e+001	9.106238e+001	-7.344233e+001	1.187585e+002	-8.685818e-002	1.677172e+002
136000000	-9.936124e-002	1.664968e+002	-7.692702e+001	-1.472612e+002	-7.545017e+001	-1.134689e+002	-8.746281e-002	1.673254e+002
140500000	-1.019911e-001	1.660635e+002	-8.078280e+001	5.139341e-002	-8.003956e+001	-1.670580e+002	-8.796193e-002	1.668846e+002
145000000	-1.007930e-001	1.656816e+002	-7.994526e+001	4.311673e+001	-7.176773e+001	-1.798138e+002	-8.684194e-002	1.664477e+002
149500000	-1.071054e-001	1.651999e+002	-6.973007e+001	-6.383853e+001	-7.169075e+001	4.550323e+001	-9.117558e-002	1.661141e+002
154000000	-1.039928e-001	1.647618e+002	-6.473725e+001	-8.110972e+001	-1.106194e+002	5.555828e+001	-9.783366e-002	1.657170e+002
158500000	-1.083373e-001	1.643328e+002	-8.662124e+001	1.156613e+002	-7.185900e+001	1.561343e+001	-9.527236e-002	1.652965e+002
163000000	-1.160451e-001	1.638643e+002	-7.403464e+001	-2.430982e+001	-8.431679e+001	-1.231845e+002	-9.555011e-002	1.648271e+002
167500000	-1.097258e-001	1.634070e+002	-7.762817e+001	7.885360e+001	-6.700902e+001	-1.465955e+002	-1.107253e-001	1.644164e+002
172000000	-1.153994e-001	1.629658e+002	-5.950086e+001	9.129205e+001	-6.302937e+001	9.305119e+001	-9.503506e-002	1.642318e+002
176500000	-1.229112e-001	1.624574e+002	-5.464100e+001	1.737604e+002	-5.591549e+001	8.347909e+000	-5.815229e-002	1.637976e+002
181000000	-1.207622e-001	1.620788e+002	-5.551433e+001	2.547545e+000	-6.054210e+001	-5.015648e+001	-7.584268e-002	1.631253e+002
185500000	-1.243235e-001	1.616066e+002	-8.211630e+001	8.519297e+001	-8.163244e+001	-6.716408e+001	-9.381695e-002	1.627304e+002
190000000	-1.321450e-001	1.611154e+002	-7.462819e+001	5.691357e+000	-6.962734e+001	-1.287913e+002	-9.399676e-002	1.622818e+002
194500000	-1.277485e-001	1.606692e+002	-6.754354e+001	-1.318459e+002	-6.732910e+001	1.252282e+002	-9.999489e-002	1.619425e+002
199000000	-1.356205e-001	1.602326e+002	-6.426544e+001	2.984145e+001	-7.076987e+001	1.266483e+002	-1.030016e-001	1.614768e+002
203500000	-1.338635e-001	1.597366e+002	-6.631558e+001	1.160978e+002	-7.845604e+001	9.722087e+001	-1.053623e-001	1.610637e+002
208000000	-1.424255e-001	1.592959e+002	-6.271296e+001	3.151287e+001	-5.990031e+001	1.485927e+002	-1.060503e-001	1.606561e+002
212500000	-1.399629e-001	1.587804e+002	-6.803065e+001	6.727422e+001	-6.597545e+001	1.358084e+002	-1.039674e-001	1.602655e+002
217000000	-1.471671e-001	1.583391e+002	-6.923929e+001	-1.541341e+002	-6.871913e+001	-2.549222e+000	-1.052869e-001	1.598274e+002
221500000	-1.450530e-001	1.578977e+002	-7.614909e+001	4.367483e+001	-7.085386e+001	8.454562e+001	-1.144698e-001	1.593461e+002
226000000	-1.430791e-001	1.574264e+002	-8.282913e+001	-1.593039e+002	-6.588710e+001	-5.649316e+001	-1.048792e-001	1.589668e+002
230500000	-1.596475e-001	1.569198e+002	-7.104874e+001	-1.252037e+002	-6.694326e+001	-5.137857e+001	-1.092646e-001	1.584847e+002
235000000	-1.686653e-001	1.563722e+002	-6.683003e+001	-1.984415e+001	-7.808415e+001	-1.295190e+002	-1.187165e-001	1.580271e+002
239500000	-1.557821e-001	1.560234e+002	-7.751989e+001	8.763035e+000	-7.573080e+001	1.970716e+001	-1.157898e-001	1.576566e+002
244000000	-1.529906e-001	1.555487e+002	-7.403562e+001	-1.415217e+002	-6.479488e+001	1.351918e+002	-1.233693e-001	1.571681e+002
248500000	-1.545528e-001	1.550557e+002	-6.956320e+001	-8.657930e+001	-6.235169e+001	3.328468e+001	-1.161502e-001	1.567131e+002
253000000	-1.494360e-001	1.545157e+002	-7.879028e+001	1.093435e+002	-6.760893e+001	-8.583694e+001	-1.147158e-001	1.562807e+002
257500000	-1.671156e-001	1.540682e+002	-6.543978e+001	1.420554e+002	-6.692154e+001	1.799248e+002	-1.201888e-001	1.558097e+002
262000000	-1.571847e-001	1.537188e+002	-6.381028e+001	1.315630e+001	-5.948909e+001	5.575066e+001	-1.275660e-001	1.553599e+002
266500000	-1.485554e-001	1.531081e+002	-6.482045e+001	-1.645376e+002	-5.428774e+001	-8.902279e+001	-1.224359e-001	1.549445e+002
271000000	-1.680238e-001	1.526971e+002	-7.064392e+001	-2.349745e+001	-6.797825e+001	-1.793356e+001	-1.213208e-001	1.544954e+002
275500000	-1.656139e-001	1.521411e+002	-6.725560e+001	-4.295450e+001	-9.484399e+001	-1.335509e+002	-1.155878e-001	1.540166e+002
280000000	-1.588215e-001	1.517088e+002	-7.303171e+001	-8.840853e+001	-7.690618e+001	-1.258607e+002	-1.222830e-001	1.535017e+002
284500000	-1.456238e-001	1.512352e+002	-6.687032e+001	-1.849932e+001	-5.747876e+001	-1.622589e+002	-1.299409e-001	1.531280e+002
289000000	-1.608257e-001	1.507972e+002	-7.076200e+001	-2.083253e+001	-6.845601e+001	-1.541450e+002	-1.165339e-001	1.526716e+002
293500000	-1.570778e-001	1.502628e+002	-6.586545e+001	-7.815213e+001	-7.656151e+001	-5.519461e+001	-1.172806e-001	1.522214e+002
298000000	-1.440256e-001	1.497317e+002	-5.917576e+001	-1.099898e+002	-7.707984e+001	-6.980730e+001	-1.215969e-001	1.517234e+002
302500000	-1.487322e-001	1.492463e+002	-5.971964e+001	-7.413458e+001	-6.547374e+001	7.589973e+001	-1.115513e-001	1.512981e+002
307000000	-1.730466e-001	1.486140e+002	-5.614651e+001	-1.123209e+002	-5.455018e+001	-1.207628e+002	-1.272341e-001	1.508475e+002
311500000	-1.634221e-001	1.482917e+002	-5.973320e+001	-7.151042e+001	-6.563846e+001	1.422818e+002	-1.260191e-001	1.503122e+002
316000000	-1.724122e-001	1.478110e+002	-6.467768e+001	-7.735398e+001	-6.743423e+001	-1.112402e+002	-1.260631e-001	1.499878e+002
320500000	-1.762552e-001	1.472771e+002	-6.171537e+001	-1.080768e+002	-6.550670e+001	1.799442e+002	-1.355757e-001	1.494535e+002
325000000	-1.850515e-001	1.467690e+002	-6.211408e+001	-1.180738e+002	-7.731657e+001	1.239583e+002	-1.366277e-001	1.490023e+002
329500000	-1.787271e-001	1.462656e+002	-5.865572e+001	-8.548002e+001	-6.790412e+001	-4.469129e+001	-1.324803e-001	1.484919e+002
334000000	-1.805845e-001	1.457457e+002	-5.859039e+001	-9.335545e+001	-5.834263e+001	-4.725670e+001	-1.237082e-001	1.479863e+002
338500000	-1.802646e-001	1.452656e+002	-5.321920e+001	-8.492894e+001	-5.430025e+001	1.013817e+002	-1.423113e-001	1.475256e+002
343000000	-1.828723e-001	1.447134e+002	-5.577851e+001	-9.291457e+001	-6.740690e+001	-1.364719e+002	-1.313876e-001	1.470338e+002
347500000	-1.898379e-001	1.442393e+002	-5.871565e+001	-1.431284e+002	-7.032169e+001	1.208202e+002	-1.390358e-001	1.465209e+002
352000000	-1.898231e-001	1.436520e+002	-5.158923e+001	-1.535165e+002	-6.684573e+001	5.166669e+001	-1.450267e-001	1.461041e+002
356500000	-2.031173e-001	1.432092e+002	-5.736448e+001	-1.257771e+002	-6.861966e+001	-3.693103e+001	-1.458402e-001	1.456679e+002
361000000	-1.941701e-001	1.426457e+002	-5.591325e+001	-7.709742e+001	-7.921615e+001	1.423116e+002	-1.417365e-001	1.451537e+002
365500000	-2.015263e-001	1.420693e+002	-5.362911e+001	-8.602699e+001	-5.656689e+001	-8.892756e+001	-1.331676e-001	1.445820e+002
370000000	-1.919126e-001	1.415459e+002	-5.036047e+001	-9.365164e+001	-6.617163e+001	-6.460396e+001	-1.346650e-001	1.440706e+002
374500000	-1.937935e-001	1.409678e+002	-5.030151e+001	-9.278475e+001	-8.202280e+001	-1.289771e+002	-1.373947e-001	1.436481e+002
379000000	-2.005101e-001	1.404164e+002	-4.941672e+001	-9.303263e+001	-6.425780e+001	-1.766302e+002	-1.615521e-001	1.430674e+002
383500000	-2.094593e-001	1.397914e+002	-4.812070e+001	-1.003616e+002	-6.890216e+001	-1.564959e+002	-1.622564e-001	1.425812e+002
388000000	-2.115756e-001	1.391980e+002	-4.745292e+001	-1.092231e+002	-5.904405e+001	-1.100773e+002	-1.757607e-001	1.420370e+002
392500000	-2.082006e-001	1.385415e+002	-4.568639e+001	-1.033057e+002	-7.819227e+001	8.763375e+001	-1.812201e-001	1.414971e+002
397000000	-2.137353e-001	1.380370e+002	-4.585733e+001	-1.018856e+002	-6.237829e+001	1.248263e+002	-1.751586e-001	1.410219e+002
401500000	-2.162589e-001	1.374265e+002	-4.427184e+001	-1.035080e+002	-6.285321e+001	2.297266e+000	-1.852003e-001	1.404551e+002
406000000	-2.217941e-001	1.368569e+002	-4.266279e+001	-1.133782e+002	-6.441227e+001	1.576608e+002	-1.801938e-001	1.398892e+002
410500000	-2.127213e-001	1.362178e+002	-4.251912e+001	-1.083724e+002	-6.240108e+001	1.593817e+002	-1.780892e-001	1.394218e+002
415000000	-2.091783e-001	1.353900e+002	-3.875988e+001	-1.144773e+002	-5.002889e+001	-1.612896e+000	-1.612631e-001	1.389303e+002
419500000	-2.328086e-001	1.348787e+002	-3.966150e+001	-1.105945e+002	-6.101443e+001	-1.326872e+002	-1.917204e-001	1.383288e+002
424000000	-2.477771e-001	1.341965e+002	-3.906327e+001	-1.117627e+002	-5.315579e+001	-1.372967e+002	-2.093457e-001	1.375817e+002
428500000	-2.569371e-001	1.336851e+002	-3.778283e+001	-1.184961e+002	-5.914148e+001	1.416376e+002	-2.130029e-001	1.368704e+002
433000000	-2.763316e-001	1.327967e+002	-3.633963e+001	-1.097796e+002	-5.662556e+001	-1.513681e+002	-2.233916e-001	1.364645e+002
437500000	-2.589857e-001	1.320147e+002	-3.420836e+001	-1.086896e+002	-6.190219e+001	-1.410103e+002	-2.302300e-001	1.357184e+002
442000000	-2.583650e-001	1.311460e+002	-3.344572e+001	-1.074884e+002	-7.774330e+001	1.020626e+002	-2.455310e-001	1.349688e+002
446500000	-1.807454e-001	1.307436e+002	-3.202802e+001	-1.241063e+002	-4.358565e+001	1.319109e+002	-2.039553e-001	1.344337e+002
451000000	-2.760902e-001	1.298982e+002	-3.025828e+001	-1.228536e+002	-5.103706e+001	-1.780750e+002	-2.818374e-001	1.333575e+002
455500000	-2.841854e-001	1.290703e+002	-2.963366e+001	-1.262975e+002	-4.925792e+001	1.666123e+002	-2.616195e-001	1.327857e+002
460000000	-2.896697e-001	1.282876e+002	-2.982690e+001	-1.333641e+002	-5.284787e+001	1.607941e+002	-3.235150e-001	1.320237e+002
464500000	-3.027300e-001	1.274712e+002	-2.771230e+001	-1.362811e+002	-5.201748e+001	1.605986e+002	-3.473840e-001	1.315490e+002
469000000	-3.124432e-001	1.266882e+002	-2.680046e+001	-1.415649e+002	-5.385579e+001	1.621347e+002	-3.655582e-001	1.308074e+002
473500000	-3.227509e-001	1.256435e+002	-2.608739e+001	-1.443014e+002	-5.042245e+001	1.648056e+002	-3.664234e-001	1.299866e+002
478000000	-3.414177e-001	1.247960e+002	-2.595516e+001	-1.472025e+002	-4.703685e+001	1.628960e+002	-4.177650e-001	1.289643e+002
482500000	-3.426055e-001	1.238544e+002	-2.477134e+001	-1.466360e+002	-4.626730e+001	1.533243e+002	-4.635559e-001	1.282500e+002
487000000	-3.574705e-001	1.227785e+002	-2.361278e+001	-1.509798e+002	-4.481049e+001	1.564613e+002	-4.943151e-001	1.274592e+002
491500000	-3.826612e-001	1.217936e+002	-2.266321e+001	-1.529464e+002	-4.313757e+001	1.558282e+002	-5.446935e-001	1.264471e+002
496000000	-4.117265e-001	1.207013e+002	-2.102023e+001	-1.551088e+002	-4.205023e+001	1.489743e+002	-6.203018e-001	1.253622e+002
500500000	-4.526950e-001	1.194804e+002	-1.976157e+001	-1.581961e+002	-3.982572e+001	1.455425e+002	-7.316538e-001	1.243115e+002
505000000	-4.758639e-001	1.180160e+002	-1.784559e+001	-1.618854e+002	-3.854794e+001	1.414800e+002	-8.251537e-001	1.235173e+002
509500000	-5.262099e-001	1.164524e+002	-1.613281e+001	-1.686546e+002	-3.651829e+001	1.374847e+002	-9.673566e-001	1.223707e+002
514000000	-5.839950e-001	1.146788e+002	-1.415851e+001	-1.758416e+002	-3.418476e+001	1.344105e+002	-1.168323e+000	1.206395e+002
518500000	-6.004787e-001	1.125277e+002	-1.159826e+001	-1.698247e+002	-3.356082e+001	1.304075e+002	-1.314961e+000	1.188878e+002
523000000	-9.414049e-001	1.096892e+002	-8.011862e+000	1.674613e+002	-3.106657e+001	1.099350e+002	-1.852947e+000	1.220905e+002
527500000	-1.242939e+000	1.077573e+002	-6.825191e+000	1.487343e+002	-2.870203e+001	1.220231e+002	-1.936439e+000	1.155476e+002
532000000	-1.444862e+000	1.068499e+002	-7.386496e+000	1.369422e+002	-2.900504e+001	9.406041e+001	-2.509229e+000	1.211565e+002
536500000	-2.155744e+000	1.052085e+002	-4.194090e+000	1.210974e+002	-2.738271e+001	8.061681e+001	-2.949046e+000	1.240602e+002
541000000	-2.810882e+000	1.051613e+002	-2.680859e+000	1.083288e+002	-2.567145e+001	6.858103e+001	-3.142740e+000	1.269557e+002
545500000	-3.512136e+000	1.066110e+002	-1.830663e+000	9.445699e+001	-2.379306e+001	5.437657e+001	-3.188998e+000	1.310729e+002
550000000	-3.508623e+000	1.091454e+002	-2.323267e+000	7.751867e+001	-2.315172e+001	4.020451e+001	-2.825381e+000	1.336065e+002
554500000	-3.645413e+000	1.105179e+002	-2.519217e+000	6.488506e+001	-2.291488e+001	2.740147e+001	-2.452146e+000	1.347797e+002
559000000	-3.722914e+000	1.108903e+002	-2.993189e+000	5.374378e+001	-2.243336e+001	1.401154e+001	-1.986990e+000	1.350841e+002
563500000	-3.903355e+000	1.125068e+002	-3.003565e+000	4.381755e+001	-2.265255e+001	1.361051e+000	-1.586951e+000	1.342692e+002
568000000	-3.970799e+000	1.111618e+002	-3.337934e+000	3.467744e+001	-2.293612e+001	-8.135217e+000	-1.325504e+000	1.328640e+002
572500000	-4.221315e+000	1.099337e+002	-3.603524e+000	2.672050e+001	-2.330445e+001	-1.409199e+001	-1.191333e+000	1.312998e+002
577000000	-4.686149e+000	1.082720e+002	-4.189147e+000	1.839260e+001	-2.297314e+001	-2.878471e+001	-1.097753e+000	1.299893e+002
581500000	-5.236651e+000	1.107763e+002	-4.205208e+000	1.075881e+001	-2.303803e+001	-3.818849e+001	-1.053569e+000	1.288222e+002
586000000	-6.027989e+000	1.115805e+002	-4.555771e+000	3.535080e+000	-2.311692e+001	-4.769462e+001	-1.048498e+000	1.276781e+002
590500000	-6.468060e+000	1.175146e+002	-4.570017e+000	-3.490612e+000	-2.323773e+001	-5.719441e+001	-1.062365e+000	1.268482e+002
595000000	-6.714506e+000	1.242239e+002	-4.976843e+000	-1.083435e+001	-2.357653e+001	-6.651880e+001	-1.063458e+000	1.261494e+002
599500000	-6.570603e+000	1.310975e+002	-5.358734e+000	-1.828051e+001	-2.394065e+001	-7.512349e+001	-1.044002e+000	1.253522e+002
604000000	-5.843333e+000	1.365730e+002	-5.762505e+000	-2.471949e+001	-2.448596e+001	-8.338239e+001	-1.120206e+000	1.249749e+002
608500000	-5.087737e+000	1.390975e+002	-6.154752e+000	-3.164295e+001	-2.519821e+001	-9.039387e+001	-1.035555e+000	1.242825e+002
613000000	-4.350548e+000	1.393848e+002	-6.528018e+000	-3.733692e+001	-2.552499e+001	-9.633232e+001	-1.093166e+000	1.236568e+002
617500000	-3.750829e+000	1.395647e+002	-7.039798e+000	-4.310458e+001	-2.604908e+001	-1.031845e+002	-1.100008e+000	1.232572e+002
622000000	-3.268528e+000	1.385684e+002	-7.513748e+000	-4.806639e+001	-2.673279e+001	-1.074965e+002	-1.068326e+000	1.229137e+002
626500000	-2.923001e+000	1.377224e+002	-8.118696e+000	-5.335903e+001	-2.714778e+001	-1.125803e+002	-1.072444e+000	1.224055e+002
631000000	-2.621533e+000	1.366007e+002	-8.422194e+000	-5.819523e+001	-2.770701e+001	-1.161815e+002	-1.059668e+000	1.219251e+002
635500000	-2.364107e+000	1.347729e+002	-8.635206e+000	-6.229493e+001	-2.794014e+001	-1.206115e+002	-1.046699e+000	1.214358e+002
640000000	-2.171956e+000	1.334925e+002	-9.026665e+000	-6.651081e+001	-2.846335e+001	-1.248808e+002	-1.044167e+000	1.210352e+002
644500000	-1.992223e+000	1.323796e+002	-9.466248e+000	-7.041874e+001	-2.878448e+001	-1.273325e+002	-1.005371e+000	1.204621e+002
649000000	-1.830256e+000	1.311453e+002	-9.919893e+000	-7.333732e+001	-2.878783e+001	-1.305594e+002	-9.945380e-001	1.199062e+002
653500000	-1.720057e+000	1.300129e+002	-1.020482e+001	-7.735087e+001	-2.932030e+001	-1.341356e+002	-9.740168e-001	1.194930e+002
658000000	-1.590497e+000	1.287430e+002	-1.053735e+001	-8.061187e+001	-2.943153e+001	-1.362508e+002	-9.541371e-001	1.188296e+002
662500000	-1.489052e+000	1.276118e+002	-1.089302e+001	-8.347958e+001	-3.003110e+001	-1.376458e+002	-9.438810e-001	1.184380e+002
667000000	-1.415845e+000	1.261781e+002	-1.132894e+001	-8.625202e+001	-3.011777e+001	-1.410694e+002	-9.146604e-001	1.177694e+002
671500000	-1.345903e+000	1.256472e+002	-1.164029e+001	-8.888661e+001	-3.017893e+001	-1.487023e+002	-8.957478e-001	1.172167e+002
676000000	-1.278115e+000	1.244957e+002	-1.186825e+001	-9.148268e+001	-3.091499e+001	-1.460438e+002	-8.840877e-001	1.165952e+002
680500000	-1.228360e+000	1.234325e+002	-1.217575e+001	-9.414270e+001	-3.083766e+001	-1.487973e+002	-8.878254e-001	1.160267e+002
685000000	-1.177954e+000	1.224132e+002	-1.243437e+001	-9.630783e+001	-3.099396e+001	-1.525395e+002	-8.623481e-001	1.154479e+002
689500000	-1.141468e+000	1.214897e+002	-1.270273e+001	-9.824026e+001	-3.126447e+001	-1.543084e+002	-8.492216e-001	1.149362e+002
694000000	-1.095725e+000	1.206090e+002	-1.300731e+001	-1.004945e+002	-3.156214e+001	-1.561983e+002	-8.355115e-001	1.143107e+002
698500000	-1.071596e+000	1.196051e+002	-1.313503e+001	-1.022218e+002	-3.173365e+001	-1.570858e+002	-8.342893e-001	1.136633e+002
703000000	-1.037762e+000	1.186467e+002	-1.334554e+001	-1.041599e+002	-3.184851e+001	-1.596970e+002	-8.225573e-001	1.130829e+002
707500000	-1.015905e+000	1.178423e+002	-1.353735e+001	-1.060517e+002	-3.207059e+001	-1.618358e+002	-8.063915e-001	1.124458e+002
712000000	-9.899776e-001	1.168935e+002	-1.364035e+001	-1.075732e+002	-3.219123e+001	-1.636206e+002	-8.046203e-001	1.118517e+002
716500000	-9.666286e-001	1.160958e+002	-1.387563e+001	-1.089307e+002	-3.235107e+001	-1.651130e+002	-7.979823e-001	1.112323e+002
721000000	-9.558494e-001	1.152092e+002	-1.399402e+001	-1.106124e+002	-3.252946e+001	-1.673839e+002	-7.903788e-001	1.106171e+002
725500000	-9.390032e-001	1.143477e+002	-1.413564e+001	-1.123197e+002	-3.245315e+001	-1.675998e+002	-7.888253e-001	1.100003e+002
730000000	-9.297728e-001	1.135022e+002	-1.418430e+001	-1.137887e+002	-3.245339e+001	-1.687940e+002	-7.828636e-001	1.093477e+002
734500000	-9.233031e-001	1.125902e+002	-1.425468e+001	-1.154170e+002	-3.264291e+001	-1.702882e+002	-7.841892e-001	1.087081e+002
739000000	-9.148233e-001	1.118841e+002	-1.443859e+001	-1.163887e+002	-3.268349e+001	-1.695468e+002	-7.641108e-001	1.081266e+002
743500000	-8.951257e-001	1.108664e+002	-1.444365e+001	-1.187479e+002	-3.247035e+001	-1.761888e+002	-7.630407e-001	1.073320e+002
748000000	-9.090445e-001	1.099219e+002	-1.454289e+001	-1.204094e+002	-3.480490e+001	1.757797e+002	-8.428531e-001	1.067602e+002
752500000	-8.649330e-001	1.092237e+002	-1.443327e+001	-1.210225e+002	-3.361229e+001	-1.796680e+002	-7.842262e-001	1.062111e+002
757000000	-8.584921e-001	1.087722e+002	-1.458802e+001	-1.213293e+002	-3.286069e+001	-1.775914e+002	-7.724433e-001	1.055585e+002
761500000	-8.424311e-001	1.076310e+002	-1.448365e+001	-1.239001e+002	-3.289083e+001	-1.791223e+002	-7.792636e-001	1.049269e+002
766000000	-8.439543e-001	1.069181e+002	-1.449121e+001	-1.246536e+002	-3.176019e+001	-1.793194e+002	-7.674993e-001	1.040671e+002
770500000	-8.288274e-001	1.060043e+002	-1.453501e+001	-1.264507e+002	-3.289880e+001	1.784531e+002	-7.647865e-001	1.035689e+002
775000000	-8.622444e-001	1.051021e+002	-1.478913e+001	-1.280415e+002	-3.253938e+001	-1.734691e+002	-7.438020e-001	1.029610e+002
779500000	-8.195940e-001	1.049293e+002	-1.462049e+001	-1.289890e+002	-3.116340e+001	1.753871e+002	-7.972132e-001	1.020805e+002
784000000	-8.054340e-001	1.036641e+002	-1.455064e+001	-1.309929e+002	-3.278915e+001	1.740208e+002	-7.890048e-001	1.014718e+002
788500000	-8.807984e-001	1.027110e+002	-1.455706e+001	-1.330381e+002	-3.306751e+001	1.675143e+002	-8.133075e-001	1.009180e+002
