!Agilent Technologies,E5071C,MY46101273,A.11.02
!Date: Sun Nov 12 17:39:07 2017
!Data & Calibration Information:
!Freq	S11:SOLT2(ON)	S21:SOLT2(ON)	S12:SOLT2(ON)	S22:SOLT2(ON)
!PortZ  Port1:50+j0    Port2:50+j0
!Above PortZ is port z conversion or system Z0 setting when saving the data.
!When reading, reference impedance value at option line is always used.
# Hz S dB R 50
10000000	-7.143055e-002	1.787228e+002	-7.207413e+001	1.568819e+002	-7.224580e+001	-1.157079e+002	-4.719373e-002	1.785541e+002
10990991	-7.018697e-002	1.786335e+002	-7.319763e+001	1.767529e+002	-8.868313e+001	6.529451e+001	-4.558510e-002	1.784611e+002
11981982	-6.657390e-002	1.786039e+002	-7.209950e+001	-3.317105e+001	-7.481832e+001	1.375476e+002	-5.042050e-002	1.783411e+002
12972973	-6.673812e-002	1.784860e+002	-7.130595e+001	2.937225e+001	-7.981850e+001	7.735392e+001	-4.868649e-002	1.782385e+002
13963964	-7.168581e-002	1.783844e+002	-6.976242e+001	-9.628395e+000	-7.071274e+001	-9.154115e+001	-4.496467e-002	1.781662e+002
14954955	-6.192762e-002	1.784096e+002	-7.541771e+001	-1.183502e+002	-8.830430e+001	-3.857513e+001	-4.838255e-002	1.781010e+002
15945946	-6.578201e-002	1.782775e+002	-7.101464e+001	-1.781483e+001	-7.148021e+001	5.929089e+001	-4.503675e-002	1.780221e+002
16936937	-7.009456e-002	1.782127e+002	-8.272441e+001	-8.400504e+001	-7.682606e+001	1.126180e+001	-4.580532e-002	1.779844e+002
17927928	-5.261756e-002	1.782176e+002	-7.717352e+001	-6.106980e+001	-8.674719e+001	-8.898276e+000	-4.316579e-002	1.779095e+002
18918919	-5.888042e-002	1.780932e+002	-6.799528e+001	-1.025680e+002	-8.427723e+001	1.117445e+002	-4.503197e-002	1.778289e+002
19909910	-6.135811e-002	1.780484e+002	-7.598320e+001	-4.178558e+001	-7.357861e+001	-2.672340e+001	-4.882076e-002	1.777778e+002
20900901	-3.858744e-002	1.780189e+002	-7.154818e+001	1.708275e+002	-7.696725e+001	-2.696754e+001	-4.140198e-002	1.777843e+002
21891892	-4.391634e-002	1.779105e+002	-7.421463e+001	1.781878e+001	-7.005063e+001	-1.889783e+001	-4.008603e-002	1.777222e+002
22882883	-4.583324e-002	1.778313e+002	-7.662347e+001	-1.477268e+001	-7.183589e+001	1.438339e+001	-4.477268e-002	1.776538e+002
23873874	-5.380439e-002	1.776813e+002	-7.252819e+001	-9.006916e+001	-7.880256e+001	-1.199763e+002	-4.713208e-002	1.775381e+002
24864865	-5.243219e-002	1.776164e+002	-7.755589e+001	1.134053e+002	-7.756843e+001	4.269545e+001	-4.378285e-002	1.774466e+002
25855856	-5.047076e-002	1.774914e+002	-7.463224e+001	-4.243041e+001	-7.047529e+001	5.161994e+001	-4.529901e-002	1.773537e+002
26846847	-5.118196e-002	1.774680e+002	-7.801785e+001	2.747642e+001	-7.307504e+001	-4.812456e+000	-3.901886e-002	1.772579e+002
27837838	-5.389698e-002	1.773193e+002	-7.522890e+001	-6.199671e+001	-8.200901e+001	-1.050233e+002	-3.858658e-002	1.771669e+002
28828829	-5.709735e-002	1.772512e+002	-7.228406e+001	-1.956085e+001	-8.300208e+001	-4.296346e+001	-3.782871e-002	1.770074e+002
29819820	-6.222733e-002	1.771628e+002	-7.093811e+001	6.917488e+001	-7.040808e+001	-1.111919e+002	-4.347835e-002	1.769716e+002
30810811	-5.767607e-002	1.770871e+002	-7.752665e+001	-1.691749e+002	-7.401006e+001	1.635984e+002	-4.795556e-002	1.768467e+002
31801802	-5.647466e-002	1.769821e+002	-6.978540e+001	-1.502828e+002	-7.001794e+001	-1.426884e+002	-4.574323e-002	1.767453e+002
32792793	-5.988756e-002	1.767848e+002	-7.276343e+001	1.420428e+002	-7.967868e+001	-1.479329e+001	-5.379082e-002	1.767001e+002
33783784	-5.972168e-002	1.767375e+002	-7.871732e+001	-1.226565e+002	-7.300747e+001	1.078244e+002	-4.252441e-002	1.765463e+002
34774775	-5.967876e-002	1.766996e+002	-7.139516e+001	1.500033e+002	-7.677849e+001	3.134912e+001	-4.665287e-002	1.764417e+002
35765766	-6.853303e-002	1.765658e+002	-7.352487e+001	-9.575560e+000	-7.570200e+001	1.482357e+002	-5.614868e-002	1.763841e+002
36756757	-6.998190e-002	1.765332e+002	-8.009486e+001	1.571737e+002	-9.221226e+001	6.828568e+001	-4.654196e-002	1.763039e+002
37747748	-6.981309e-002	1.764109e+002	-7.438581e+001	1.422300e+002	-7.418503e+001	-1.393239e+001	-5.409584e-002	1.761685e+002
38738739	-7.094927e-002	1.763201e+002	-7.172507e+001	-7.593022e+001	-8.140381e+001	6.062994e+001	-4.869416e-002	1.760751e+002
39729730	-6.114196e-002	1.762058e+002	-7.242161e+001	-7.340238e+000	-7.072568e+001	9.153958e+001	-4.923013e-002	1.759936e+002
40720721	-6.429824e-002	1.761248e+002	-7.371788e+001	-1.659306e+002	-7.080983e+001	4.382793e+001	-5.038152e-002	1.758955e+002
41711712	-7.057859e-002	1.760803e+002	-8.048991e+001	1.203049e+002	-7.159863e+001	-9.881509e+001	-5.012389e-002	1.757767e+002
42702703	-6.617531e-002	1.759881e+002	-8.353066e+001	-2.406598e+001	-8.133405e+001	-1.393494e+002	-5.138588e-002	1.756878e+002
43693694	-5.977073e-002	1.759473e+002	-8.453122e+001	-2.361026e+001	-7.487876e+001	-9.632867e+001	-5.062379e-002	1.756011e+002
44684685	-6.954839e-002	1.758552e+002	-7.903341e+001	6.359006e+001	-7.830963e+001	-5.849300e+001	-5.509640e-002	1.754758e+002
45675676	-6.606455e-002	1.757818e+002	-8.041159e+001	1.918927e+001	-7.475257e+001	-2.477289e+001	-5.380260e-002	1.754249e+002
46666667	-7.046620e-002	1.757094e+002	-7.154328e+001	1.427673e+002	-7.427386e+001	-1.762926e+002	-6.214957e-002	1.753069e+002
47657658	-7.900106e-002	1.755561e+002	-6.386437e+001	1.352736e+002	-6.927913e+001	3.730647e+001	-6.267165e-002	1.751986e+002
48648649	-7.293895e-002	1.755522e+002	-7.322319e+001	-9.569698e+000	-7.422958e+001	4.953413e+001	-6.274064e-002	1.751251e+002
49639640	-6.219272e-002	1.754181e+002	-8.155819e+001	-4.649078e+001	-7.076070e+001	2.387576e+001	-5.792909e-002	1.750416e+002
50630631	-6.664098e-002	1.753095e+002	-8.778654e+001	-7.075036e+001	-6.988388e+001	3.937965e+001	-6.294784e-002	1.749367e+002
51621622	-7.159918e-002	1.752587e+002	-7.649352e+001	1.224364e+002	-7.243560e+001	-8.795136e+001	-5.790051e-002	1.748375e+002
52612613	-5.996537e-002	1.751482e+002	-7.625019e+001	1.494967e+002	-8.585329e+001	9.190041e+001	-6.478471e-002	1.747285e+002
53603604	-7.223011e-002	1.750414e+002	-8.244643e+001	1.583053e+002	-9.117092e+001	-9.629323e+001	-6.624407e-002	1.746629e+002
54594595	-7.072019e-002	1.749089e+002	-7.208803e+001	5.939948e+001	-8.154580e+001	-5.353154e+001	-5.574740e-002	1.745825e+002
55585586	-6.605264e-002	1.748590e+002	-7.458430e+001	-1.259589e+002	-7.044182e+001	-1.310732e+002	-6.152792e-002	1.745187e+002
56576577	-6.882777e-002	1.747667e+002	-7.352388e+001	-5.885010e+000	-7.145369e+001	-9.340095e-001	-5.922881e-002	1.743555e+002
57567568	-6.130328e-002	1.746812e+002	-7.250990e+001	-1.077388e+002	-6.835154e+001	-3.769136e+001	-5.323308e-002	1.742214e+002
58558559	-6.694770e-002	1.745529e+002	-7.947305e+001	-5.563317e+001	-8.463552e+001	-1.307496e+002	-7.206253e-002	1.741993e+002
59549550	-5.889062e-002	1.745208e+002	-9.075621e+001	2.483828e+001	-7.914283e+001	-1.401631e+002	-5.633656e-002	1.741222e+002
60540541	-6.475170e-002	1.744791e+002	-8.120176e+001	-1.530212e+002	-7.071760e+001	1.313329e+002	-6.664378e-002	1.739924e+002
61531532	-6.254812e-002	1.744332e+002	-7.514838e+001	-1.430269e+002	-7.311100e+001	-5.043932e+001	-6.251207e-002	1.739494e+002
62522523	-6.938198e-002	1.742419e+002	-7.323940e+001	-8.755222e+001	-7.342434e+001	-1.124598e+002	-7.210849e-002	1.738471e+002
63513514	-6.034326e-002	1.741980e+002	-6.884793e+001	1.256527e+002	-6.964299e+001	-9.655197e+001	-6.541055e-002	1.737596e+002
64504505	-6.721856e-002	1.740766e+002	-7.021799e+001	4.060981e+001	-7.834761e+001	-4.298036e+001	-7.121398e-002	1.736542e+002
65495495	-7.104336e-002	1.740538e+002	-7.177992e+001	-1.689216e+002	-7.320514e+001	-2.441198e+001	-6.534911e-002	1.735101e+002
66486486	-6.376320e-002	1.739325e+002	-7.173313e+001	-1.379268e+002	-7.193594e+001	-6.789654e+001	-7.149171e-002	1.734045e+002
67477477	-6.560324e-002	1.738512e+002	-7.476420e+001	7.204780e+001	-8.636710e+001	1.069877e+002	-6.289249e-002	1.733273e+002
68468468	-7.849527e-002	1.737888e+002	-8.186715e+001	3.354301e+001	-7.143005e+001	8.925091e+001	-7.487532e-002	1.732467e+002
69459459	-7.208143e-002	1.737365e+002	-7.340979e+001	-5.082772e+001	-7.288706e+001	-1.148329e+002	-6.930232e-002	1.730767e+002
70450450	-6.947157e-002	1.736079e+002	-7.110747e+001	-8.613153e+001	-8.194291e+001	9.188945e+001	-5.963855e-002	1.729464e+002
71441441	-6.670303e-002	1.735498e+002	-8.128199e+001	-8.226605e+001	-8.111064e+001	-2.289009e+001	-6.547581e-002	1.729394e+002
72432432	-7.611166e-002	1.735283e+002	-7.365826e+001	1.477340e+002	-7.280846e+001	-8.390366e+001	-6.908404e-002	1.727094e+002
73423423	-7.284518e-002	1.734803e+002	-7.513056e+001	1.977030e+001	-7.933196e+001	1.024463e+002	-6.397878e-002	1.726841e+002
74414414	-6.196963e-002	1.732668e+002	-8.767128e+001	-6.634405e+001	-6.814736e+001	2.949637e+001	-7.154719e-002	1.726271e+002
75405405	-6.457953e-002	1.731237e+002	-7.902026e+001	-1.287419e+002	-7.109589e+001	5.082098e+001	-6.153962e-002	1.726004e+002
76396396	-6.444249e-002	1.731025e+002	-7.424734e+001	6.923923e+001	-7.051703e+001	-7.195155e+001	-6.201110e-002	1.724126e+002
77387387	-7.295264e-002	1.730733e+002	-7.221760e+001	8.133800e+001	-7.148671e+001	1.765110e+002	-6.244367e-002	1.723061e+002
78378378	-6.878667e-002	1.729712e+002	-8.433486e+001	-1.065136e+002	-7.108735e+001	-1.534724e+002	-6.645985e-002	1.723033e+002
79369369	-6.525796e-002	1.729004e+002	-7.740979e+001	-1.511548e+002	-7.201184e+001	6.996175e+001	-7.247930e-002	1.721667e+002
80360360	-6.157684e-002	1.728292e+002	-7.446876e+001	-1.080687e+002	-8.316381e+001	6.113723e+001	-6.917393e-002	1.719702e+002
81351351	-6.461209e-002	1.727137e+002	-7.684316e+001	-1.071627e+002	-7.186734e+001	-7.406940e+001	-6.150849e-002	1.719249e+002
82342342	-7.198916e-002	1.725701e+002	-8.065466e+001	1.292698e+002	-8.485747e+001	-1.789273e+002	-6.122437e-002	1.719541e+002
83333333	-6.949110e-002	1.725476e+002	-6.983610e+001	-1.423505e+002	-7.831380e+001	-5.550314e+001	-5.492865e-002	1.717357e+002
84324324	-6.765943e-002	1.725019e+002	-7.736073e+001	1.445525e+002	-8.038738e+001	4.271618e+001	-6.425535e-002	1.716149e+002
85315315	-5.662973e-002	1.723784e+002	-7.074043e+001	-1.055752e+002	-7.550511e+001	-1.262723e+002	-7.355236e-002	1.716025e+002
86306306	-6.087890e-002	1.722811e+002	-7.056700e+001	-1.381022e+002	-7.566336e+001	-5.069294e+001	-7.391733e-002	1.715265e+002
87297297	-6.850924e-002	1.722927e+002	-6.799806e+001	1.291869e+002	-7.163596e+001	-1.251479e+002	-7.672228e-002	1.713038e+002
88288288	-6.428194e-002	1.721719e+002	-8.523754e+001	-3.429597e+001	-7.833450e+001	-1.506311e+002	-7.009378e-002	1.712374e+002
89279279	-7.034503e-002	1.721449e+002	-7.226194e+001	-3.413456e-002	-7.241164e+001	2.971913e+001	-7.085640e-002	1.713304e+002
90270270	-5.874827e-002	1.720396e+002	-7.387001e+001	-1.453453e+002	-6.925418e+001	1.708358e+002	-7.136207e-002	1.711753e+002
91261261	-8.225562e-002	1.719077e+002	-7.800235e+001	7.045513e+001	-7.115719e+001	-1.120033e+002	-7.215814e-002	1.708879e+002
92252252	-7.685600e-002	1.718376e+002	-7.219871e+001	1.050561e+002	-6.947080e+001	-1.742565e+002	-7.068880e-002	1.709705e+002
93243243	-6.882581e-002	1.716809e+002	-8.766387e+001	-1.918850e+001	-7.426029e+001	-8.124561e+001	-6.710564e-002	1.710174e+002
94234234	-6.851368e-002	1.717158e+002	-8.199821e+001	-4.281842e+001	-8.425074e+001	5.054734e-001	-8.011555e-002	1.706980e+002
95225225	-7.537589e-002	1.715361e+002	-7.587097e+001	5.862541e+001	-7.946278e+001	-1.465356e+002	-7.952213e-002	1.706025e+002
96216216	-7.636372e-002	1.714883e+002	-7.213018e+001	9.369150e+001	-7.658152e+001	-1.436162e+002	-7.768307e-002	1.705820e+002
97207207	-7.323856e-002	1.713891e+002	-7.324474e+001	1.774847e+002	-7.428963e+001	-1.384383e+002	-7.444766e-002	1.704016e+002
98198198	-8.078142e-002	1.713178e+002	-7.248097e+001	-2.094110e+001	-7.586810e+001	-8.285006e+001	-8.096437e-002	1.702660e+002
99189189	-7.934473e-002	1.712831e+002	-7.621169e+001	4.047457e+001	-9.106018e+001	3.849830e+001	-7.936756e-002	1.701482e+002
100180180	-7.073015e-002	1.711731e+002	-8.836317e+001	-2.119872e+001	-7.812880e+001	-6.322160e+001	-6.954629e-002	1.701334e+002
101171171	-6.900567e-002	1.710663e+002	-7.830374e+001	1.019977e+002	-7.086546e+001	1.608793e+002	-6.925761e-002	1.699686e+002
102162162	-7.816855e-002	1.709971e+002	-7.996493e+001	1.579917e+001	-7.308112e+001	1.571829e+002	-6.713084e-002	1.700602e+002
103153153	-7.157297e-002	1.708949e+002	-7.713016e+001	-1.259351e+002	-7.795741e+001	-9.468147e+001	-7.680660e-002	1.699729e+002
104144144	-7.686503e-002	1.708347e+002	-6.868709e+001	-1.603049e+002	-7.844945e+001	1.794399e+002	-7.253384e-002	1.699518e+002
105135135	-6.944988e-002	1.707050e+002	-8.047890e+001	-8.408359e+001	-8.045053e+001	5.840836e+001	-7.158222e-002	1.697850e+002
106126126	-8.024985e-002	1.706227e+002	-6.800500e+001	6.218614e+001	-7.617642e+001	-1.604186e+002	-7.395128e-002	1.695444e+002
107117117	-7.243505e-002	1.705821e+002	-7.267593e+001	-7.737439e+000	-7.496779e+001	-1.663619e+002	-7.010019e-002	1.694067e+002
108108108	-7.141810e-002	1.705722e+002	-7.059860e+001	-1.575051e+002	-7.051129e+001	4.260656e+001	-6.873185e-002	1.693427e+002
109099099	-7.893036e-002	1.704223e+002	-7.297593e+001	-1.793233e+002	-6.590612e+001	-3.408696e+001	-7.420920e-002	1.692074e+002
110090090	-6.760802e-002	1.703753e+002	-7.314581e+001	-1.128288e+002	-7.476568e+001	-1.683735e+002	-6.916137e-002	1.692171e+002
111081081	-7.815137e-002	1.702871e+002	-6.589370e+001	1.630448e+002	-7.712897e+001	5.306772e+001	-7.428872e-002	1.690905e+002
112072072	-7.429873e-002	1.702037e+002	-7.171159e+001	6.105114e+001	-7.113708e+001	3.236447e+000	-6.690721e-002	1.691493e+002
113063063	-6.551773e-002	1.700551e+002	-7.668133e+001	5.469905e+001	-8.000986e+001	-1.558204e+002	-6.598510e-002	1.690411e+002
114054054	-7.207194e-002	1.699476e+002	-8.184965e+001	1.208747e+002	-8.179403e+001	1.011271e+002	-6.573687e-002	1.689939e+002
115045045	-7.725321e-002	1.699000e+002	-7.857565e+001	-1.189651e+002	-7.183395e+001	5.678661e+001	-6.467812e-002	1.688538e+002
116036036	-6.432575e-002	1.698851e+002	-7.137455e+001	-2.930056e+001	-7.328240e+001	-1.587501e+002	-7.398673e-002	1.686951e+002
117027027	-6.813623e-002	1.698406e+002	-7.709779e+001	-1.502492e+002	-7.815337e+001	-5.845365e+001	-7.115608e-002	1.685501e+002
118018018	-6.438720e-002	1.697251e+002	-8.251384e+001	9.050565e+001	-7.596825e+001	1.686492e+001	-6.894046e-002	1.684537e+002
119009009	-7.436007e-002	1.695773e+002	-7.162535e+001	-8.895682e+001	-7.545078e+001	-8.958434e+001	-6.553651e-002	1.684469e+002
120000000	-6.344165e-002	1.695063e+002	-7.238479e+001	-4.688254e+001	-8.114103e+001	1.534292e+002	-7.261174e-002	1.683743e+002
120990991	-6.510723e-002	1.694491e+002	-7.216028e+001	-3.098356e+001	-6.721367e+001	-5.336051e+001	-7.326467e-002	1.682538e+002
121981982	-5.991838e-002	1.693971e+002	-7.755164e+001	8.994219e+001	-7.471151e+001	1.472727e+002	-8.251339e-002	1.682006e+002
122972973	-7.460666e-002	1.692987e+002	-7.408425e+001	1.137978e+002	-7.526806e+001	1.664506e+002	-6.813579e-002	1.680575e+002
123963964	-6.085603e-002	1.692090e+002	-8.044027e+001	-1.513572e+002	-8.010169e+001	-1.051198e+002	-8.522179e-002	1.679071e+002
124954955	-6.406822e-002	1.691118e+002	-8.368741e+001	2.235931e+001	-7.878055e+001	-4.983791e+001	-7.172457e-002	1.678790e+002
125945946	-6.720051e-002	1.690229e+002	-8.412063e+001	6.745771e+001	-7.706736e+001	1.330064e+002	-7.676952e-002	1.677631e+002
126936937	-7.173192e-002	1.689380e+002	-6.951630e+001	-4.808430e+000	-6.610138e+001	-1.558786e+002	-7.224692e-002	1.676882e+002
127927928	-6.785913e-002	1.688792e+002	-7.788218e+001	1.510481e+002	-7.551121e+001	7.176575e+001	-7.779049e-002	1.676123e+002
128918919	-7.163013e-002	1.687983e+002	-6.992725e+001	-3.261756e+001	-7.829957e+001	8.743832e+000	-7.873868e-002	1.675085e+002
129909910	-7.085602e-002	1.687114e+002	-7.753414e+001	1.435595e+002	-7.613442e+001	9.607704e+001	-6.856008e-002	1.673731e+002
130900901	-7.590295e-002	1.686156e+002	-6.986326e+001	1.579946e+002	-8.673254e+001	1.607213e+002	-7.496076e-002	1.672824e+002
131891892	-7.482490e-002	1.685902e+002	-6.542385e+001	-1.001941e+002	-8.012820e+001	1.300970e+002	-7.801661e-002	1.672567e+002
132882883	-7.470197e-002	1.684865e+002	-8.946081e+001	8.752710e+001	-7.714349e+001	-1.800689e+001	-8.389750e-002	1.671718e+002
133873874	-7.764117e-002	1.684100e+002	-7.713647e+001	-1.101541e+002	-6.958136e+001	9.362937e+001	-8.830190e-002	1.670588e+002
134864865	-6.877778e-002	1.682512e+002	-7.436057e+001	1.619146e+002	-8.322063e+001	4.108426e+001	-8.130896e-002	1.669122e+002
135855856	-6.766623e-002	1.681620e+002	-7.624300e+001	6.234876e+001	-7.191863e+001	8.621921e+001	-6.987818e-002	1.668445e+002
136846847	-6.773699e-002	1.680998e+002	-7.690127e+001	1.353626e+001	-7.872013e+001	1.104202e+002	-7.938280e-002	1.667313e+002
137837838	-7.317925e-002	1.679708e+002	-7.524074e+001	1.554438e+001	-7.592892e+001	2.327538e+001	-8.242923e-002	1.666357e+002
138828829	-7.196420e-002	1.679191e+002	-7.292863e+001	-1.911959e+001	-7.252986e+001	9.094760e+001	-7.565717e-002	1.665567e+002
139819820	-7.356500e-002	1.678591e+002	-8.420637e+001	1.322881e+001	-7.879183e+001	1.249942e+002	-6.940122e-002	1.664907e+002
140810811	-7.076877e-002	1.677146e+002	-7.178023e+001	1.719149e+002	-7.048673e+001	-1.764872e+002	-7.369715e-002	1.663476e+002
141801802	-6.997419e-002	1.676596e+002	-7.276119e+001	7.587426e+001	-7.366846e+001	4.670160e+001	-7.233792e-002	1.662491e+002
142792793	-7.244044e-002	1.675899e+002	-7.437856e+001	1.081337e+002	-7.827402e+001	1.332978e+002	-6.914601e-002	1.661928e+002
143783784	-6.452841e-002	1.674827e+002	-8.111914e+001	-2.840763e+001	-7.557103e+001	-6.393000e+001	-7.228790e-002	1.660651e+002
144774775	-6.610467e-002	1.673954e+002	-8.087180e+001	-3.902193e+001	-8.150039e+001	-1.502295e+002	-7.339750e-002	1.659852e+002
145765766	-6.473086e-002	1.672813e+002	-7.986701e+001	-1.670680e+001	-7.289124e+001	2.577342e+001	-8.185376e-002	1.659288e+002
146756757	-5.855503e-002	1.671597e+002	-7.407736e+001	-1.488550e+002	-7.262134e+001	-5.245604e+001	-8.253464e-002	1.658699e+002
147747748	-6.421296e-002	1.670943e+002	-7.031599e+001	-1.420440e+002	-7.127563e+001	1.170748e+002	-7.887684e-002	1.657660e+002
148738739	-6.897222e-002	1.670443e+002	-7.724189e+001	6.112915e+001	-6.766284e+001	1.619313e+002	-8.402940e-002	1.656741e+002
149729730	-6.164095e-002	1.669856e+002	-7.356409e+001	2.658038e+001	-7.819454e+001	1.269312e+002	-8.522256e-002	1.655288e+002
150720721	-6.569686e-002	1.668846e+002	-7.577676e+001	1.198748e+002	-7.131345e+001	8.307199e+001	-8.900739e-002	1.654663e+002
151711712	-6.816838e-002	1.668024e+002	-7.507478e+001	3.482119e+001	-8.470467e+001	-9.128422e+001	-8.446719e-002	1.653597e+002
152702703	-7.113631e-002	1.667103e+002	-8.449682e+001	-1.746002e+002	-7.113703e+001	-1.101557e+002	-8.588930e-002	1.652980e+002
153693694	-7.051304e-002	1.666171e+002	-8.979212e+001	-3.244001e+001	-7.463467e+001	4.022963e+000	-9.101353e-002	1.651849e+002
154684685	-7.316831e-002	1.665490e+002	-7.832607e+001	-1.576690e+002	-8.601697e+001	2.483077e+001	-8.797464e-002	1.651014e+002
155675676	-8.325948e-002	1.664760e+002	-7.992059e+001	1.581413e+002	-7.682127e+001	1.716017e+002	-8.604189e-002	1.650081e+002
156666667	-8.213814e-002	1.663898e+002	-7.725287e+001	-1.712933e+002	-7.402504e+001	1.010730e+001	-8.636473e-002	1.648789e+002
157657658	-9.197702e-002	1.663316e+002	-7.276938e+001	-1.249224e+002	-8.513672e+001	5.372344e+001	-8.442989e-002	1.647816e+002
158648649	-9.050860e-002	1.662101e+002	-8.262239e+001	-1.591742e+002	-8.429943e+001	1.242592e+002	-8.045195e-002	1.646998e+002
159639640	-8.920664e-002	1.661342e+002	-7.233971e+001	-1.192207e+001	-7.951489e+001	5.578928e+001	-8.994576e-002	1.646128e+002
160630631	-8.340262e-002	1.660651e+002	-8.107715e+001	-2.664637e+001	-7.135457e+001	-1.140437e+001	-8.718525e-002	1.645210e+002
161621622	-8.866624e-002	1.659400e+002	-7.685106e+001	-1.058575e+002	-7.354714e+001	-1.906993e+001	-8.054574e-002	1.644212e+002
162612613	-8.601264e-002	1.658482e+002	-8.827909e+001	-4.020151e+001	-8.641688e+001	3.825668e+001	-8.714151e-002	1.643251e+002
