!Agilent Technologies,E5071C,MY46101273,A.11.02
!Date: Mon Nov 20 15:49:34 2017
!Data & Calibration Information:
!Freq	S11:SOLT2(ON)	S21:SOLT2(ON)	S12:SOLT2(ON)	S22:SOLT2(ON)
!PortZ  Port1:50+j0    Port2:50+j0
!Above PortZ is port z conversion or system Z0 setting when saving the data.
!When reading, reference impedance value at option line is always used.
# Hz S dB R 50
10000000	-9.647120e-002	1.786694e+002	-7.078966e+001	1.641506e+002	-7.921647e+001	3.315883e+001	1.541680e-002	-2.650918e-001
10618750	-9.465644e-002	1.786289e+002	-7.222390e+001	2.209858e+001	-7.341995e+001	-1.665977e+001	1.486684e-002	-4.111510e-001
11237500	-1.011031e-001	1.785857e+002	-7.162084e+001	1.026450e+002	-7.236589e+001	9.985541e+001	-4.830545e-003	-4.615067e-001
11856250	-9.057229e-002	1.785691e+002	-7.185707e+001	6.983338e+001	-7.676649e+001	-1.534012e+002	6.987091e-003	-5.855546e-001
12475000	-9.169901e-002	1.785781e+002	-7.189699e+001	-1.117690e+002	-8.191875e+001	1.639984e+001	3.509774e-003	-6.472968e-001
13093750	-9.689788e-002	1.784840e+002	-8.090734e+001	-1.721394e+002	-7.344863e+001	1.229408e+002	-5.501217e-003	-6.901552e-001
13712500	-1.037523e-001	1.783933e+002	-6.841553e+001	3.580190e+000	-7.414523e+001	4.334322e+001	3.495855e-003	-6.679281e-001
14331250	-9.294337e-002	1.784186e+002	-7.114836e+001	2.794693e+001	-7.075912e+001	-6.262935e+001	-1.400202e-002	-7.696318e-001
14950000	-8.682399e-002	1.783892e+002	-6.985435e+001	1.572843e+002	-6.769662e+001	6.600233e+001	4.760387e-003	-8.905496e-001
15568750	-9.101760e-002	1.783463e+002	-6.544393e+001	-8.174179e+001	-7.685161e+001	5.544843e+001	-1.204932e-002	-1.009180e+000
16187500	-1.034154e-001	1.783107e+002	-7.233741e+001	-1.108043e+002	-7.142377e+001	-4.228480e+001	1.260430e-003	-1.007079e+000
16806250	-9.451075e-002	1.782306e+002	-8.631351e+001	1.747200e+001	-6.922064e+001	1.519026e+002	-3.489837e-003	-1.057859e+000
17425000	-8.931288e-002	1.782100e+002	-7.830932e+001	-5.486757e+001	-7.663239e+001	1.312936e+001	-2.282081e-003	-1.171246e+000
18043750	-8.492365e-002	1.782403e+002	-7.500885e+001	2.792756e+001	-7.195536e+001	-4.764684e+001	-8.457245e-004	-1.300293e+000
18662500	-8.540379e-002	1.781980e+002	-7.374542e+001	1.144758e+002	-7.447962e+001	1.415100e+002	-2.799801e-003	-1.338538e+000
19281250	-8.952964e-002	1.780852e+002	-7.023862e+001	-1.479621e+002	-8.840144e+001	-1.706017e+001	-6.533635e-003	-1.351226e+000
19900000	-8.992452e-002	1.780680e+002	-8.653282e+001	-1.636315e+002	-7.917444e+001	4.454297e+001	-8.133137e-003	-1.435101e+000
20518750	-8.056712e-002	1.781025e+002	-9.415633e+001	1.527290e+002	-7.308116e+001	-8.667915e+001	-5.947253e-003	-1.481403e+000
21137500	-7.701885e-002	1.780345e+002	-8.257896e+001	1.920150e+001	-6.910118e+001	-6.994664e+001	-3.346377e-004	-1.545810e+000
21756250	-7.655538e-002	1.780420e+002	-7.810563e+001	6.376512e+001	-6.890490e+001	-1.256185e+002	-2.418397e-003	-1.643535e+000
22375000	-8.847634e-002	1.779157e+002	-8.514294e+001	4.578942e+001	-7.442864e+001	1.219724e+002	-6.953582e-003	-1.754943e+000
22993750	-9.196711e-002	1.778563e+002	-7.186990e+001	2.724350e+001	-6.698757e+001	-1.465617e+002	6.009090e-003	-1.813436e+000
23612500	-8.660292e-002	1.778255e+002	-7.911822e+001	9.374385e+001	-7.644003e+001	-1.200236e+002	-1.562657e-002	-1.819922e+000
24231250	-9.682062e-002	1.777868e+002	-8.353187e+001	-6.291093e+001	-7.162309e+001	-8.524300e+001	2.896327e-003	-1.892821e+000
24850000	-8.352397e-002	1.776794e+002	-7.309677e+001	4.828223e+001	-7.102300e+001	-1.171871e+002	-8.994584e-004	-1.825877e+000
25468750	-8.536852e-002	1.776594e+002	-7.470571e+001	-1.950610e+001	-7.781077e+001	1.025373e+002	-2.135558e-003	-1.937148e+000
26087500	-9.307019e-002	1.775810e+002	-7.060659e+001	-1.729953e+002	-8.375086e+001	-1.107267e+002	-6.934139e-003	-1.908864e+000
26706250	-9.610882e-002	1.775507e+002	-8.195383e+001	-3.414321e+001	-7.576140e+001	-1.607084e+002	5.301113e-003	-1.958607e+000
27325000	-9.410610e-002	1.775006e+002	-8.276542e+001	1.694572e+002	-7.219053e+001	-1.402672e+002	6.059147e-003	-2.009530e+000
27943750	-9.297538e-002	1.774292e+002	-8.012241e+001	1.385902e+002	-8.504172e+001	-1.520419e+002	2.899751e-003	-2.111662e+000
28562500	-8.974340e-002	1.773673e+002	-7.231892e+001	-1.077155e+002	-7.761635e+001	-1.058113e+002	1.034522e-003	-2.169058e+000
29181250	-9.555412e-002	1.773195e+002	-7.232009e+001	-3.652560e+001	-7.463696e+001	5.621098e+001	-4.837888e-003	-2.253040e+000
29800000	-9.935687e-002	1.772055e+002	-7.466827e+001	1.797248e+001	-8.067952e+001	1.055985e+002	-1.017907e-003	-2.224375e+000
30418750	-9.585909e-002	1.772059e+002	-6.970545e+001	-1.091408e+002	-7.552361e+001	1.044263e+002	-4.150264e-003	-2.348430e+000
31037500	-9.454410e-002	1.770724e+002	-8.028540e+001	-8.106038e+001	-8.054220e+001	4.756746e+001	-1.098900e-002	-2.318629e+000
31656250	-9.795204e-002	1.770681e+002	-7.752034e+001	1.761673e+002	-8.660719e+001	8.224714e+001	-1.650057e-002	-2.377448e+000
32275000	-1.035149e-001	1.770533e+002	-7.149470e+001	-7.054886e+001	-7.837190e+001	-1.369812e+002	-1.472842e-002	-2.498984e+000
32893750	-1.036652e-001	1.770203e+002	-7.788926e+001	1.044159e+002	-7.287121e+001	-4.911698e+001	-1.538655e-002	-2.531624e+000
33512500	-1.118893e-001	1.769252e+002	-7.146902e+001	4.645267e+001	-6.840483e+001	-5.830567e+001	-1.901362e-002	-2.574102e+000
34131250	-1.117956e-001	1.768556e+002	-7.702283e+001	1.524874e+002	-7.076804e+001	-5.109734e+001	-2.257725e-002	-2.601960e+000
34750000	-1.100450e-001	1.768817e+002	-7.162739e+001	-3.574723e+001	-7.443191e+001	4.598844e+001	-1.252413e-002	-2.673099e+000
35368750	-1.053431e-001	1.768200e+002	-8.049440e+001	1.332897e+002	-6.937394e+001	6.328854e+001	-2.059889e-002	-2.726109e+000
35987500	-1.094803e-001	1.767069e+002	-7.771804e+001	1.081302e+002	-8.142596e+001	1.101583e+002	-1.762724e-002	-2.750467e+000
36606250	-1.144520e-001	1.766798e+002	-7.380202e+001	1.334652e+001	-8.741705e+001	1.087861e+001	-1.913838e-002	-2.811785e+000
37225000	-1.093618e-001	1.766514e+002	-7.886906e+001	1.983818e+000	-7.325870e+001	-1.472096e+002	-1.716145e-002	-2.845094e+000
37843750	-1.138353e-001	1.765671e+002	-7.473752e+001	-1.107588e+002	-7.092923e+001	9.886753e+001	-1.553225e-002	-2.960077e+000
38462500	-1.109781e-001	1.765188e+002	-7.357027e+001	-2.852228e+001	-7.643885e+001	5.611913e+001	-1.131407e-002	-2.938450e+000
39081250	-1.133865e-001	1.765146e+002	-7.677502e+001	4.344818e+000	-7.305633e+001	4.118410e+001	-5.653328e-003	-3.008201e+000
39700000	-1.174701e-001	1.764533e+002	-6.944055e+001	5.641318e+001	-7.555121e+001	-1.002899e+002	-8.114449e-003	-3.034703e+000
40318750	-1.060538e-001	1.764188e+002	-6.916504e+001	-7.379726e+001	-6.956286e+001	-1.367869e+002	-1.110123e-002	-3.065688e+000
40937500	-1.145325e-001	1.763528e+002	-7.583724e+001	4.043733e+000	-6.646916e+001	-3.472838e+001	-1.294215e-002	-3.157082e+000
41556250	-1.113300e-001	1.763344e+002	-7.447420e+001	1.374570e+002	-7.034319e+001	1.481914e+002	-1.741717e-002	-3.169237e+000
42175000	-1.070411e-001	1.763334e+002	-7.605395e+001	-6.132106e+001	-7.906195e+001	8.721303e+001	-1.832748e-002	-3.220083e+000
42793750	-1.092627e-001	1.762957e+002	-6.907009e+001	5.079443e+001	-7.439694e+001	1.118256e+002	-1.693339e-002	-3.282343e+000
43412500	-1.033589e-001	1.761940e+002	-7.960005e+001	-1.239310e+002	-7.543391e+001	-1.367323e+002	-1.628746e-002	-3.295399e+000
44031250	-1.109081e-001	1.762111e+002	-7.655701e+001	-1.336202e+002	-9.186680e+001	-1.694151e+002	-1.656818e-002	-3.361231e+000
44650000	-1.041740e-001	1.761460e+002	-6.994801e+001	-7.256151e+001	-7.829734e+001	-5.415840e+001	-2.102647e-002	-3.413769e+000
45268750	-1.143749e-001	1.760493e+002	-7.715720e+001	-4.738851e+001	-7.369857e+001	1.008591e+002	-2.314789e-002	-3.424420e+000
45887500	-1.149984e-001	1.760507e+002	-7.808415e+001	1.126552e+002	-7.373726e+001	-5.852400e+001	-1.879437e-002	-3.498924e+000
46506250	-1.073790e-001	1.759870e+002	-7.888606e+001	7.883249e+001	-7.205625e+001	3.505314e+001	-2.364508e-002	-3.596810e+000
47125000	-1.108045e-001	1.759469e+002	-7.474787e+001	-8.384470e+001	-7.299207e+001	-1.405248e+002	-2.530814e-002	-3.625703e+000
47743750	-1.214382e-001	1.758915e+002	-7.902055e+001	1.793952e+002	-7.968464e+001	-4.285295e+001	-2.102960e-002	-3.562375e+000
48362500	-1.128780e-001	1.758416e+002	-7.772116e+001	-1.599067e+002	-7.576637e+001	1.292544e+002	-3.528553e-002	-3.657246e+000
48981250	-1.162860e-001	1.758400e+002	-8.324784e+001	-1.269474e+002	-8.378524e+001	-1.180738e+002	-3.174110e-002	-3.760942e+000
49600000	-1.164083e-001	1.757696e+002	-6.991825e+001	-1.252557e+002	-8.051524e+001	-1.143525e+002	-2.292061e-002	-3.827737e+000
50218750	-1.198848e-001	1.756090e+002	-7.328010e+001	-4.119029e+001	-7.111023e+001	9.818143e+001	-2.689446e-002	-3.825156e+000
50837500	-1.187366e-001	1.756384e+002	-6.994314e+001	4.575790e+001	-7.257741e+001	6.450001e+001	-3.608897e-002	-3.863296e+000
51456250	-1.124844e-001	1.756154e+002	-6.845834e+001	-7.573065e+000	-8.074649e+001	-1.367234e+002	-3.045977e-002	-3.889550e+000
52075000	-1.108621e-001	1.755750e+002	-7.167508e+001	-9.994653e+001	-6.953762e+001	1.624911e+002	-2.760194e-002	-3.988150e+000
52693750	-1.149311e-001	1.755120e+002	-7.039184e+001	1.011196e+002	-8.235898e+001	9.778000e+000	-2.468164e-002	-4.020654e+000
53312500	-1.044059e-001	1.754090e+002	-8.162526e+001	1.567400e+002	-8.583388e+001	3.698224e+001	-2.490221e-002	-4.090510e+000
53931250	-1.163084e-001	1.754349e+002	-8.115400e+001	-5.787882e+001	-7.024119e+001	-5.905510e+001	-2.843151e-002	-4.149978e+000
54550000	-1.127094e-001	1.752821e+002	-7.811259e+001	-4.094113e+001	-6.802501e+001	-3.343328e+001	-3.637603e-002	-4.180160e+000
55168750	-1.088819e-001	1.753399e+002	-7.070765e+001	-3.434414e+001	-7.205606e+001	-4.101352e+001	-3.330059e-002	-4.248378e+000
55787500	-1.118845e-001	1.752655e+002	-7.766103e+001	-7.247051e+001	-7.372565e+001	-1.713590e+002	-2.473359e-002	-4.255252e+000
56406250	-1.080230e-001	1.752701e+002	-6.980489e+001	9.638997e+001	-7.351998e+001	-1.684488e+002	-3.124185e-002	-4.356986e+000
57025000	-1.195172e-001	1.751824e+002	-7.251628e+001	-3.714205e+001	-8.883781e+001	-1.099864e+002	-2.930160e-002	-4.383098e+000
57643750	-1.068438e-001	1.751566e+002	-7.631463e+001	-4.033834e+001	-7.525071e+001	1.744551e+002	-3.102606e-002	-4.443968e+000
58262500	-1.108877e-001	1.751055e+002	-6.675506e+001	-1.345111e+002	-7.827677e+001	1.641809e+002	-3.434891e-002	-4.466863e+000
58881250	-1.017069e-001	1.749800e+002	-7.551180e+001	7.727418e+001	-7.595778e+001	3.614557e+001	-3.776738e-002	-4.550749e+000
59500000	-1.083295e-001	1.749655e+002	-7.298021e+001	-1.148628e+002	-7.569540e+001	1.546219e+002	-3.171862e-002	-4.551416e+000
60118750	-1.116230e-001	1.749619e+002	-8.521628e+001	7.500634e+001	-8.062639e+001	-1.493260e+002	-3.003203e-002	-4.597372e+000
60737500	-1.128207e-001	1.749110e+002	-7.615448e+001	3.716018e+001	-7.513631e+001	5.271616e+001	-3.234896e-002	-4.681613e+000
61356250	-1.183191e-001	1.748692e+002	-7.608146e+001	1.200384e+002	-7.435222e+001	8.683544e+001	-3.923630e-002	-4.721122e+000
61975000	-1.070078e-001	1.747936e+002	-7.470693e+001	-5.421239e+001	-7.312458e+001	-8.795988e+001	-3.285213e-002	-4.771107e+000
62593750	-1.053003e-001	1.747184e+002	-6.781356e+001	1.180409e+002	-7.212981e+001	1.987902e+001	-3.212137e-002	-4.793530e+000
63212500	-1.157805e-001	1.747085e+002	-7.679191e+001	-1.584755e+002	-7.407955e+001	1.197974e+002	-2.824253e-002	-4.845397e+000
63831250	-1.044644e-001	1.747185e+002	-8.404249e+001	-4.510245e+001	-7.710831e+001	-1.240652e+002	-3.344006e-002	-4.878875e+000
64450000	-1.157748e-001	1.746565e+002	-7.467369e+001	-5.719920e+001	-8.258902e+001	-2.416096e+001	-3.331009e-002	-4.964901e+000
65068750	-1.137666e-001	1.746449e+002	-7.064811e+001	-4.310806e+001	-7.599788e+001	6.146040e+001	-2.461468e-002	-4.990261e+000
65687500	-1.075663e-001	1.746168e+002	-7.347021e+001	-6.207532e+001	-7.021605e+001	8.585737e+001	-2.691030e-002	-5.041798e+000
66306250	-1.154964e-001	1.745817e+002	-7.707034e+001	8.871883e+001	-7.687435e+001	3.508369e+001	-3.186485e-002	-5.112429e+000
66925000	-1.219617e-001	1.744936e+002	-7.653944e+001	1.760112e+002	-1.005574e+002	-6.275974e+001	-3.096044e-002	-5.110083e+000
67543750	-1.139635e-001	1.744343e+002	-7.413682e+001	-6.816247e+001	-7.310040e+001	-1.087402e+002	-3.797742e-002	-5.201642e+000
68162500	-1.112383e-001	1.743671e+002	-8.130013e+001	5.514046e+001	-8.052767e+001	1.564339e+002	-2.949403e-002	-5.235791e+000
68781250	-1.152395e-001	1.743823e+002	-8.270758e+001	-6.386064e+001	-7.262519e+001	-1.593342e+002	-2.834764e-002	-5.284762e+000
69400000	-1.140682e-001	1.743585e+002	-7.834588e+001	-6.776410e+001	-1.053986e+002	1.314219e+002	-2.573042e-002	-5.316252e+000
70018750	-1.129864e-001	1.742643e+002	-8.253271e+001	1.637942e+002	-8.294442e+001	4.184642e+001	-2.959627e-002	-5.358176e+000
70637500	-1.099380e-001	1.742390e+002	-8.395292e+001	3.793471e+001	-8.284412e+001	-5.417053e+001	-3.418821e-002	-5.418830e+000
71256250	-1.117647e-001	1.741122e+002	-8.611652e+001	5.645127e+001	-7.662908e+001	-1.052416e+002	-3.217836e-002	-5.455851e+000
71875000	-1.238763e-001	1.741614e+002	-6.988955e+001	4.143438e+001	-7.238200e+001	6.420087e+001	-3.284543e-002	-5.482406e+000
72493750	-1.074372e-001	1.741130e+002	-7.224858e+001	1.665123e+000	-6.835745e+001	7.802192e+001	-3.027375e-002	-5.574059e+000
73112500	-1.102934e-001	1.740243e+002	-7.317659e+001	1.198704e+002	-7.868823e+001	1.560663e+002	-3.042679e-002	-5.611700e+000
73731250	-1.127969e-001	1.739811e+002	-7.478252e+001	1.508622e+002	-7.653577e+001	2.524367e+001	-2.685942e-002	-5.684287e+000
74350000	-1.103734e-001	1.739811e+002	-7.897891e+001	1.573974e+002	-7.164746e+001	-5.707303e+001	-2.837919e-002	-5.703582e+000
74968750	-1.187118e-001	1.738835e+002	-6.753915e+001	-9.843030e+001	-8.077029e+001	-1.263808e+002	-3.499430e-002	-5.775658e+000
75587500	-1.066559e-001	1.738697e+002	-7.139972e+001	1.232672e+002	-7.522138e+001	-1.078662e+002	-3.450708e-002	-5.772797e+000
76206250	-1.080409e-001	1.738744e+002	-7.360635e+001	3.844568e+001	-7.505902e+001	9.823750e+001	-2.903115e-002	-5.862161e+000
76825000	-1.104210e-001	1.738535e+002	-8.338321e+001	-1.121760e+002	-7.712605e+001	-2.681858e+001	-3.741685e-002	-5.859322e+000
77443750	-1.100829e-001	1.737432e+002	-7.074312e+001	-1.335560e+001	-7.256823e+001	-8.567703e+001	-3.094506e-002	-5.945683e+000
78062500	-1.070954e-001	1.737620e+002	-7.859454e+001	-1.779941e+002	-7.487534e+001	-1.633900e+002	-3.355147e-002	-5.970101e+000
78681250	-1.032705e-001	1.736581e+002	-7.781172e+001	8.826672e+001	-8.215060e+001	7.296331e+001	-3.722590e-002	-6.022690e+000
79300000	-1.099028e-001	1.735835e+002	-7.033240e+001	1.780185e+002	-7.092684e+001	-6.705029e+001	-3.361756e-002	-6.088302e+000
79918750	-1.007116e-001	1.735727e+002	-7.687309e+001	1.376223e+002	-7.846652e+001	-2.169907e+001	-3.609900e-002	-6.124277e+000
80537500	-1.143394e-001	1.735605e+002	-6.962437e+001	7.967866e+001	-7.221504e+001	1.216047e+002	-3.446460e-002	-6.177254e+000
81156250	-9.888071e-002	1.735572e+002	-7.519709e+001	-1.690133e+002	-7.713885e+001	-7.981387e+001	-3.845013e-002	-6.245598e+000
81775000	-9.813802e-002	1.733843e+002	-1.021081e+002	1.173356e+002	-6.925996e+001	-3.998373e+001	-3.548085e-002	-6.270664e+000
82393750	-1.049662e-001	1.733713e+002	-7.256333e+001	3.364102e+001	-7.788997e+001	1.198081e+002	-4.206439e-002	-6.350636e+000
83012500	-9.788760e-002	1.733357e+002	-7.734057e+001	-1.218289e+002	-7.559384e+001	1.292348e+002	-4.259104e-002	-6.384769e+000
83631250	-9.290528e-002	1.732925e+002	-8.280083e+001	-1.246261e+002	-6.567301e+001	9.938639e+001	-3.823762e-002	-6.435554e+000
84250000	-1.008465e-001	1.733311e+002	-8.234730e+001	2.741297e+001	-6.882320e+001	-6.453730e+001	-4.221232e-002	-6.494435e+000
84868750	-9.917240e-002	1.732897e+002	-8.021271e+001	4.886860e+001	-7.405636e+001	-1.084491e+002	-3.665270e-002	-6.493348e+000
85487500	-1.032969e-001	1.731283e+002	-7.348080e+001	-1.960720e+001	-9.075919e+001	-7.575821e+001	-4.045266e-002	-6.582197e+000
86106250	-1.028687e-001	1.731456e+002	-7.295004e+001	-8.628155e+001	-7.252892e+001	4.168947e+001	-4.302929e-002	-6.597554e+000
86725000	-1.116637e-001	1.730859e+002	-7.531583e+001	-5.606218e+001	-7.265866e+001	1.608451e+002	-4.309109e-002	-6.666348e+000
87343750	-1.130902e-001	1.730993e+002	-7.375296e+001	-1.572009e+002	-7.960091e+001	-2.368209e+001	-4.102494e-002	-6.729581e+000
87962500	-1.101199e-001	1.730657e+002	-7.609515e+001	-1.442675e+002	-7.458352e+001	-2.831960e+001	-4.448439e-002	-6.755470e+000
88581250	-9.664820e-002	1.729786e+002	-7.825306e+001	-1.365183e+001	-7.329211e+001	-4.086376e+001	-4.473532e-002	-6.812528e+000
89200000	-1.124787e-001	1.729527e+002	-7.880653e+001	-2.754732e+001	-7.910391e+001	-3.745252e+001	-4.543663e-002	-6.871584e+000
89818750	-1.028139e-001	1.729090e+002	-8.677513e+001	-8.269828e+001	-7.131332e+001	3.428721e+001	-4.425531e-002	-6.879444e+000
90437500	-1.105505e-001	1.728574e+002	-9.133983e+001	5.968134e+001	-7.092747e+001	-1.745108e+002	-4.873969e-002	-6.963199e+000
91056250	-1.068289e-001	1.727789e+002	-7.095604e+001	-1.788574e+002	-8.020396e+001	-2.707191e+001	-4.465387e-002	-6.990553e+000
91675000	-1.041324e-001	1.727708e+002	-7.884630e+001	1.152735e+002	-6.943226e+001	-6.970591e+001	-4.491006e-002	-7.078786e+000
92293750	-1.130417e-001	1.727817e+002	-7.775980e+001	8.401611e+001	-7.279908e+001	-7.044133e+001	-4.284540e-002	-7.077884e+000
92912500	-1.165220e-001	1.726779e+002	-7.799322e+001	-6.238726e+001	-7.179014e+001	6.679352e+001	-4.421560e-002	-7.152233e+000
93531250	-1.219198e-001	1.726148e+002	-7.429511e+001	-8.471766e+001	-7.062949e+001	-5.250704e+000	-5.061154e-002	-7.199908e+000
94150000	-1.146924e-001	1.726598e+002	-7.204160e+001	8.507330e+001	-7.866864e+001	1.131034e+002	-5.123533e-002	-7.217755e+000
94768750	-1.168864e-001	1.725837e+002	-6.836367e+001	4.112522e+001	-7.787282e+001	-1.582196e+002	-4.865101e-002	-7.300528e+000
95387500	-1.111181e-001	1.724590e+002	-7.581072e+001	1.633778e+002	-7.641879e+001	-1.483943e+002	-4.682286e-002	-7.353286e+000
96006250	-1.086023e-001	1.725166e+002	-7.649607e+001	1.689891e+002	-6.999805e+001	4.491574e+001	-4.786147e-002	-7.410604e+000
96625000	-1.020866e-001	1.724218e+002	-7.522685e+001	1.416326e+002	-8.386713e+001	-1.360711e+002	-4.802259e-002	-7.439800e+000
97243750	-1.075762e-001	1.723509e+002	-8.137063e+001	-1.099445e+002	-7.098125e+001	6.839975e+001	-4.994301e-002	-7.482570e+000
97862500	-1.078735e-001	1.723723e+002	-7.608231e+001	-7.225477e+001	-7.559340e+001	-6.528580e+001	-4.989954e-002	-7.524870e+000
98481250	-1.042483e-001	1.723290e+002	-8.156542e+001	1.480212e+002	-6.808508e+001	7.375483e+001	-5.085710e-002	-7.594822e+000
99100000	-1.020371e-001	1.723037e+002	-7.982391e+001	1.638849e+002	-7.733131e+001	-7.151833e+001	-5.638693e-002	-7.626256e+000
99718750	-1.097840e-001	1.722303e+002	-6.806451e+001	1.997080e+001	-7.062778e+001	-6.188888e+001	-4.907268e-002	-7.689889e+000
100337500	-1.031965e-001	1.721731e+002	-7.769537e+001	-4.296503e+001	-7.545144e+001	-2.741822e+001	-5.642784e-002	-7.725832e+000
100956250	-1.060687e-001	1.721505e+002	-7.179416e+001	-8.479578e+001	-7.577695e+001	8.061637e+001	-5.418849e-002	-7.784611e+000
101575000	-1.039083e-001	1.720588e+002	-6.868183e+001	2.400576e+001	-7.973639e+001	1.485371e+002	-5.223230e-002	-7.840923e+000
102193750	-1.042868e-001	1.719899e+002	-6.824729e+001	-1.298019e+001	-8.029816e+001	5.560282e+001	-5.379541e-002	-7.876321e+000
102812500	-1.086423e-001	1.720201e+002	-7.255752e+001	1.510583e+002	-9.835501e+001	-3.212992e+000	-4.982621e-002	-7.915707e+000
103431250	-1.054354e-001	1.718972e+002	-7.725394e+001	-9.270775e+001	-7.602660e+001	-6.088576e+001	-5.417779e-002	-7.973216e+000
104050000	-1.021140e-001	1.719854e+002	-6.778382e+001	-1.263862e+002	-7.340280e+001	1.296854e+002	-4.553218e-002	-8.013731e+000
104668750	-1.121580e-001	1.718777e+002	-7.339154e+001	4.825353e+001	-7.413034e+001	8.557768e+001	-5.251653e-002	-8.056611e+000
