!Agilent Technologies,E5071C,MY46101273,A.11.02
!Date: Fri Nov 03 16:11:05 2017
!Data & Calibration Information:
!Freq	S11:SOLT2(ON)	S21:SOLT2(ON)	S12:SOLT2(ON)	S22:SOLT2(ON)
!PortZ  Port1:50+j0    Port2:50+j0
!Above PortZ is port z conversion or system Z0 setting when saving the data.
!When reading, reference impedance value at option line is always used.
# Hz S dB R 50
100000000	-1.338030e-001	1.674591e+002	-7.033263e+001	-1.029320e+002	-6.532216e+001	1.345346e+001	-1.447204e-001	1.670161e+002
104500000	-1.139060e-001	1.666369e+002	-6.985052e+001	-8.740110e+001	-8.173727e+001	-1.748885e+002	-9.805109e-002	1.666503e+002
109000000	-9.012695e-002	1.666451e+002	-6.354166e+001	-3.515141e+001	-6.217370e+001	1.210022e+002	-9.770569e-002	1.659189e+002
113500000	-1.314883e-001	1.656451e+002	-5.536282e+001	1.530087e+002	-6.407264e+001	1.822008e+001	-1.186732e-001	1.653318e+002
118000000	-1.113917e-001	1.651427e+002	-6.460178e+001	1.621091e+001	-6.353739e+001	-1.295038e+002	-1.141299e-001	1.647434e+002
122500000	-1.088769e-001	1.646845e+002	-6.545391e+001	1.008054e+002	-6.121497e+001	-1.395405e+000	-1.517382e-001	1.642143e+002
127000000	-1.345524e-001	1.641783e+002	-7.602526e+001	-1.135236e+002	-7.972962e+001	5.045423e+001	-1.262076e-001	1.635546e+002
131500000	-1.402331e-001	1.635814e+002	-6.425817e+001	1.029940e+002	-6.334069e+001	-1.532455e+002	-1.319862e-001	1.632202e+002
136000000	-1.073884e-001	1.628419e+002	-7.219409e+001	-9.841894e+001	-6.155965e+001	9.095982e+001	-1.443998e-001	1.624909e+002
140500000	-1.283218e-001	1.623377e+002	-6.226072e+001	1.872807e+001	-5.888215e+001	3.010507e+001	-1.279942e-001	1.619377e+002
145000000	-1.413122e-001	1.618704e+002	-6.999970e+001	8.572708e+000	-6.749882e+001	-5.491076e+001	-1.375899e-001	1.613792e+002
149500000	-1.185375e-001	1.610853e+002	-5.998304e+001	4.631963e+001	-6.338509e+001	1.545394e+002	-1.441278e-001	1.607890e+002
154000000	-1.376155e-001	1.606200e+002	-6.190652e+001	-7.110175e+001	-7.600605e+001	-3.155686e+001	-1.574441e-001	1.601757e+002
158500000	-1.284502e-001	1.600097e+002	-5.840065e+001	5.110412e+001	-7.606779e+001	1.594084e+002	-1.344025e-001	1.596752e+002
163000000	-1.364122e-001	1.594768e+002	-6.897837e+001	-3.949279e+001	-6.983120e+001	6.998028e+001	-1.389222e-001	1.589839e+002
167500000	-1.287604e-001	1.587471e+002	-6.387707e+001	-1.470522e+002	-6.516689e+001	4.697123e+001	-1.282947e-001	1.584179e+002
172000000	-1.519160e-001	1.581626e+002	-6.306185e+001	-1.389520e+002	-7.312736e+001	-5.967201e+001	-1.319694e-001	1.578765e+002
176500000	-1.483155e-001	1.576887e+002	-6.913985e+001	8.075151e+001	-6.717126e+001	8.546685e+000	-1.369185e-001	1.573076e+002
181000000	-1.526913e-001	1.570342e+002	-6.907324e+001	6.597470e+001	-6.122915e+001	1.185518e+002	-1.502156e-001	1.566231e+002
185500000	-1.490293e-001	1.564393e+002	-5.781054e+001	-1.724952e+001	-6.252779e+001	1.028464e+002	-1.364642e-001	1.560730e+002
190000000	-1.507550e-001	1.559012e+002	-6.591493e+001	-5.208975e+001	-6.352750e+001	4.591279e+001	-1.485785e-001	1.554251e+002
194500000	-1.517894e-001	1.550909e+002	-6.133423e+001	-8.016251e+001	-7.201388e+001	-1.094186e+002	-1.305259e-001	1.548200e+002
199000000	-1.688733e-001	1.545250e+002	-6.300899e+001	-8.013476e+001	-5.901305e+001	-8.151166e+001	-1.594281e-001	1.542190e+002
203500000	-1.598680e-001	1.540586e+002	-6.178015e+001	-1.220163e+002	-6.920876e+001	-1.255114e+002	-1.793647e-001	1.536462e+002
208000000	-1.555374e-001	1.535461e+002	-7.312222e+001	-1.662350e+002	-5.757040e+001	7.946456e+001	-1.531486e-001	1.530759e+002
212500000	-1.633927e-001	1.527310e+002	-6.520510e+001	-1.058753e+002	-7.453137e+001	-8.804559e+001	-1.444379e-001	1.526292e+002
217000000	-1.671339e-001	1.520218e+002	-6.642276e+001	-1.682719e+002	-5.892840e+001	8.469900e+001	-1.835080e-001	1.519973e+002
221500000	-1.704651e-001	1.517615e+002	-6.243479e+001	-1.240307e+002	-6.665825e+001	1.398574e+002	-1.809063e-001	1.512079e+002
226000000	-1.705405e-001	1.508721e+002	-6.086463e+001	-7.560384e+001	-7.217049e+001	7.469170e+001	-1.670718e-001	1.505158e+002
230500000	-1.791187e-001	1.501726e+002	-5.700402e+001	-1.081158e+002	-5.789781e+001	-5.051357e+001	-1.672673e-001	1.499323e+002
235000000	-2.253120e-001	1.495992e+002	-6.058598e+001	1.266901e+001	-6.155584e+001	9.642356e+001	-1.626515e-001	1.492258e+002
239500000	-1.725720e-001	1.488448e+002	-6.327547e+001	-9.277080e+001	-7.631072e+001	4.338979e+001	-2.143050e-001	1.486465e+002
244000000	-1.665237e-001	1.481955e+002	-6.128129e+001	-8.914548e+001	-6.809206e+001	-1.275199e+002	-1.984292e-001	1.480697e+002
248500000	-2.210681e-001	1.477415e+002	-6.304975e+001	-3.936612e+001	-5.096173e+001	4.909925e+001	-2.117474e-001	1.474166e+002
253000000	-1.680041e-001	1.469218e+002	-5.776594e+001	-9.668487e+001	-6.175623e+001	1.338921e+002	-1.941464e-001	1.466861e+002
257500000	-1.771759e-001	1.464317e+002	-6.101280e+001	-1.061856e+002	-6.189419e+001	5.737992e+001	-1.850418e-001	1.459783e+002
262000000	-1.979318e-001	1.455336e+002	-5.322885e+001	-9.003353e+001	-5.826085e+001	9.338977e+001	-2.266706e-001	1.453559e+002
266500000	-1.961382e-001	1.447285e+002	-5.301320e+001	-1.206034e+002	-5.392234e+001	-2.667241e+001	-2.131837e-001	1.447472e+002
271000000	-1.763001e-001	1.444423e+002	-5.402310e+001	-9.446388e+001	-6.870254e+001	3.685610e+001	-2.168086e-001	1.438864e+002
275500000	-1.766582e-001	1.436142e+002	-5.086248e+001	-9.541235e+001	-6.894303e+001	9.060750e+001	-2.316729e-001	1.432370e+002
280000000	-1.749715e-001	1.430399e+002	-4.843294e+001	-1.068576e+002	-6.576434e+001	-1.193064e+002	-2.247015e-001	1.425435e+002
284500000	-1.732052e-001	1.426778e+002	-4.951762e+001	-1.069055e+002	-5.494511e+001	-1.310192e+002	-2.435642e-001	1.418531e+002
289000000	-1.935217e-001	1.417492e+002	-4.733113e+001	-1.066026e+002	-5.665845e+001	-9.814190e+001	-2.287954e-001	1.410702e+002
293500000	-1.825019e-001	1.409134e+002	-4.702035e+001	-1.030463e+002	-6.010310e+001	1.763796e+002	-2.274910e-001	1.403602e+002
298000000	-1.968680e-001	1.404601e+002	-4.412195e+001	-1.041729e+002	-6.316378e+001	-3.119980e+000	-2.134812e-001	1.396980e+002
302500000	-2.015593e-001	1.394386e+002	-4.566145e+001	-9.966325e+001	-5.807633e+001	1.543714e+002	-2.172134e-001	1.388245e+002
307000000	-2.049352e-001	1.391237e+002	-4.183983e+001	-1.216005e+002	-6.287220e+001	-1.593246e+001	-2.336780e-001	1.381091e+002
311500000	-2.245346e-001	1.380130e+002	-4.313524e+001	-1.101870e+002	-5.664884e+001	-1.676972e+002	-2.498297e-001	1.372319e+002
316000000	-2.271986e-001	1.372695e+002	-4.146932e+001	-1.117145e+002	-6.441213e+001	-1.614876e+002	-2.776538e-001	1.364217e+002
320500000	-2.242686e-001	1.364948e+002	-3.937037e+001	-1.176975e+002	-5.471994e+001	-1.076980e+002	-2.640765e-001	1.356654e+002
325000000	-2.395174e-001	1.357096e+002	-3.923588e+001	-1.185737e+002	-5.886047e+001	1.764154e+002	-2.753323e-001	1.348918e+002
329500000	-2.364280e-001	1.349199e+002	-3.796017e+001	-1.192312e+002	-6.427453e+001	-1.590354e+002	-3.051803e-001	1.340572e+002
334000000	-2.300101e-001	1.340611e+002	-3.626634e+001	-1.180014e+002	-5.712960e+001	-1.180712e+002	-3.077720e-001	1.332251e+002
338500000	-2.173043e-001	1.330643e+002	-3.477342e+001	-1.189124e+002	-5.050594e+001	1.192127e+002	-3.373873e-001	1.323500e+002
343000000	-2.529278e-001	1.323472e+002	-3.441326e+001	-1.238866e+002	-6.089789e+001	1.276636e+002	-3.289880e-001	1.314261e+002
347500000	-2.650266e-001	1.313910e+002	-3.307162e+001	-1.258110e+002	-5.665594e+001	1.797613e+002	-3.585751e-001	1.303220e+002
352000000	-2.824783e-001	1.304530e+002	-3.148740e+001	-1.296821e+002	-5.348863e+001	-1.778164e+002	-3.606116e-001	1.294457e+002
356500000	-2.944447e-001	1.294877e+002	-3.079218e+001	-1.317848e+002	-4.855292e+001	1.508443e+002	-3.945452e-001	1.284810e+002
361000000	-3.028380e-001	1.283574e+002	-2.886208e+001	-1.323671e+002	-4.594213e+001	-1.176267e+002	-4.053869e-001	1.275012e+002
365500000	-2.875956e-001	1.278425e+002	-2.851448e+001	-1.384319e+002	-4.201353e+001	4.512958e+001	-4.435217e-001	1.263244e+002
370000000	-3.383212e-001	1.263568e+002	-2.628576e+001	-1.385345e+002	-4.874187e+001	-1.750019e+002	-4.971197e-001	1.251980e+002
374500000	-3.638398e-001	1.251517e+002	-2.534257e+001	-1.391339e+002	-4.918923e+001	-1.663095e+002	-5.426625e-001	1.242223e+002
379000000	-3.683994e-001	1.241273e+002	-2.370465e+001	-1.436683e+002	-4.714810e+001	1.676376e+002	-6.026190e-001	1.227955e+002
383500000	-4.112955e-001	1.229387e+002	-2.176504e+001	-1.484672e+002	-4.566500e+001	1.723429e+002	-6.825313e-001	1.212248e+002
388000000	-4.263730e-001	1.213890e+002	-2.092730e+001	-1.498710e+002	-4.503881e+001	1.624250e+002	-7.558818e-001	1.202882e+002
392500000	-4.528467e-001	1.200326e+002	-1.953807e+001	-1.531266e+002	-4.108141e+001	1.603382e+002	-8.905291e-001	1.186205e+002
397000000	-5.146788e-001	1.181160e+002	-1.735596e+001	-1.584373e+002	-4.138071e+001	1.506636e+002	-1.009042e+000	1.167653e+002
401500000	-5.444130e-001	1.166342e+002	-1.532150e+001	-1.645233e+002	-3.846087e+001	1.436042e+002	-1.206341e+000	1.149134e+002
406000000	-6.626662e-001	1.147280e+002	-1.440421e+001	-1.711582e+002	-3.651565e+001	1.446596e+002	-1.400829e+000	1.136367e+002
410500000	-7.329562e-001	1.125242e+002	-1.194483e+001	-1.774957e+002	-3.446141e+001	1.320100e+002	-1.686246e+000	1.117262e+002
415000000	-8.399102e-001	1.097694e+002	-9.805521e+000	1.748755e+002	-3.168003e+001	1.423983e+002	-2.144743e+000	1.090385e+002
419500000	-1.156100e+000	1.076148e+002	-7.704231e+000	1.633047e+002	-3.078052e+001	1.188331e+002	-2.699988e+000	1.090040e+002
424000000	-1.508191e+000	1.048543e+002	-5.497111e+000	1.486025e+002	-2.845682e+001	1.092613e+002	-3.358217e+000	1.089881e+002
428500000	-1.943598e+000	1.019693e+002	-3.731272e+000	1.357647e+002	-2.689381e+001	9.562695e+001	-4.163604e+000	1.103522e+002
433000000	-2.705444e+000	9.949002e+001	-1.533675e+000	1.200235e+002	-2.518255e+001	8.350936e+001	-5.032180e+000	1.155715e+002
437500000	-3.757107e+000	9.904042e+001	9.172327e-002	1.038774e+002	-2.383813e+001	6.519852e+001	-5.198026e+000	1.222579e+002
442000000	-4.631991e+000	1.038355e+002	8.505892e-001	8.503587e+001	-2.298387e+001	5.893398e+001	-4.708919e+000	1.266283e+002
446500000	-5.384279e+000	1.065793e+002	1.008831e+000	7.147483e+001	-2.386931e+001	3.497917e+001	-4.314158e+000	1.316120e+002
451000000	-5.370255e+000	1.084668e+002	6.944466e-001	5.410948e+001	-2.187422e+001	2.228884e+001	-3.492243e+000	1.332882e+002
455500000	-5.601860e+000	1.117619e+002	2.454920e-001	4.253434e+001	-2.170295e+001	7.640731e+000	-2.953608e+000	1.328690e+002
460000000	-5.924517e+000	1.127969e+002	-1.403201e-001	3.023861e+001	-2.162454e+001	-5.175275e+000	-2.555549e+000	1.306269e+002
464500000	-6.117751e+000	1.120557e+002	-6.648089e-001	1.868712e+001	-2.208703e+001	-1.905946e+001	-2.248862e+000	1.285558e+002
469000000	-6.716052e+000	1.159985e+002	-8.451735e-001	7.976437e+000	-2.195784e+001	-3.154026e+001	-2.089442e+000	1.277286e+002
473500000	-6.796294e+000	1.192765e+002	-7.981075e-001	-2.636040e+000	-2.257308e+001	-4.081334e+001	-2.094135e+000	1.254700e+002
478000000	-7.057731e+000	1.270519e+002	-1.313771e+000	-1.140343e+001	-2.300127e+001	-5.173784e+001	-2.072309e+000	1.243861e+002
482500000	-6.231767e+000	1.319646e+002	-1.424762e+000	-2.015234e+001	-2.348026e+001	-6.305620e+001	-1.993872e+000	1.239727e+002
487000000	-6.092515e+000	1.377511e+002	-2.474454e+000	-2.801141e+001	-2.393382e+001	-6.907106e+001	-2.034936e+000	1.227168e+002
491500000	-5.130910e+000	1.380007e+002	-2.368851e+000	-3.548623e+001	-2.454961e+001	-7.842731e+001	-2.009340e+000	1.222997e+002
496000000	-4.334189e+000	1.393181e+002	-3.232145e+000	-4.093173e+001	-2.528550e+001	-8.599745e+001	-1.936285e+000	1.221097e+002
500500000	-4.037650e+000	1.389761e+002	-3.716364e+000	-4.932359e+001	-2.522462e+001	-8.989905e+001	-1.941520e+000	1.209082e+002
505000000	-3.322731e+000	1.378797e+002	-4.320056e+000	-5.335058e+001	-2.595865e+001	-9.305763e+001	-1.921250e+000	1.206941e+002
509500000	-3.045281e+000	1.387624e+002	-5.422965e+000	-6.062723e+001	-2.634064e+001	-1.041606e+002	-1.827377e+000	1.205739e+002
514000000	-2.709770e+000	1.360774e+002	-5.480236e+000	-6.330474e+001	-2.705341e+001	-1.066666e+002	-1.832949e+000	1.194297e+002
518500000	-2.452563e+000	1.356511e+002	-6.168554e+000	-6.975943e+001	-2.717027e+001	-1.109757e+002	-1.797021e+000	1.190278e+002
523000000	-2.168080e+000	1.332051e+002	-6.708082e+000	-7.079517e+001	-2.802104e+001	-1.159792e+002	-1.708700e+000	1.185964e+002
527500000	-2.041888e+000	1.324187e+002	-6.968745e+000	-7.735165e+001	-2.885398e+001	-1.193771e+002	-1.634439e+000	1.177012e+002
532000000	-1.817181e+000	1.311705e+002	-8.116682e+000	-7.854528e+001	-2.812958e+001	-1.190932e+002	-1.643287e+000	1.172042e+002
536500000	-1.703315e+000	1.295050e+002	-8.038350e+000	-8.215553e+001	-2.748198e+001	-1.298334e+002	-1.579093e+000	1.161633e+002
541000000	-1.628992e+000	1.284335e+002	-8.589273e+000	-8.715937e+001	-3.026810e+001	-1.285322e+002	-1.524347e+000	1.155720e+002
545500000	-1.440172e+000	1.267915e+002	-9.049041e+000	-8.630299e+001	-2.853537e+001	-1.283850e+002	-1.518487e+000	1.147691e+002
550000000	-1.436836e+000	1.259700e+002	-9.123905e+000	-9.207823e+001	-2.953041e+001	-1.361129e+002	-1.410669e+000	1.141905e+002
554500000	-1.314911e+000	1.247591e+002	-9.392072e+000	-9.481848e+001	-3.042109e+001	-1.360590e+002	-1.415574e+000	1.133845e+002
559000000	-1.331571e+000	1.235198e+002	-9.733086e+000	-9.718580e+001	-3.027377e+001	-1.400209e+002	-1.395610e+000	1.126254e+002
563500000	-1.256399e+000	1.227164e+002	-1.011101e+001	-9.861383e+001	-3.089985e+001	-1.412058e+002	-1.394976e+000	1.120361e+002
568000000	-9.927186e-001	1.211607e+002	-1.032095e+001	-9.984243e+001	-2.763909e+001	-1.515388e+002	-1.375980e+000	1.110502e+002
572500000	-1.355925e+000	1.194525e+002	-1.050113e+001	-1.030617e+002	-2.596136e+001	-1.292145e+002	-1.349967e+000	1.102984e+002
577000000	-1.115872e+000	1.194918e+002	-1.091483e+001	-1.057791e+002	-3.459112e+001	-1.266747e+002	-1.297111e+000	1.093413e+002
581500000	-1.092713e+000	1.180578e+002	-1.095485e+001	-1.060636e+002	-3.069532e+001	-1.506368e+002	-1.340374e+000	1.082471e+002
586000000	-1.066227e+000	1.170697e+002	-1.115139e+001	-1.067370e+002	-3.111062e+001	-1.530452e+002	-1.311107e+000	1.072852e+002
590500000	-1.027006e+000	1.160536e+002	-1.132450e+001	-1.089748e+002	-3.110752e+001	-1.545957e+002	-1.323699e+000	1.063901e+002
595000000	-1.005725e+000	1.148064e+002	-1.163669e+001	-1.104835e+002	-3.091541e+001	-1.576035e+002	-1.313185e+000	1.055686e+002
599500000	-9.732487e-001	1.140303e+002	-1.161372e+001	-1.124551e+002	-3.108502e+001	-1.593057e+002	-1.225867e+000	1.046921e+002
604000000	-9.538260e-001	1.129113e+002	-1.176220e+001	-1.134293e+002	-3.126682e+001	-1.633549e+002	-1.204059e+000	1.038829e+002
608500000	-9.180961e-001	1.117562e+002	-1.200939e+001	-1.158498e+002	-3.135706e+001	-1.641914e+002	-1.201231e+000	1.030681e+002
613000000	-9.323858e-001	1.108133e+002	-1.228394e+001	-1.184280e+002	-3.123423e+001	-1.655113e+002	-1.211922e+000	1.021723e+002
617500000	-8.964169e-001	1.102995e+002	-1.254306e+001	-1.207971e+002	-3.115906e+001	-1.676500e+002	-1.230987e+000	1.013489e+002
622000000	-8.582703e-001	1.093292e+002	-1.288201e+001	-1.236279e+002	-3.117868e+001	-1.698232e+002	-1.228241e+000	1.003160e+002
626500000	-8.317714e-001	1.082772e+002	-1.285340e+001	-1.251187e+002	-3.081593e+001	-1.703117e+002	-1.213775e+000	9.950083e+001
631000000	-8.544754e-001	1.073503e+002	-1.264607e+001	-1.282628e+002	-3.106011e+001	-1.707504e+002	-1.223664e+000	9.843493e+001
635500000	-9.059676e-001	1.065772e+002	-1.243778e+001	-1.301860e+002	-3.101089e+001	-1.742653e+002	-1.227359e+000	9.775038e+001
640000000	-8.791028e-001	1.054669e+002	-1.227003e+001	-1.318987e+002	-3.126435e+001	-1.747177e+002	-1.213361e+000	9.671370e+001
644500000	-8.697804e-001	1.045297e+002	-1.231251e+001	-1.329649e+002	-3.104225e+001	-1.777393e+002	-1.230631e+000	9.572559e+001
649000000	-8.718512e-001	1.036676e+002	-1.257485e+001	-1.339997e+002	-3.100851e+001	-1.766607e+002	-1.248858e+000	9.478258e+001
653500000	-8.634845e-001	1.027105e+002	-1.247632e+001	-1.357557e+002	-3.126411e+001	1.750691e+002	-1.226384e+000	9.394497e+001
658000000	-8.836218e-001	1.018574e+002	-1.247708e+001	-1.370916e+002	-3.207696e+001	1.756520e+002	-1.157073e+000	9.306344e+001
662500000	-8.350630e-001	1.010645e+002	-1.264738e+001	-1.382066e+002	-3.015122e+001	1.771769e+002	-1.178400e+000	9.196688e+001
667000000	-8.234452e-001	9.977585e+001	-1.266768e+001	-1.384984e+002	-3.087663e+001	1.738661e+002	-1.190196e+000	9.110523e+001
671500000	-8.673899e-001	9.891170e+001	-1.279716e+001	-1.414231e+002	-3.068957e+001	1.773840e+002	-1.186565e+000	9.019295e+001
676000000	-8.580848e-001	9.787930e+001	-1.265464e+001	-1.418818e+002	-3.109205e+001	1.726958e+002	-1.198503e+000	8.923439e+001
680500000	-8.558391e-001	9.711643e+001	-1.273566e+001	-1.431053e+002	-3.094710e+001	1.690225e+002	-1.219357e+000	8.847234e+001
685000000	-8.487331e-001	9.616653e+001	-1.297856e+001	-1.452818e+002	-3.089339e+001	1.688013e+002	-1.215245e+000	8.734841e+001
689500000	-8.201699e-001	9.542353e+001	-1.322786e+001	-1.468233e+002	-3.105816e+001	1.672650e+002	-1.225034e+000	8.635037e+001
694000000	-8.549275e-001	9.461854e+001	-1.334363e+001	-1.487572e+002	-3.084242e+001	1.654454e+002	-1.252135e+000	8.547596e+001
698500000	-8.433116e-001	9.380715e+001	-1.368654e+001	-1.499409e+002	-3.065479e+001	1.650280e+002	-1.282853e+000	8.452551e+001
703000000	-8.304418e-001	9.281941e+001	-1.359434e+001	-1.524980e+002	-3.063519e+001	1.658993e+002	-1.290261e+000	8.352020e+001
707500000	-8.610960e-001	9.180687e+001	-1.347787e+001	-1.540896e+002	-3.044674e+001	1.603509e+002	-1.250317e+000	8.256464e+001
712000000	-8.675342e-001	9.102002e+001	-1.299409e+001	-1.562056e+002	-3.086041e+001	1.574541e+002	-1.229082e+000	8.163376e+001
716500000	-8.963298e-001	9.001152e+001	-1.296653e+001	-1.556228e+002	-3.093936e+001	1.550603e+002	-1.210510e+000	8.051870e+001
721000000	-8.852679e-001	8.907202e+001	-1.293193e+001	-1.586612e+002	-3.030286e+001	1.556063e+002	-1.240002e+000	7.959323e+001
725500000	-9.092528e-001	8.813368e+001	-1.281450e+001	-1.598563e+002	-3.037063e+001	1.552262e+002	-1.251509e+000	7.857494e+001
730000000	-9.053245e-001	8.712965e+001	-1.266420e+001	-1.593782e+002	-3.066855e+001	1.534126e+002	-1.263513e+000	7.763503e+001
734500000	-9.342108e-001	8.603142e+001	-1.276739e+001	-1.614535e+002	-3.055524e+001	1.520240e+002	-1.284296e+000	7.630662e+001
739000000	-9.539165e-001	8.501429e+001	-1.264607e+001	-1.628036e+002	-2.999723e+001	1.504414e+002	-1.312019e+000	7.537011e+001
743500000	-9.320498e-001	8.461051e+001	-1.247056e+001	-1.646404e+002	-2.903669e+001	1.467634e+002	-1.334205e+000	7.420754e+001
748000000	-9.641333e-001	8.220725e+001	-1.251944e+001	-1.670979e+002	-3.078456e+001	1.598778e+002	-1.348720e+000	7.350812e+001
752500000	-8.210895e-001	8.304973e+001	-1.240821e+001	-1.645843e+002	-2.659654e+001	1.568198e+002	-1.288530e+000	7.217359e+001
757000000	-8.567485e-001	8.112573e+001	-1.202976e+001	-1.681081e+002	-2.957161e+001	1.378091e+002	-1.400257e+000	7.121138e+001
761500000	-9.801254e-001	8.097853e+001	-1.223549e+001	-1.682004e+002	-3.044233e+001	1.511184e+002	-1.324442e+000	7.027696e+001
766000000	-9.575292e-001	7.906419e+001	-1.204278e+001	-1.696483e+002	-2.891985e+001	1.386612e+002	-1.313664e+000	6.887252e+001
770500000	-9.501609e-001	7.790198e+001	-1.205147e+001	-1.729300e+002	-2.883122e+001	1.330506e+002	-1.393913e+000	6.772049e+001
775000000	-9.918709e-001	7.753592e+001	-1.199374e+001	-1.720255e+002	-2.999910e+001	1.392838e+002	-1.365899e+000	6.679216e+001
779500000	-1.049169e+000	7.648759e+001	-1.180508e+001	-1.752982e+002	-2.852727e+001	1.350840e+002	-1.433754e+000	6.540172e+001
784000000	-1.003535e+000	7.563608e+001	-1.224659e+001	-1.757443e+002	-2.829174e+001	1.370985e+002	-1.438700e+000	6.486907e+001
788500000	-1.078910e+000	7.411208e+001	-1.234274e+001	-1.788646e+002	-2.780514e+001	1.420034e+002	-1.490561e+000	6.353416e+001
