!Agilent Technologies,E5071C,MY46101273,A.11.02
!Date: Mon Oct 30 14:26:43 2017
!Data & Calibration Information:
!Freq	S11:SOLT1(ON)	S21:NONE(--)	S12:NONE(--)	S22:SOLT1(ON)
!PortZ  Port1:50+j0    Port2:50+j0
!Above PortZ is port z conversion or system Z0 setting when saving the data.
!When reading, reference impedance value at option line is always used.
# Hz S dB R 50
1000000	-4.022674e-002	1.797404e+002	-5.301620e+001	-1.178581e+000	-5.348619e+001	1.116216e+001	-1.082999e-001	1.675551e+002
5995000	-5.403580e-002	1.788657e+002	-5.628356e+001	-3.537296e+001	-5.232030e+001	-3.861662e+001	-1.560308e+000	1.153298e+002
10990000	-6.460475e-002	1.782300e+002	-5.501229e+001	-5.675819e+001	-5.536181e+001	-5.441577e+001	-3.359006e+000	7.675909e+001
15985000	-6.411114e-002	1.776749e+002	-5.649306e+001	-7.043378e+001	-5.652441e+001	-6.428900e+001	-4.538038e+000	4.871262e+001
20980000	-4.810890e-002	1.772307e+002	-5.674986e+001	-8.910624e+001	-5.616419e+001	-8.586007e+001	-5.736475e+000	2.600822e+001
25975000	-6.075177e-002	1.765283e+002	-6.635670e+001	-1.128112e+002	-6.245865e+001	-1.154024e+002	-7.587360e+000	3.638171e+001
30970000	-6.866539e-002	1.758308e+002	-6.302468e+001	-1.074878e+002	-6.206568e+001	-9.848587e+001	-5.738196e+000	1.742700e+001
35965000	-7.239678e-002	1.752193e+002	-6.310132e+001	-1.101118e+002	-6.449732e+001	-1.162624e+002	-5.598592e+000	3.539788e+000
40960000	-7.346671e-002	1.746151e+002	-6.155569e+001	-1.328130e+002	-6.287791e+001	-1.218523e+002	-5.397918e+000	-9.286279e+000
45955000	-8.253379e-002	1.740521e+002	-6.299465e+001	-1.455795e+002	-6.366822e+001	-1.480015e+002	-5.384974e+000	-2.073382e+001
50950000	-7.905998e-002	1.733941e+002	-5.982146e+001	-1.772543e+002	-6.327390e+001	-1.609476e+002	-5.531356e+000	-3.094991e+001
55945000	-7.152526e-002	1.727157e+002	-6.159095e+001	-1.721311e+002	-6.165986e+001	-1.758736e+002	-5.862769e+000	-3.973382e+001
60940000	-7.039947e-002	1.720416e+002	-6.139601e+001	1.721956e+002	-6.129691e+001	1.576628e+002	-6.980969e+000	-4.743025e+001
65935000	-7.230942e-002	1.715049e+002	-6.197241e+001	1.086432e+002	-7.098291e+001	1.241916e+002	-6.946040e+000	-4.222810e+001
70930000	-7.341161e-002	1.708502e+002	-7.960936e+001	9.382693e+001	-7.543382e+001	1.015976e+002	-5.717974e+000	-4.456947e+001
75925000	-7.773228e-002	1.702584e+002	-6.827211e+001	1.675407e+002	-7.196543e+001	8.729793e+001	-5.159640e+000	-5.184543e+001
80920000	-7.875509e-002	1.696348e+002	-8.260721e+001	9.372090e+001	-7.216202e+001	1.500694e+002	-4.935818e+000	-5.867153e+001
85915000	-7.876679e-002	1.689789e+002	-7.930677e+001	7.948527e+001	-7.610527e+001	1.224581e+002	-4.775360e+000	-6.421469e+001
90910000	-9.602791e-002	1.683772e+002	-7.540449e+001	9.305149e+001	-7.048589e+001	1.157070e+002	-4.550892e+000	-6.912501e+001
95905000	-8.671683e-002	1.677505e+002	-7.213742e+001	8.936156e+001	-7.670723e+001	1.418835e+002	-4.359631e+000	-7.476858e+001
100900000	-8.517677e-002	1.671381e+002	-7.158509e+001	8.304486e+001	-6.987861e+001	1.057834e+002	-4.290798e+000	-8.022850e+001
105895000	-8.571122e-002	1.665386e+002	-7.216981e+001	-1.567353e+002	-7.788121e+001	8.129488e+001	-4.164689e+000	-8.353809e+001
110890000	-8.367317e-002	1.659200e+002	-8.263239e+001	9.289620e+001	-7.590908e+001	5.022409e+001	-4.001362e+000	-8.782341e+001
115885000	-8.305848e-002	1.652125e+002	-6.747256e+001	-6.247000e+001	-7.081515e+001	-1.016019e+001	-3.847352e+000	-9.183940e+001
120880000	-9.019670e-002	1.646505e+002	-7.510633e+001	-3.095890e+001	-7.743845e+001	-6.329008e+001	-3.692959e+000	-9.592720e+001
125875000	-8.247586e-002	1.640044e+002	-7.785493e+001	1.021084e+002	-7.716824e+001	-4.220027e+001	-3.631366e+000	-9.971527e+001
130870000	-9.111694e-002	1.633741e+002	-7.286362e+001	1.065106e+001	-7.186579e+001	-6.056167e+001	-3.529946e+000	-1.032550e+002
135865000	-9.173293e-002	1.626782e+002	-7.224666e+001	-8.381631e+001	-7.931500e+001	4.068231e+001	-3.378859e+000	-1.062708e+002
140860000	-8.374968e-002	1.620458e+002	-7.514855e+001	-1.112582e+002	-7.579577e+001	1.660855e+002	-3.194424e+000	-1.099916e+002
145855000	-8.048020e-002	1.613716e+002	-6.919531e+001	8.147182e+001	-7.698803e+001	-3.638563e+001	-3.086628e+000	-1.135528e+002
150850000	-7.755138e-002	1.607850e+002	-8.192840e+001	1.310821e+002	-7.794091e+001	-1.408417e+002	-3.014898e+000	-1.168872e+002
155845000	-8.223099e-002	1.601486e+002	-7.717101e+001	1.555633e+002	-7.077089e+001	1.767957e+002	-2.937712e+000	-1.202244e+002
160840000	-7.744816e-002	1.594906e+002	-7.317122e+001	1.534662e+002	-6.891732e+001	9.554550e+001	-2.921046e+000	-1.237145e+002
165835000	-7.754519e-002	1.588087e+002	-8.520344e+001	5.814455e+001	-7.793532e+001	1.260959e+002	-2.897176e+000	-1.259822e+002
170830000	-7.312470e-002	1.581761e+002	-7.072171e+001	1.025886e+002	-7.100688e+001	1.703053e+002	-2.800534e+000	-1.287174e+002
175825000	-7.036025e-002	1.575137e+002	-7.537911e+001	1.694393e+002	-6.935818e+001	1.518459e+002	-2.676008e+000	-1.312148e+002
180820000	-6.804331e-002	1.568680e+002	-6.970462e+001	1.010507e+002	-7.180586e+001	1.190276e+002	-2.607052e+000	-1.343002e+002
185815000	-6.766958e-002	1.561831e+002	-6.725516e+001	9.329272e+001	-7.079511e+001	1.325292e+002	-2.472864e+000	-1.368237e+002
190810000	-6.798058e-002	1.555015e+002	-6.614147e+001	1.090496e+002	-6.695311e+001	1.366558e+002	-2.389236e+000	-1.397937e+002
195805000	-5.640960e-002	1.548140e+002	-6.563128e+001	8.112459e+001	-6.675672e+001	1.179484e+002	-2.348029e+000	-1.426281e+002
200800000	-5.750111e-002	1.541545e+002	-6.832781e+001	8.072434e+001	-6.479642e+001	9.161519e+001	-2.272829e+000	-1.452963e+002
205795000	-5.521507e-002	1.534469e+002	-6.251614e+001	6.219462e+001	-6.487143e+001	8.632335e+001	-2.192208e+000	-1.483286e+002
210790000	-5.395227e-002	1.527035e+002	-6.155772e+001	6.366085e+001	-6.254949e+001	4.455429e+001	-2.160653e+000	-1.515534e+002
215785000	-4.844320e-002	1.520258e+002	-5.974387e+001	3.324922e+001	-6.165346e+001	5.131944e+001	-2.212507e+000	-1.548941e+002
220780000	-5.540130e-002	1.513548e+002	-5.842016e+001	1.379323e+001	-6.335485e+001	2.869564e+001	-2.339772e+000	-1.577480e+002
225775000	-4.885346e-002	1.506679e+002	-5.787906e+001	2.448055e+000	-5.942978e+001	2.287125e+001	-2.481636e+000	-1.599750e+002
230770000	-2.669267e-002	1.498684e+002	-5.630003e+001	-1.632977e+001	-5.897790e+001	4.772243e+001	-2.363993e+000	-1.621582e+002
235765000	-2.010013e-002	1.492335e+002	-5.555835e+001	-3.744414e+001	-5.376810e+001	-1.866855e+001	-2.407359e+000	-1.661740e+002
240760000	-2.580155e-002	1.484439e+002	-5.415836e+001	-3.269967e+001	-5.752871e+001	-1.228865e+001	-2.679412e+000	-1.709535e+002
245755000	-1.569992e-002	1.477067e+002	-5.236677e+001	-5.358813e+001	-5.540366e+001	-4.164741e+001	-3.445955e+000	-1.749710e+002
250750000	-1.727015e-002	1.469475e+002	-4.974917e+001	-7.645004e+001	-5.427887e+001	-5.457554e+001	-4.777296e+000	-1.747968e+002
255745000	-6.632996e-003	1.462202e+002	-4.964462e+001	-9.650779e+001	-5.438252e+001	-9.137948e+001	-5.198469e+000	-1.652799e+002
260740000	-4.007227e-003	1.454534e+002	-4.943649e+001	-1.151078e+002	-5.431956e+001	-1.160442e+002	-4.503768e+000	-1.619626e+002
265735000	-4.563487e-003	1.445963e+002	-4.905410e+001	-1.287546e+002	-5.339702e+001	-1.337286e+002	-3.913750e+000	-1.605889e+002
270730000	1.131381e-002	1.439833e+002	-4.865258e+001	-1.499389e+002	-5.594911e+001	-1.622490e+002	-3.199699e+000	-1.616273e+002
275725000	1.448971e-002	1.431162e+002	-4.926427e+001	-1.563156e+002	-5.784145e+001	-1.770270e+002	-2.734211e+000	-1.643243e+002
280720000	2.703336e-002	1.423695e+002	-4.821532e+001	-1.709140e+002	-5.916454e+001	1.785261e+002	-2.436346e+000	-1.675444e+002
285715000	2.476113e-002	1.415095e+002	-4.810205e+001	1.797404e+002	-5.844256e+001	-1.723327e+002	-2.291110e+000	-1.706284e+002
290710000	3.183541e-002	1.407364e+002	-4.646285e+001	1.733737e+002	-5.998154e+001	1.100253e+002	-2.272847e+000	-1.737059e+002
295705000	3.695152e-002	1.399051e+002	-4.574811e+001	1.663727e+002	-6.031421e+001	1.287914e+002	-2.406551e+000	-1.757200e+002
300700000	5.022190e-002	1.391012e+002	-4.437862e+001	1.559464e+002	-6.502847e+001	8.966649e+001	-2.420584e+000	-1.765234e+002
305695000	7.050740e-002	1.381793e+002	-4.289587e+001	1.486032e+002	-6.555432e+001	7.180002e+001	-2.185017e+000	-1.774426e+002
310690000	5.414152e-002	1.373603e+002	-4.185922e+001	1.388088e+002	-6.066865e+001	1.051868e+002	-2.092302e+000	1.793595e+002
315685000	5.245309e-002	1.364497e+002	-4.042071e+001	1.292104e+002	-6.149714e+001	9.411446e+001	-2.165891e+000	1.785671e+002
320680000	6.370254e-002	1.355264e+002	-3.895226e+001	1.187111e+002	-6.142830e+001	8.372574e+001	-1.974693e+000	1.771048e+002
325675000	6.367462e-002	1.346164e+002	-3.760788e+001	1.084799e+002	-5.971629e+001	8.189744e+001	-1.892853e+000	1.752025e+002
330670000	7.095407e-002	1.336938e+002	-3.622162e+001	9.797867e+001	-6.021907e+001	5.102805e+001	-1.787564e+000	1.734617e+002
335665000	6.837367e-002	1.327260e+002	-3.503452e+001	8.762593e+001	-5.935688e+001	5.956730e+001	-1.658531e+000	1.716434e+002
340660000	7.319494e-002	1.317243e+002	-3.369676e+001	7.747991e+001	-5.219684e+001	-1.654471e+001	-1.542380e+000	1.694430e+002
345655000	7.412131e-002	1.306307e+002	-3.217328e+001	6.499399e+001	-5.518434e+001	3.716073e+001	-1.461952e+000	1.670992e+002
350650000	8.359160e-002	1.295469e+002	-3.070293e+001	5.463986e+001	-5.569053e+001	5.939735e+000	-1.418215e+000	1.648179e+002
355645000	6.849896e-002	1.284750e+002	-2.945878e+001	4.249983e+001	-5.437752e+001	-3.130770e+000	-1.388469e+000	1.626234e+002
360640000	7.617689e-002	1.272715e+002	-2.783639e+001	3.128962e+001	-5.546276e+001	3.124825e+000	-1.354754e+000	1.602688e+002
365635000	5.644323e-002	1.261120e+002	-2.635956e+001	1.909364e+001	-4.748038e+001	1.129898e+001	-1.346816e+000	1.579220e+002
370630000	7.517224e-002	1.248163e+002	-2.500804e+001	7.756870e+000	-4.858695e+001	-3.341466e+001	-1.340428e+000	1.555041e+002
375625000	6.170851e-002	1.235053e+002	-2.349783e+001	-3.884206e+000	-4.769047e+001	-4.646378e+001	-1.342392e+000	1.529197e+002
380620000	5.234770e-002	1.220410e+002	-2.194698e+001	-1.589782e+001	-4.592869e+001	-5.541864e+001	-1.374262e+000	1.502849e+002
385615000	3.491780e-002	1.204483e+002	-2.030852e+001	-2.831483e+001	-4.404347e+001	-7.083199e+001	-1.437733e+000	1.474563e+002
390610000	1.805734e-002	1.187402e+002	-1.860214e+001	-4.083636e+001	-4.232519e+001	-8.443089e+001	-1.535909e+000	1.445179e+002
395605000	-1.654972e-002	1.168732e+002	-1.686482e+001	-5.404370e+001	-4.009719e+001	-9.827797e+001	-1.657847e+000	1.415159e+002
400600000	-7.172276e-002	1.149019e+002	-1.498868e+001	-6.819871e+001	-3.828890e+001	-1.094294e+002	-1.868996e+000	1.382386e+002
405595000	-1.374956e-001	1.126162e+002	-1.301242e+001	-8.330250e+001	-3.658362e+001	-1.256419e+002	-2.161525e+000	1.348658e+002
410590000	-2.516003e-001	1.100542e+002	-1.087976e+001	-9.992851e+001	-3.432616e+001	-1.424645e+002	-2.582037e+000	1.313406e+002
415585000	-4.195829e-001	1.072324e+002	-8.681926e+000	-1.184980e+002	-3.219368e+001	-1.582304e+002	-3.251207e+000	1.279744e+002
420580000	-7.181169e-001	1.040522e+002	-6.331411e+000	-1.401550e+002	-3.028956e+001	-1.786715e+002	-4.098381e+000	1.261100e+002
425575000	-1.166984e+000	1.009736e+002	-4.228315e+000	-1.630731e+002	-2.838088e+001	1.610039e+002	-5.328470e+000	1.259646e+002
430570000	-1.875724e+000	9.780416e+001	-1.977056e+000	1.734848e+002	-2.670107e+001	1.387367e+002	-6.471979e+000	1.304488e+002
435565000	-2.799881e+000	9.673506e+001	-3.994545e-001	1.474745e+002	-2.522294e+001	1.154892e+002	-7.187922e+000	1.392841e+002
440560000	-3.731888e+000	9.824562e+001	5.450737e-001	1.212206e+002	-2.395312e+001	9.117192e+001	-6.891164e+000	1.484492e+002
445555000	-4.425129e+000	1.005860e+002	7.987695e-001	9.647814e+001	-2.279877e+001	6.666170e+001	-5.990234e+000	1.547457e+002
450550000	-4.786707e+000	1.034822e+002	7.032987e-001	7.285184e+001	-2.234050e+001	4.218971e+001	-4.921757e+000	1.562057e+002
455545000	-5.075978e+000	1.054867e+002	3.788350e-001	5.134888e+001	-2.206066e+001	1.752173e+001	-4.077203e+000	1.550217e+002
460540000	-5.521313e+000	1.073991e+002	1.675442e-001	3.056750e+001	-2.204227e+001	-5.431261e+000	-3.528107e+000	1.522727e+002
465535000	-6.025970e+000	1.095593e+002	-9.611104e-002	1.070399e+001	-2.217976e+001	-2.714705e+001	-3.192790e+000	1.494089e+002
470530000	-6.454529e+000	1.131566e+002	-2.663049e-001	-9.101895e+000	-2.240486e+001	-4.855279e+001	-2.997389e+000	1.469511e+002
475525000	-6.709909e+000	1.186228e+002	-3.192052e-001	-2.871473e+001	-2.278237e+001	-6.830211e+001	-2.899741e+000	1.448899e+002
480520000	-6.567525e+000	1.260754e+002	-7.427997e-001	-4.636644e+001	-2.321862e+001	-8.731345e+001	-2.839406e+000	1.429487e+002
485515000	-5.942872e+000	1.322378e+002	-1.269270e+000	-6.354110e+001	-2.373864e+001	-1.055496e+002	-2.785758e+000	1.416660e+002
490510000	-5.137621e+000	1.357075e+002	-1.815414e+000	-8.011538e+001	-2.429583e+001	-1.222596e+002	-2.734052e+000	1.404235e+002
495505000	-4.352068e+000	1.372092e+002	-2.445474e+000	-9.614258e+001	-2.483099e+001	-1.377611e+002	-2.675049e+000	1.393547e+002
500500000	-3.686009e+000	1.372935e+002	-3.096993e+000	-1.113361e+002	-2.531042e+001	-1.539805e+002	-2.602080e+000	1.382404e+002
505495000	-3.100050e+000	1.367121e+002	-3.755120e+000	-1.260582e+002	-2.595884e+001	-1.685917e+002	-2.513571e+000	1.373131e+002
510490000	-2.650113e+000	1.354658e+002	-4.426316e+000	-1.396016e+002	-2.644957e+001	1.781006e+002	-2.427440e+000	1.361661e+002
515485000	-2.284705e+000	1.341312e+002	-5.050851e+000	-1.531910e+002	-2.687761e+001	1.647196e+002	-2.329041e+000	1.349723e+002
520480000	-1.965960e+000	1.325836e+002	-5.674408e+000	-1.660212e+002	-2.732197e+001	1.515133e+002	-2.233666e+000	1.337309e+002
525475000	-1.713611e+000	1.310673e+002	-6.248353e+000	-1.784962e+002	-2.768524e+001	1.389643e+002	-2.149580e+000	1.325046e+002
530470000	-1.482335e+000	1.294139e+002	-6.787080e+000	1.694597e+002	-2.807955e+001	1.273927e+002	-2.069142e+000	1.311793e+002
535465000	-1.300088e+000	1.279706e+002	-7.310370e+000	1.581076e+002	-2.823152e+001	1.120914e+002	-2.010367e+000	1.298497e+002
540460000	-1.145832e+000	1.264845e+002	-7.842519e+000	1.467126e+002	-2.879567e+001	1.032002e+002	-1.940614e+000	1.286097e+002
545455000	-1.012657e+000	1.250756e+002	-8.281897e+000	1.354174e+002	-2.905593e+001	9.168907e+001	-1.859677e+000	1.275461e+002
550450000	-8.812500e-001	1.235207e+002	-8.709787e+000	1.246992e+002	-2.945562e+001	8.123041e+001	-1.768004e+000	1.262163e+002
555445000	-7.898736e-001	1.221258e+002	-8.995737e+000	1.134245e+002	-2.961082e+001	6.965828e+001	-1.680931e+000	1.248656e+002
560440000	-6.860571e-001	1.208066e+002	-9.373671e+000	1.029016e+002	-2.966705e+001	5.829322e+001	-1.602775e+000	1.233385e+002
565435000	-5.986372e-001	1.194787e+002	-9.737385e+000	9.271375e+001	-2.948340e+001	4.539876e+001	-1.541298e+000	1.219349e+002
570430000	-5.552076e-001	1.181658e+002	-9.909528e+000	8.148048e+001	-2.980285e+001	4.453924e+001	-1.489122e+000	1.204465e+002
575425000	-5.050486e-001	1.166227e+002	-1.027376e+001	7.141332e+001	-2.999872e+001	2.478157e+001	-1.436516e+000	1.191125e+002
580420000	-4.328970e-001	1.155289e+002	-1.040743e+001	6.111195e+001	-3.051174e+001	1.597019e+001	-1.378996e+000	1.175968e+002
585415000	-3.818001e-001	1.142636e+002	-1.070998e+001	5.084536e+001	-3.057255e+001	5.895695e+000	-1.327207e+000	1.161315e+002
590410000	-3.361663e-001	1.130356e+002	-1.079860e+001	4.047763e+001	-3.075820e+001	-4.693182e+000	-1.272863e+000	1.146050e+002
595405000	-2.991362e-001	1.118039e+002	-1.101380e+001	3.110564e+001	-3.084336e+001	-1.533922e+001	-1.227523e+000	1.131388e+002
600400000	-2.601039e-001	1.105951e+002	-1.109512e+001	2.055623e+001	-3.092548e+001	-2.527183e+001	-1.181919e+000	1.116981e+002
605395000	-2.236922e-001	1.093089e+002	-1.134112e+001	1.037093e+001	-3.105580e+001	-3.531534e+001	-1.155571e+000	1.102069e+002
610390000	-1.900717e-001	1.081122e+002	-1.143395e+001	2.615600e-001	-3.111185e+001	-4.532814e+001	-1.116568e+000	1.086452e+002
615385000	-1.552745e-001	1.069560e+002	-1.156765e+001	-9.274631e+000	-3.114309e+001	-5.539110e+001	-1.077163e+000	1.071797e+002
620380000	-1.124408e-001	1.057510e+002	-1.170945e+001	-2.016800e+001	-3.124756e+001	-6.513101e+001	-1.039047e+000	1.057535e+002
625375000	-9.323730e-002	1.044949e+002	-1.178327e+001	-2.948532e+001	-3.113639e+001	-7.505750e+001	-1.009511e+000	1.043411e+002
630370000	-8.084486e-002	1.033692e+002	-1.186191e+001	-3.925463e+001	-3.124567e+001	-8.494510e+001	-9.741061e-001	1.028298e+002
635365000	-4.191728e-002	1.021767e+002	-1.193526e+001	-4.985269e+001	-3.129169e+001	-9.473484e+001	-9.380768e-001	1.013535e+002
640360000	-3.483384e-002	1.009970e+002	-1.192784e+001	-5.910591e+001	-3.134883e+001	-1.050048e+002	-9.047288e-001	9.986433e+001
645355000	-3.594204e-003	9.985420e+001	-1.207045e+001	-6.935348e+001	-3.138149e+001	-1.145765e+002	-8.684660e-001	9.837297e+001
650350000	9.270162e-003	9.870693e+001	-1.215765e+001	-7.913007e+001	-3.131389e+001	-1.248896e+002	-8.362054e-001	9.690258e+001
655345000	1.955272e-002	9.745198e+001	-1.212739e+001	-8.907948e+001	-3.128627e+001	-1.344361e+002	-8.132404e-001	9.538329e+001
660340000	5.089362e-002	9.625876e+001	-1.222521e+001	-9.906840e+001	-3.137962e+001	-1.452239e+002	-7.835444e-001	9.394314e+001
665335000	8.357162e-002	9.514695e+001	-1.227439e+001	-1.090664e+002	-3.123742e+001	-1.553918e+002	-7.541331e-001	9.242496e+001
670330000	6.434564e-002	9.386813e+001	-1.230877e+001	-1.184990e+002	-3.120032e+001	-1.629995e+002	-7.237748e-001	9.084463e+001
675325000	8.670948e-002	9.265119e+001	-1.238660e+001	-1.283984e+002	-3.100843e+001	-1.713115e+002	-6.959436e-001	8.930775e+001
680320000	8.507802e-002	9.155462e+001	-1.242967e+001	-1.381493e+002	-3.110986e+001	1.775318e+002	-6.757960e-001	8.777096e+001
685315000	9.811489e-002	9.038750e+001	-1.246882e+001	-1.478276e+002	-3.103600e+001	1.678978e+002	-6.593685e-001	8.623554e+001
690310000	1.072148e-001	8.921201e+001	-1.251898e+001	-1.576808e+002	-3.098094e+001	1.581158e+002	-6.332769e-001	8.470709e+001
695305000	1.135703e-001	8.803459e+001	-1.250748e+001	-1.674389e+002	-3.101692e+001	1.483139e+002	-6.103933e-001	8.310101e+001
700300000	1.225462e-001	8.682036e+001	-1.255866e+001	-1.764237e+002	-3.093165e+001	1.386751e+002	-5.969619e-001	8.156553e+001
705295000	1.265401e-001	8.560145e+001	-1.258386e+001	1.739818e+002	-3.088209e+001	1.293937e+002	-5.827902e-001	8.006066e+001
710290000	1.311044e-001	8.445324e+001	-1.257074e+001	1.647761e+002	-3.078502e+001	1.202005e+002	-5.747468e-001	7.847913e+001
715285000	1.474511e-001	8.319298e+001	-1.258257e+001	1.554898e+002	-3.076413e+001	1.099886e+002	-5.662240e-001	7.690431e+001
720280000	1.602991e-001	8.197070e+001	-1.255242e+001	1.460112e+002	-3.057152e+001	1.006869e+002	-5.612249e-001	7.525241e+001
725275000	1.647622e-001	8.076970e+001	-1.246773e+001	1.365576e+002	-3.057186e+001	9.100151e+001	-5.591695e-001	7.367301e+001
730270000	1.669946e-001	7.951778e+001	-1.247838e+001	1.272287e+002	-3.063790e+001	8.052709e+001	-5.499104e-001	7.211360e+001
735265000	1.731690e-001	7.834914e+001	-1.242942e+001	1.182302e+002	-3.042368e+001	7.177203e+001	-5.510024e-001	7.050551e+001
740260000	1.720199e-001	7.696824e+001	-1.236483e+001	1.086344e+002	-3.019006e+001	6.261941e+001	-5.469186e-001	6.887258e+001
745255000	1.849414e-001	7.574154e+001	-1.226245e+001	9.889863e+001	-3.005431e+001	5.369512e+001	-5.484604e-001	6.718595e+001
750250000	2.083370e-001	7.453382e+001	-1.215123e+001	8.975523e+001	-3.102517e+001	4.402214e+001	-5.723366e-001	6.557343e+001
755245000	2.088801e-001	7.334162e+001	-1.209899e+001	8.046032e+001	-2.992442e+001	3.422570e+001	-5.563080e-001	6.404498e+001
760240000	1.862926e-001	7.223532e+001	-1.198581e+001	7.055169e+001	-2.986145e+001	2.458407e+001	-5.701238e-001	6.247649e+001
765235000	1.781211e-001	7.078670e+001	-1.191414e+001	6.148042e+001	-3.002049e+001	1.514404e+001	-5.804945e-001	6.084092e+001
