!Agilent Technologies,E5071C,MY46101273,A.11.02
!Date: Mon Oct 02 15:08:11 2017
!Data & Calibration Information:
!Freq	S11:SOLT2(ON)	S21:SOLT2(ON)	S12:SOLT2(ON)	S22:SOLT2(ON)
!PortZ  Port1:50+j0    Port2:50+j0
!Above PortZ is port z conversion or system Z0 setting when saving the data.
!When reading, reference impedance value at option line is always used.
# Hz S dB R 50
10000000	-1.636799e-002	1.789315e+002	-1.048252e+002	-1.579995e+002	-9.415602e+001	7.191687e+001	-1.687914e-002	1.790946e+002
10034014	-1.636427e-002	1.789287e+002	-1.109022e+002	7.189111e+001	-9.912397e+001	1.011241e+002	-1.689258e-002	1.790921e+002
10068029	-1.645878e-002	1.789246e+002	-1.017188e+002	8.012018e+001	-1.002075e+002	4.238922e+001	-1.660681e-002	1.790895e+002
10102043	-1.632403e-002	1.789209e+002	-9.931152e+001	1.020164e+002	-9.700658e+001	9.255432e+001	-1.686610e-002	1.790846e+002
10136058	-1.623561e-002	1.789190e+002	-1.003919e+002	1.100164e+002	-9.877377e+001	1.653782e+002	-1.689815e-002	1.790844e+002
10170072	-1.636273e-002	1.789143e+002	-1.007410e+002	1.065303e+002	-1.069111e+002	1.347483e+002	-1.682033e-002	1.790804e+002
10204087	-1.623827e-002	1.789121e+002	-9.709922e+001	1.011785e+002	-9.508340e+001	8.793959e+001	-1.697874e-002	1.790788e+002
10238101	-1.667274e-002	1.789084e+002	-1.066301e+002	7.924760e+001	-1.044694e+002	7.431526e+001	-1.679758e-002	1.790745e+002
10272115	-1.656855e-002	1.789038e+002	-9.563935e+001	1.084793e+002	-9.284397e+001	7.716853e+001	-1.664255e-002	1.790716e+002
10306130	-1.684471e-002	1.789000e+002	-9.665969e+001	8.715825e+001	-1.013709e+002	4.572484e+001	-1.679706e-002	1.790700e+002
10340144	-1.648353e-002	1.788963e+002	-9.930618e+001	1.008625e+002	-9.786307e+001	1.164914e+002	-1.696419e-002	1.790664e+002
10374159	-1.668187e-002	1.788932e+002	-1.070904e+002	1.507682e+002	-1.003161e+002	1.190938e+002	-1.686324e-002	1.790635e+002
10408173	-1.654236e-002	1.788894e+002	-9.622249e+001	8.968607e+001	-1.002213e+002	2.778807e+001	-1.709685e-002	1.790606e+002
10442188	-1.672980e-002	1.788863e+002	-9.730696e+001	9.684697e+001	-1.028351e+002	9.755854e+001	-1.709498e-002	1.790572e+002
10476202	-1.684267e-002	1.788845e+002	-9.782821e+001	5.145299e+001	-9.728247e+001	6.522513e+001	-1.708481e-002	1.790547e+002
10510216	-1.667172e-002	1.788802e+002	-9.601633e+001	1.419189e+002	-9.524150e+001	8.480113e+001	-1.712745e-002	1.790518e+002
10544231	-1.670202e-002	1.788746e+002	-9.527243e+001	5.392402e+001	-9.904029e+001	9.609547e+001	-1.690751e-002	1.790484e+002
10578245	-1.677792e-002	1.788730e+002	-9.736346e+001	9.681634e+001	-9.533894e+001	8.759816e+001	-1.689210e-002	1.790445e+002
10612260	-1.669564e-002	1.788691e+002	-9.560958e+001	1.155139e+002	-9.907670e+001	1.080591e+002	-1.705737e-002	1.790426e+002
10646274	-1.678554e-002	1.788663e+002	-9.436983e+001	9.802092e+001	-1.083147e+002	7.990364e+001	-1.708320e-002	1.790384e+002
10680289	-1.673865e-002	1.788617e+002	-1.018137e+002	6.303236e+001	-9.819390e+001	6.925568e+001	-1.702549e-002	1.790373e+002
10714303	-1.657236e-002	1.788579e+002	-1.014733e+002	6.150293e+001	-9.378142e+001	9.728431e+001	-1.672910e-002	1.790318e+002
10748317	-1.673187e-002	1.788538e+002	-1.065284e+002	1.731439e+002	-1.034840e+002	-1.753638e+002	-1.709177e-002	1.790303e+002
10782332	-1.684747e-002	1.788514e+002	-9.446350e+001	1.087550e+002	-9.860380e+001	4.922824e+001	-1.685639e-002	1.790266e+002
10816346	-1.658541e-002	1.788479e+002	-1.045957e+002	1.226899e+002	-9.985169e+001	6.903947e+001	-1.717423e-002	1.790237e+002
10850361	-1.680641e-002	1.788431e+002	-9.638353e+001	1.227260e+002	-1.007306e+002	1.365281e+002	-1.704035e-002	1.790193e+002
10884375	-1.702984e-002	1.788393e+002	-1.092197e+002	1.187878e+002	-1.030056e+002	7.082954e+001	-1.712406e-002	1.790164e+002
10918390	-1.678005e-002	1.788355e+002	-1.124954e+002	-5.781639e+001	-9.568643e+001	7.729169e+001	-1.701092e-002	1.790129e+002
10952404	-1.681940e-002	1.788304e+002	-9.439483e+001	5.830219e+001	-9.585110e+001	1.258512e+002	-1.721392e-002	1.790101e+002
10986418	-1.707026e-002	1.788270e+002	-9.935938e+001	8.458730e+001	-1.001970e+002	6.181541e+001	-1.728970e-002	1.790058e+002
11020433	-1.676823e-002	1.788248e+002	-9.630964e+001	9.651531e+001	-9.936615e+001	8.022746e+001	-1.717630e-002	1.790017e+002
11054447	-1.704169e-002	1.788192e+002	-1.071285e+002	-1.754325e+002	-1.028348e+002	1.248804e+002	-1.715670e-002	1.790001e+002
11088462	-1.669137e-002	1.788154e+002	-9.237077e+001	7.247756e+001	-1.025898e+002	1.522266e+002	-1.714386e-002	1.789957e+002
11122476	-1.676850e-002	1.788112e+002	-1.028634e+002	1.068146e+002	-9.840297e+001	1.162426e+002	-1.717055e-002	1.789928e+002
11156491	-1.685817e-002	1.788068e+002	-9.900775e+001	8.829361e+001	-9.493442e+001	1.180155e+002	-1.724342e-002	1.789887e+002
11190505	-1.685356e-002	1.788024e+002	-9.890465e+001	7.700489e+001	-9.364130e+001	9.506556e+001	-1.724258e-002	1.789842e+002
11224519	-1.686913e-002	1.788003e+002	-1.013059e+002	8.787915e+001	-1.004032e+002	1.263165e+002	-1.734312e-002	1.789806e+002
11258534	-1.696584e-002	1.787952e+002	-9.894682e+001	7.696228e+001	-9.904423e+001	1.152482e+002	-1.722993e-002	1.789789e+002
11292548	-1.682621e-002	1.787903e+002	-1.091202e+002	8.266082e+001	-1.134942e+002	1.619327e+002	-1.724700e-002	1.789749e+002
11326563	-1.681067e-002	1.787868e+002	-9.778923e+001	7.825615e+001	-1.002137e+002	1.019046e+002	-1.719322e-002	1.789716e+002
11360577	-1.689177e-002	1.787831e+002	-9.718896e+001	7.046138e+001	-1.142124e+002	-1.650357e+002	-1.730953e-002	1.789676e+002
11394592	-1.713555e-002	1.787803e+002	-9.661743e+001	1.014841e+002	-1.002330e+002	1.182891e+002	-1.703145e-002	1.789638e+002
11428606	-1.696273e-002	1.787741e+002	-9.916361e+001	9.279871e+001	-9.634912e+001	1.304053e+002	-1.730739e-002	1.789611e+002
11462620	-1.687671e-002	1.787697e+002	-9.635897e+001	5.570195e+001	-1.005034e+002	1.037862e+002	-1.723291e-002	1.789566e+002
11496635	-1.696504e-002	1.787673e+002	-1.040986e+002	1.502757e+002	-1.002122e+002	8.869718e+001	-1.704136e-002	1.789517e+002
11530649	-1.088237e-002	1.787809e+002	-1.033354e+002	1.146725e+002	-9.784577e+001	1.347421e+002	-1.712595e-002	1.789491e+002
11564664	-1.101588e-002	1.787778e+002	-9.585502e+001	1.163221e+002	-9.567098e+001	1.111066e+002	-1.727393e-002	1.789460e+002
11598678	-1.086484e-002	1.787747e+002	-9.851479e+001	7.375312e+001	-9.721290e+001	1.057634e+002	-1.740451e-002	1.789448e+002
11632693	-1.077267e-002	1.787711e+002	-9.470013e+001	9.097329e+001	-1.022223e+002	7.640585e+001	-1.725837e-002	1.789402e+002
11666707	-1.097229e-002	1.787673e+002	-9.929825e+001	5.767324e+001	-1.017844e+002	7.517094e+001	-1.726288e-002	1.789372e+002
11700721	-1.077438e-002	1.787643e+002	-9.589689e+001	7.591232e+001	-1.002768e+002	6.730607e+001	-1.729990e-002	1.789360e+002
11734736	-1.075319e-002	1.787610e+002	-9.891948e+001	8.443411e+001	-1.028186e+002	8.545823e+001	-1.742321e-002	1.789324e+002
11768750	-1.084075e-002	1.787586e+002	-1.020914e+002	1.378888e+002	-1.034228e+002	7.817389e+001	-1.712797e-002	1.789305e+002
11802765	-1.093517e-002	1.787541e+002	-1.023384e+002	8.114256e+001	-9.528966e+001	1.137007e+002	-1.720372e-002	1.789273e+002
11836779	-1.086455e-002	1.787517e+002	-9.797394e+001	1.153649e+002	-9.793483e+001	8.822702e+001	-1.725168e-002	1.789235e+002
11870794	-1.089688e-002	1.787487e+002	-1.009419e+002	8.036552e+001	-9.972207e+001	7.616668e+001	-1.720267e-002	1.789208e+002
11904808	-1.079974e-002	1.787448e+002	-1.008197e+002	1.153097e+002	-9.815231e+001	4.555704e+001	-1.732047e-002	1.789197e+002
11938822	-1.096988e-002	1.787417e+002	-1.201761e+002	1.100860e+002	-9.691633e+001	1.110063e+002	-1.722717e-002	1.789152e+002
11972837	-1.091116e-002	1.787392e+002	-1.036277e+002	9.686673e+001	-9.798010e+001	8.176740e+001	-1.753116e-002	1.789122e+002
12006851	-1.060001e-002	1.787352e+002	-9.411529e+001	6.054088e+001	-9.481050e+001	6.208763e+001	-1.701048e-002	1.789106e+002
12040866	-1.085334e-002	1.787312e+002	-9.543375e+001	1.103797e+002	-9.738670e+001	9.443195e+001	-1.731030e-002	1.789054e+002
12074880	-1.091408e-002	1.787285e+002	-9.734000e+001	7.136043e+001	-9.730008e+001	8.213889e+001	-1.721773e-002	1.789042e+002
12108895	-1.097344e-002	1.787244e+002	-9.865022e+001	5.686576e+001	-9.477786e+001	1.256363e+002	-1.730503e-002	1.789004e+002
12142909	-1.083957e-002	1.787201e+002	-9.124549e+001	9.975987e+001	-9.983853e+001	1.026756e+002	-1.720736e-002	1.788988e+002
12176923	-1.075113e-002	1.787204e+002	-9.410275e+001	8.039714e+001	-9.769715e+001	6.182141e+001	-1.713174e-002	1.788949e+002
12210938	-1.094075e-002	1.787147e+002	-9.524515e+001	1.131342e+002	-1.001457e+002	7.007164e+001	-1.727943e-002	1.788924e+002
12244952	-1.073809e-002	1.787108e+002	-9.775850e+001	1.095009e+002	-9.792099e+001	8.660953e+001	-1.732751e-002	1.788885e+002
12278967	-1.077564e-002	1.787087e+002	-9.374629e+001	8.602896e+001	-9.619599e+001	9.158651e+001	-1.729421e-002	1.788858e+002
12312981	-1.071713e-002	1.787038e+002	-1.055979e+002	6.622232e+001	-9.842916e+001	6.375105e+001	-1.733118e-002	1.788837e+002
12346996	-1.085239e-002	1.787004e+002	-9.777864e+001	9.585657e+001	-9.559901e+001	8.252898e+001	-1.740464e-002	1.788804e+002
12381010	-1.086622e-002	1.786984e+002	-9.936217e+001	9.409856e+001	-9.442877e+001	5.694641e+001	-1.744963e-002	1.788773e+002
12415024	-1.098747e-002	1.786932e+002	-9.659818e+001	8.470708e+001	-9.402562e+001	9.722896e+001	-1.755545e-002	1.788746e+002
12449039	-1.082283e-002	1.786900e+002	-9.615968e+001	1.020233e+002	-9.891365e+001	7.363691e+001	-1.746370e-002	1.788709e+002
12483053	-1.090224e-002	1.786878e+002	-1.027523e+002	1.674354e+002	-9.388183e+001	8.551990e+001	-1.716178e-002	1.788672e+002
12517068	-1.762563e-002	1.786643e+002	-1.134503e+002	5.280197e+001	-9.440226e+001	9.113547e+001	-1.742781e-002	1.788661e+002
12551082	-1.738871e-002	1.786599e+002	-1.140764e+002	-1.740299e+002	-9.559394e+001	1.018844e+002	-1.739183e-002	1.788611e+002
12585097	-1.727727e-002	1.786551e+002	-9.527607e+001	8.109399e+001	-9.650233e+001	5.982793e+001	-1.736605e-002	1.788588e+002
12619111	-1.753347e-002	1.786537e+002	-9.794194e+001	8.683242e+001	-9.786671e+001	7.733200e+001	-1.730827e-002	1.788568e+002
12653125	-1.766318e-002	1.786516e+002	-1.065231e+002	9.636727e+001	-1.011321e+002	4.651766e+001	-1.746849e-002	1.788548e+002
12687140	-1.736846e-002	1.786463e+002	-9.558572e+001	8.460273e+001	-9.463254e+001	8.157361e+001	-1.755760e-002	1.788514e+002
12721154	-1.751353e-002	1.786437e+002	-9.516064e+001	1.108756e+002	-9.926714e+001	1.185188e+002	-1.733285e-002	1.788487e+002
12755169	-1.747613e-002	1.786413e+002	-9.487881e+001	8.810018e+001	-9.610227e+001	6.960541e+001	-1.732559e-002	1.788468e+002
12789183	-1.752236e-002	1.786371e+002	-9.531785e+001	6.624261e+001	-9.295825e+001	6.891477e+001	-1.769234e-002	1.788416e+002
12823198	-1.742542e-002	1.786340e+002	-9.492179e+001	9.531439e+001	-9.602279e+001	5.582462e+001	-1.743297e-002	1.788410e+002
12857212	-1.754428e-002	1.786298e+002	-1.003199e+002	8.469769e+001	-9.440759e+001	4.950894e+001	-1.759090e-002	1.788372e+002
12891227	-1.737804e-002	1.786266e+002	-9.389133e+001	6.455190e+001	-9.684257e+001	9.389525e+001	-1.748845e-002	1.788341e+002
12925241	-1.776269e-002	1.786221e+002	-1.022719e+002	1.006362e+002	-9.708149e+001	8.497415e+001	-1.765520e-002	1.788312e+002
12959255	-1.778987e-002	1.786196e+002	-9.492049e+001	7.415303e+001	-9.801033e+001	5.981950e+001	-1.764330e-002	1.788279e+002
12993270	-1.808115e-002	1.786143e+002	-9.691677e+001	7.314679e+001	-9.690258e+001	1.093997e+002	-1.743627e-002	1.788254e+002
13027284	-1.792425e-002	1.786113e+002	-9.803804e+001	8.104392e+001	-9.632038e+001	1.052201e+002	-1.767032e-002	1.788218e+002
13061299	-1.791759e-002	1.786085e+002	-1.003488e+002	7.631200e+001	-9.767841e+001	9.114097e+001	-1.751787e-002	1.788190e+002
13095313	-1.820278e-002	1.786038e+002	-1.038384e+002	1.195188e+002	-9.670195e+001	7.524861e+001	-1.771565e-002	1.788177e+002
13129328	-1.805992e-002	1.785994e+002	-9.738589e+001	1.099787e+002	-1.005222e+002	8.308681e+001	-1.758421e-002	1.788133e+002
13163342	-1.839093e-002	1.785966e+002	-9.864452e+001	8.851311e+001	-9.334682e+001	7.383445e+001	-1.770044e-002	1.788107e+002
13197356	-1.850968e-002	1.785919e+002	-9.759046e+001	8.978291e+001	-9.751611e+001	1.071295e+002	-1.760936e-002	1.788070e+002
13231371	-1.875619e-002	1.785870e+002	-1.012666e+002	4.689734e+001	-1.003610e+002	1.073995e+002	-1.773229e-002	1.788049e+002
13265385	-1.861572e-002	1.785838e+002	-9.716130e+001	8.035439e+001	-9.562619e+001	1.208935e+002	-1.758098e-002	1.788008e+002
13299400	-1.899767e-002	1.785788e+002	-1.002075e+002	7.367621e+001	-9.793942e+001	7.343659e+001	-1.753979e-002	1.787972e+002
13333414	-1.880287e-002	1.785764e+002	-9.837630e+001	1.330217e+002	-9.698445e+001	4.790032e+001	-1.769029e-002	1.787949e+002
13367429	-1.913260e-002	1.785737e+002	-9.391641e+001	9.624469e+001	-9.825234e+001	1.111299e+002	-1.778298e-002	1.787923e+002
13401443	-1.906123e-002	1.785691e+002	-9.875327e+001	9.342274e+001	-1.025523e+002	6.125381e+001	-1.768344e-002	1.787884e+002
13435457	-1.923016e-002	1.785656e+002	-9.760783e+001	1.321213e+002	-1.004116e+002	7.655256e+001	-1.771985e-002	1.787859e+002
13469472	-1.927556e-002	1.785596e+002	-9.347141e+001	9.191282e+001	-9.642895e+001	7.386928e+001	-1.771289e-002	1.787831e+002
13503486	-1.924878e-002	1.785567e+002	-1.042606e+002	1.109820e+002	-1.005548e+002	8.270529e+001	-1.790745e-002	1.787798e+002
13537501	-1.960978e-002	1.785530e+002	-9.298880e+001	1.119164e+002	-9.333894e+001	6.538055e+001	-1.807288e-002	1.787776e+002
13571515	-1.962733e-002	1.785482e+002	-9.539698e+001	4.939738e+001	-9.725679e+001	9.889798e+001	-1.772176e-002	1.787738e+002
13605530	-1.970797e-002	1.785444e+002	-9.696403e+001	8.606355e+001	-9.681446e+001	7.515852e+001	-1.795130e-002	1.787698e+002
13639544	-1.978151e-002	1.785402e+002	-1.028668e+002	9.764987e+001	-9.533457e+001	1.029841e+002	-1.776499e-002	1.787672e+002
13673558	-1.978706e-002	1.785372e+002	-9.512701e+001	1.119619e+002	-9.465813e+001	7.337379e+001	-1.800661e-002	1.787655e+002
13707573	-1.997468e-002	1.785337e+002	-9.764408e+001	1.200605e+002	-9.645904e+001	1.121281e+002	-1.777130e-002	1.787611e+002
13741587	-1.988022e-002	1.785286e+002	-9.371257e+001	5.684619e+001	-9.739249e+001	1.137899e+002	-1.772328e-002	1.787588e+002
13775602	-2.028315e-002	1.785253e+002	-9.925997e+001	1.039480e+002	-1.019198e+002	1.148643e+002	-1.805252e-002	1.787547e+002
13809616	-2.019435e-002	1.785215e+002	-1.054344e+002	1.522143e+002	-9.456380e+001	9.900565e+001	-1.801961e-002	1.787511e+002
13843631	-2.020871e-002	1.785169e+002	-9.746105e+001	2.768773e+001	-9.613086e+001	1.094534e+002	-1.779940e-002	1.787496e+002
13883533	-2.053814e-002	1.785117e+002	-9.261867e+001	1.129753e+002	-1.038310e+002	1.072650e+002	-1.782845e-002	1.787459e+002
13930829	-2.077482e-002	1.785071e+002	-1.001056e+002	1.291893e+002	-9.997289e+001	3.840027e+001	-1.790594e-002	1.787413e+002
13978125	-2.070695e-002	1.785004e+002	-9.959317e+001	1.062671e+002	-9.521059e+001	1.025026e+002	-1.812089e-002	1.787386e+002
14025420	-1.382286e-002	1.785196e+002	-1.004960e+002	8.491945e+001	-9.229098e+001	8.981879e+001	-1.765276e-002	1.787323e+002
14072716	-1.401857e-002	1.785140e+002	-9.782041e+001	1.135907e+002	-1.043069e+002	9.186480e+001	-1.761002e-002	1.787288e+002
14120012	-1.386673e-002	1.785095e+002	-9.482896e+001	8.740341e+001	-1.057464e+002	1.528606e+002	-1.760810e-002	1.787242e+002
14167308	-1.398453e-002	1.785040e+002	-9.848092e+001	7.442497e+001	-9.696859e+001	1.245164e+002	-1.773361e-002	1.787200e+002
14214603	-1.395390e-002	1.785006e+002	-9.790620e+001	1.106969e+002	-9.649839e+001	7.837455e+001	-1.801160e-002	1.787166e+002
14261899	-1.432127e-002	1.784932e+002	-9.414610e+001	1.005311e+002	-9.620378e+001	1.128881e+002	-1.778471e-002	1.787126e+002
14309195	-1.438963e-002	1.784874e+002	-9.816375e+001	8.713990e+001	-9.631768e+001	5.471265e+001	-1.757080e-002	1.787095e+002
14356491	-1.463326e-002	1.784838e+002	-9.680213e+001	6.018876e+001	-9.541349e+001	1.094557e+002	-1.780043e-002	1.787048e+002
14403786	-1.491347e-002	1.784773e+002	-9.545010e+001	9.375957e+001	-9.700992e+001	1.209855e+002	-1.767973e-002	1.786993e+002
14451082	-1.498912e-002	1.784723e+002	-9.785157e+001	7.770156e+001	-9.935074e+001	1.035861e+002	-1.781994e-002	1.786937e+002
14498378	-1.520385e-002	1.784664e+002	-9.719625e+001	9.940111e+001	-9.988851e+001	4.098505e+001	-1.794454e-002	1.786915e+002
14545674	-1.506689e-002	1.784606e+002	-1.073473e+002	1.284934e+002	-9.878724e+001	1.059794e+002	-1.778764e-002	1.786879e+002
14592969	-1.536044e-002	1.784558e+002	-9.371239e+001	6.339325e+001	-9.417194e+001	8.709160e+001	-1.789399e-002	1.786827e+002
14640265	-1.545168e-002	1.784508e+002	-1.122885e+002	1.544206e+002	-1.023386e+002	1.496264e+002	-1.779100e-002	1.786799e+002
14687561	-1.563022e-002	1.784440e+002	-1.043268e+002	5.463478e+001	-9.697291e+001	9.034008e+001	-1.774631e-002	1.786741e+002
14734857	-1.568558e-002	1.784400e+002	-9.568673e+001	1.172004e+002	-9.287071e+001	6.504254e+001	-1.803136e-002	1.786706e+002
14782152	-1.615096e-002	1.784347e+002	-9.452452e+001	9.177461e+001	-9.380784e+001	1.105046e+002	-1.785153e-002	1.786667e+002
14829448	-1.610309e-002	1.784291e+002	-9.468930e+001	1.191443e+002	-9.838528e+001	5.513316e+001	-1.788435e-002	1.786629e+002
14876744	-1.613114e-002	1.784232e+002	-9.664812e+001	6.613031e+001	-1.016373e+002	9.868678e+001	-1.788135e-002	1.786589e+002
14924040	-1.648621e-002	1.784189e+002	-9.961804e+001	1.010995e+002	-9.658956e+001	1.225479e+002	-1.789356e-002	1.786547e+002
14971335	-1.659912e-002	1.784131e+002	-1.051842e+002	1.324361e+002	-9.568776e+001	9.064733e+001	-1.798875e-002	1.786497e+002
15018631	-1.650965e-002	1.784080e+002	-9.922551e+001	9.464988e+001	-9.196649e+001	1.003145e+002	-1.796938e-002	1.786461e+002
15065927	-1.684216e-002	1.784033e+002	-9.684518e+001	5.986867e+001	-9.653736e+001	8.912114e+001	-1.790023e-002	1.786434e+002
15113223	-1.687618e-002	1.783986e+002	-9.608162e+001	5.263954e+001	-9.395145e+001	9.266239e+001	-1.797290e-002	1.786387e+002
15160518	-1.710531e-002	1.783914e+002	-9.407271e+001	9.684193e+001	-9.650279e+001	6.989922e+001	-1.814355e-002	1.786338e+002
15207814	-1.750215e-002	1.783858e+002	-1.011338e+002	8.022305e+001	-9.301930e+001	8.963175e+001	-1.788558e-002	1.786289e+002
15255110	-1.738297e-002	1.783800e+002	-9.772332e+001	9.007950e+001	-9.869424e+001	4.780923e+001	-1.821678e-002	1.786253e+002
15302406	-1.761469e-002	1.783765e+002	-9.920149e+001	6.629908e+001	-1.044044e+002	1.615600e+002	-1.795769e-002	1.786215e+002
15349701	-1.765415e-002	1.783712e+002	-9.694565e+001	6.062492e+001	-1.025062e+002	2.507542e+001	-1.807655e-002	1.786178e+002
15396997	-1.795019e-002	1.783651e+002	-9.735547e+001	9.492120e+001	-9.282027e+001	8.439358e+001	-1.819529e-002	1.786133e+002
15444293	-1.798232e-002	1.783598e+002	-1.029424e+002	1.133332e+002	-1.112420e+002	1.615605e+002	-1.820583e-002	1.786070e+002
15491589	-1.814247e-002	1.783522e+002	-9.196710e+001	1.013461e+002	-9.363238e+001	1.057502e+002	-1.835161e-002	1.786031e+002
15538885	-1.803786e-002	1.783486e+002	-9.874889e+001	7.560098e+001	-9.338897e+001	8.099586e+001	-1.837280e-002	1.786013e+002
15586180	-1.873785e-002	1.783439e+002	-1.003757e+002	1.478581e+002	-9.739794e+001	8.678760e+001	-1.803630e-002	1.785971e+002
15633476	-2.671908e-002	1.783103e+002	-9.860488e+001	7.505557e+001	-9.994890e+001	6.851589e+001	-1.778377e-002	1.785928e+002
15680772	-2.669984e-002	1.783041e+002	-1.008951e+002	1.152731e+002	-9.587815e+001	8.582986e+001	-1.799175e-002	1.785880e+002
15728068	-2.662378e-002	1.783001e+002	-9.794982e+001	9.356952e+001	-9.320714e+001	7.660644e+001	-1.814521e-002	1.785840e+002
15775363	-2.686508e-002	1.782953e+002	-9.609234e+001	1.041069e+002	-9.310456e+001	1.006071e+002	-1.803091e-002	1.785810e+002
15822659	-2.693341e-002	1.782909e+002	-1.049485e+002	8.018210e+001	-9.692360e+001	2.833227e+001	-1.825175e-002	1.785761e+002
