!Agilent Technologies,N5242A,US46520174,A.09.00.04
!Agilent N5242A: A.09.00.04
!Date: Monday, October 02, 2017 12:12:03
!Correction: S11(Full 2 Port(1,2)) 
!S21(Full 2 Port(1,2)) 
!S12(Full 2 Port(1,2)) 
!S22(Full 2 Port(1,2)) 
!S2P File: Measurements: S11, S21, S12, S22:
# Hz S  RI   R 50
10000000 -9.994554e-001 5.207100e-003 -4.077125e-004 -2.010301e-004 -2.055412e-004 -4.908140e-004 9.995283e-001 8.702639e-005
13808616.088448 -9.886261e-001 2.809560e-002 -4.309339e-004 -3.052166e-004 3.673433e-005 3.048097e-004 1.018548e+000 -7.285852e-002
17617232.176897 -9.739458e-001 5.478729e-002 -3.562936e-004 -2.625406e-004 1.827177e-004 -5.763438e-005 1.025223e+000 -1.442862e-001
21425848.265345 -9.674356e-001 8.327118e-002 1.361140e-004 3.262620e-004 1.259439e-005 -3.218429e-005 1.023541e+000 -2.141674e-001
25234464.353793 -9.587319e-001 1.116005e-001 2.613526e-006 -1.047092e-005 2.549025e-004 5.942313e-005 1.006903e+000 -2.827643e-001
29043080.442242 -9.553443e-001 1.418332e-001 -2.561410e-004 1.202657e-004 9.504869e-005 -5.469580e-006 9.877504e-001 -3.498699e-001
32851696.53069 -9.482234e-001 1.714467e-001 2.157890e-006 2.902678e-006 1.832121e-004 -2.638168e-005 9.597260e-001 -4.130735e-001
36660312.619138 -9.431645e-001 2.014368e-001 -7.212584e-006 1.593097e-005 1.651911e-004 9.226624e-005 9.283509e-001 -4.752024e-001
40468928.707587 -9.374945e-001 2.316069e-001 -9.927680e-005 2.163170e-004 -1.373235e-005 6.387513e-005 8.955624e-001 -5.347426e-001
44277544.796035 -9.291224e-001 2.615564e-001 5.534754e-005 -3.700093e-005 -7.175279e-005 1.613455e-004 8.565701e-001 -5.914551e-001
48086160.884483 -9.206929e-001 2.913031e-001 -7.168690e-006 6.242549e-005 2.896398e-004 -6.444037e-005 8.131155e-001 -6.433647e-001
51894776.972932 -9.121387e-001 3.232742e-001 -1.352971e-005 -2.252369e-005 -4.330350e-006 -1.022669e-004 7.643477e-001 -6.946952e-001
55703393.06138 -9.026235e-001 3.641982e-001 -1.025256e-004 1.682198e-005 -2.402155e-005 -4.288918e-005 7.269943e-001 -7.320264e-001
59512009.149828 -8.937453e-001 3.935034e-001 -7.645357e-005 4.968830e-005 8.404906e-005 9.414146e-005 6.772858e-001 -7.745635e-001
63320625.238277 -8.827323e-001 4.226794e-001 -1.179412e-005 1.713094e-005 -2.885226e-005 -9.141625e-005 6.236173e-001 -8.136388e-001
67129241.326725 -8.712263e-001 4.522144e-001 1.053691e-004 7.248203e-005 1.540769e-004 -7.547004e-006 5.684476e-001 -8.512477e-001
70937857.415173 -8.567855e-001 4.800841e-001 5.479091e-005 -1.123919e-004 1.363293e-004 3.070467e-005 5.100121e-001 -8.849783e-001
74746473.503622 -8.393770e-001 5.059531e-001 6.717598e-005 -8.227036e-005 -3.745398e-005 -1.595148e-005 4.503745e-001 -9.153951e-001
78555089.59207 -8.263345e-001 5.344806e-001 -1.342423e-004 -5.510967e-005 3.012064e-006 2.615078e-005 3.899827e-001 -9.461733e-001
82363705.680518 -8.098854e-001 5.599224e-001 -4.892318e-006 -5.468795e-005 1.635897e-004 -7.671976e-006 3.257274e-001 -9.698038e-001
86172321.768967 -9.953898e-001 5.445477e-002 5.532587e-005 2.690365e-005 -3.058373e-005 7.234512e-005 9.998605e-001 -2.513701e-002
89980937.857415 -9.892750e-001 8.698326e-002 9.704933e-005 -3.431499e-005 1.795846e-004 9.934573e-005 9.953638e-001 -8.928923e-002
93789553.945864 -9.852470e-001 1.198725e-001 4.805143e-005 1.044369e-005 1.602455e-005 -8.524751e-005 9.907579e-001 -1.544361e-001
97598170.034312 -9.770343e-001 1.514193e-001 1.271506e-005 9.628403e-006 -1.333601e-005 -2.049927e-005 9.786813e-001 -2.188687e-001
101406786.12276 -9.686503e-001 1.834627e-001 -9.124618e-006 1.274195e-004 1.392497e-004 1.259859e-004 9.608334e-001 -2.830632e-001
105215402.21121 -9.636786e-001 2.151753e-001 -7.095415e-005 -4.004397e-005 2.121560e-006 2.668097e-005 9.327275e-001 -3.429303e-001
109024018.29966 -9.589872e-001 2.470246e-001 -8.281804e-005 -1.259954e-006 -2.647638e-005 -3.109207e-007 9.127862e-001 -4.067249e-001
112832634.38811 -9.512244e-001 2.778957e-001 1.053977e-004 -1.789863e-005 2.601359e-005 -8.719818e-005 8.868506e-001 -4.691697e-001
116641250.47655 -9.418566e-001 3.078068e-001 -1.514749e-005 1.209431e-005 -1.208856e-005 2.525232e-005 8.554279e-001 -5.287174e-001
120449866.565 -9.318708e-001 3.374105e-001 1.262230e-005 -7.369206e-005 3.086681e-005 6.740379e-005 8.196819e-001 -5.871956e-001
124258482.65345 -9.192377e-001 3.659452e-001 6.226636e-006 -2.960393e-005 -7.302888e-006 -7.837445e-005 7.782099e-001 -6.417739e-001
128067098.7419 -9.069788e-001 3.942073e-001 -9.007438e-005 -1.055504e-005 -2.145741e-005 1.827371e-006 7.339987e-001 -6.939595e-001
131875714.83035 -8.937778e-001 4.224045e-001 -4.450877e-006 5.043880e-005 -2.899948e-006 2.402842e-005 6.860349e-001 -7.427256e-001
135684330.9188 -8.784008e-001 4.493306e-001 -2.917192e-005 -2.523248e-005 3.451960e-005 1.204328e-005 6.337914e-001 -7.866929e-001
139492947.00724 -8.640519e-001 4.758012e-001 -2.604673e-005 5.151152e-005 -1.064504e-004 1.050026e-004 5.798854e-001 -8.265283e-001
143301563.09569 -8.480209e-001 5.011956e-001 7.089555e-006 1.011044e-005 5.115837e-005 8.972611e-005 5.238671e-001 -8.612474e-001
147110179.18414 -8.309936e-001 5.274771e-001 9.259129e-005 -3.541357e-005 -1.250724e-005 1.030600e-004 4.634836e-001 -8.928779e-001
150918795.27259 -8.156227e-001 5.563715e-001 4.888820e-006 -6.171846e-005 1.571567e-005 1.323016e-004 4.033133e-001 -9.236159e-001
154727411.36104 -7.979454e-001 5.842564e-001 1.081392e-004 -1.567803e-005 -9.030580e-005 -3.611989e-005 3.408670e-001 -9.495551e-001
158536027.44949 -7.790518e-001 6.110637e-001 7.303811e-005 -1.378132e-004 4.937499e-005 3.693371e-005 2.769072e-001 -9.693996e-001
162344643.53793 -9.925967e-001 1.021108e-001 3.127729e-005 -2.642568e-005 1.153808e-004 8.947580e-006 9.981781e-001 -5.003859e-002
166153259.62638 -9.905359e-001 1.351600e-001 6.190770e-005 -1.292340e-005 3.074747e-005 -5.630983e-005 9.926759e-001 -1.139749e-001
169961875.71483 -9.865927e-001 1.681041e-001 9.033752e-005 -8.302434e-005 2.352975e-005 1.125629e-004 9.825456e-001 -1.777604e-001
173770491.80328 -9.804263e-001 2.005709e-001 -5.197498e-005 1.496978e-005 -1.636744e-004 1.462150e-004 9.674056e-001 -2.390706e-001
177579107.89173 -9.736369e-001 2.331861e-001 8.600887e-005 -3.314578e-005 -2.951541e-005 1.191035e-004 9.495200e-001 -3.002250e-001
181387723.98018 -9.666935e-001 2.656405e-001 6.133812e-005 -5.813564e-005 8.077781e-005 -1.066814e-004 9.290283e-001 -3.603521e-001
185196340.06862 -9.573770e-001 2.972991e-001 5.184676e-005 1.530033e-005 6.778866e-005 4.105330e-006 9.038928e-001 -4.187865e-001
189004956.15707 -9.464619e-001 3.278192e-001 -4.527348e-005 -1.724905e-004 -5.185937e-005 -6.829522e-006 8.746399e-001 -4.752410e-001
192813572.24552 -9.344354e-001 3.583310e-001 7.206009e-006 5.825020e-005 1.907916e-005 -1.314239e-004 8.430490e-001 -5.303217e-001
196622188.33397 -9.206426e-001 3.876958e-001 1.779517e-004 -4.485250e-005 -9.473926e-005 8.024655e-005 8.078393e-001 -5.842912e-001
200430804.42242 -9.051815e-001 4.160219e-001 1.084316e-005 -3.570238e-006 -8.983185e-006 -4.564459e-006 7.695858e-001 -6.355287e-001
204239420.51087 -8.886366e-001 4.427716e-001 1.255166e-004 9.223889e-005 2.628173e-005 1.047988e-005 7.270215e-001 -6.837006e-001
208048036.59931 -8.747936e-001 4.713463e-001 2.716931e-005 -2.490483e-005 -5.471520e-005 -3.406720e-006 6.824114e-001 -7.306088e-001
211856652.68776 -8.599479e-001 4.986915e-001 -2.737257e-005 4.013391e-005 -7.212759e-005 7.901803e-005 6.348222e-001 -7.750901e-001
215665268.77621 -8.436738e-001 5.253524e-001 -1.156730e-004 -7.154976e-005 7.053652e-005 -1.228468e-004 5.835409e-001 -8.162729e-001
219473884.86466 -8.266405e-001 5.507928e-001 -4.532811e-005 2.150984e-005 -3.551974e-006 1.091771e-006 5.293743e-001 -8.538998e-001
223282500.95311 -8.087232e-001 5.762635e-001 -2.552735e-005 -6.169065e-005 -7.562830e-005 1.246357e-004 4.725877e-001 -8.878853e-001
227091117.04156 -7.899256e-001 6.006085e-001 4.960246e-005 6.611137e-005 -5.688754e-007 5.232244e-005 4.135636e-001 -9.171951e-001
230899733.13 -7.713501e-001 6.252495e-001 6.442649e-005 1.370014e-004 1.910496e-005 9.657113e-005 3.523824e-001 -9.430223e-001
234708349.21845 -7.518191e-001 6.492085e-001 1.612545e-004 2.287398e-005 7.022324e-005 -1.380221e-004 2.903506e-001 -9.638512e-001
238516965.3069 -9.847595e-001 1.469402e-001 -5.291809e-006 -8.997385e-005 -2.388694e-005 1.858451e-004 9.957406e-001 -7.576590e-002
242325581.39535 -9.793289e-001 1.780055e-001 4.563223e-005 3.487313e-005 7.950108e-006 1.034279e-004 9.870772e-001 -1.410875e-001
246134197.4838 -9.728200e-001 2.084715e-001 -3.138820e-005 -6.526193e-005 -7.035613e-006 -1.152076e-004 9.731740e-001 -2.048274e-001
249942813.57225 -9.644907e-001 2.391490e-001 -2.194737e-005 3.649597e-005 -3.125222e-005 8.373387e-005 9.544975e-001 -2.670326e-001
253751429.66069 -9.595589e-001 2.730996e-001 -4.352407e-005 -7.188907e-005 -2.870950e-004 1.018753e-004 9.363434e-001 -3.305474e-001
257560045.74914 -9.529423e-001 3.065887e-001 -9.758681e-006 1.194773e-004 5.975325e-005 -2.732836e-005 9.129926e-001 -3.911670e-001
261368661.83759 -9.437820e-001 3.396749e-001 1.341461e-004 -1.220903e-004 1.619134e-004 -3.395488e-005 8.850710e-001 -4.500957e-001
265177277.92604 -9.336910e-001 3.734440e-001 1.309841e-004 1.423027e-004 2.966784e-004 -8.793865e-005 8.542913e-001 -5.058149e-001
268985894.01449 -9.216591e-001 4.053898e-001 3.912989e-005 -5.270067e-005 3.799401e-005 1.439990e-004 8.191055e-001 -5.596251e-001
272794510.10294 -9.076319e-001 4.407234e-001 -8.668137e-005 -1.221917e-004 -9.819457e-005 -2.594966e-005 7.828612e-001 -6.108104e-001
276603126.19138 -8.926712e-001 4.690113e-001 -4.373412e-005 -6.946965e-005 8.170213e-005 -1.070543e-004 7.404903e-001 -6.572062e-001
280411742.27983 -8.752940e-001 4.999782e-001 -1.229155e-004 2.852292e-005 4.554997e-005 1.464530e-005 6.961764e-001 -7.012560e-001
284220358.36828 -8.569238e-001 5.299522e-001 6.279505e-005 1.527821e-005 -1.205179e-005 1.789555e-004 6.501412e-001 -7.426475e-001
288028974.45673 -8.373958e-001 5.587112e-001 -7.863419e-005 1.899067e-004 -1.428805e-004 -1.911284e-004 6.024210e-001 -7.816654e-001
291837590.54518 -8.173954e-001 5.881138e-001 -1.090993e-005 -8.334697e-005 1.989082e-004 -2.500389e-004 5.527189e-001 -8.181379e-001
295646206.63363 -7.958273e-001 6.161910e-001 3.870830e-005 1.659438e-004 -1.367186e-004 2.513421e-004 5.003627e-001 -8.524783e-001
299454822.72207 -7.733666e-001 6.428400e-001 -2.505356e-004 2.192545e-005 3.058827e-005 1.387695e-004 4.467719e-001 -8.829402e-001
303263438.81052 -7.496401e-001 6.681604e-001 -9.441751e-005 1.467008e-004 -3.934078e-006 -1.350642e-004 3.910453e-001 -9.102946e-001
307072054.89897 -7.251753e-001 6.916890e-001 -1.968949e-005 1.558864e-004 7.817815e-005 -1.368911e-004 3.328375e-001 -9.342448e-001
310880670.98742 -9.814568e-001 1.627243e-001 7.829833e-005 6.496719e-005 3.392631e-005 -5.996928e-005 9.997569e-001 -3.445664e-002
314689287.07587 -9.712110e-001 1.945413e-001 -1.436474e-004 -5.190043e-005 1.030239e-004 -2.890588e-004 9.983357e-001 -9.646410e-002
318497903.16432 -9.594775e-001 2.249684e-001 -4.807361e-005 1.317763e-004 3.248915e-005 -1.088661e-004 9.921284e-001 -1.600706e-001
322306519.25276 -9.472977e-001 2.548495e-001 -2.904696e-004 1.182264e-004 -8.696567e-006 -3.128790e-004 9.831123e-001 -2.227658e-001
326115135.34121 -9.357992e-001 2.846076e-001 -4.409697e-005 -1.214424e-005 -2.490364e-004 3.641443e-005 9.696758e-001 -2.871930e-001
329923751.42966 -9.237376e-001 3.135864e-001 3.663632e-006 8.624545e-005 -2.434498e-005 1.853492e-004 9.523894e-001 -3.516173e-001
333732367.51811 -9.110817e-001 3.423797e-001 -3.054405e-004 -3.647488e-005 5.281402e-005 -2.028866e-004 9.303463e-001 -4.150806e-001
337540983.60656 -8.981237e-001 3.704094e-001 2.320232e-005 -1.529662e-004 1.252689e-004 -2.399989e-004 9.037071e-001 -4.773897e-001
341349599.69501 -8.847429e-001 3.969672e-001 5.922746e-005 -6.357994e-005 -1.710274e-004 -1.746487e-004 8.712435e-001 -5.381331e-001
345158215.78345 -8.712577e-001 4.239480e-001 8.792412e-005 3.189003e-005 1.637439e-004 -1.628357e-005 8.354093e-001 -5.959326e-001
348966831.8719 -8.567272e-001 4.494609e-001 -2.254187e-004 -1.204024e-004 -1.113355e-004 -1.272067e-004 7.939821e-001 -6.522049e-001
352775447.96035 -8.424956e-001 4.760724e-001 -8.914684e-005 1.853776e-005 4.246958e-005 1.353119e-004 7.486420e-001 -7.045914e-001
356584064.0488 -8.270889e-001 5.012599e-001 -8.467642e-006 -2.200674e-005 9.620023e-007 -1.676594e-005 6.998178e-001 -7.528799e-001
360392680.13725 -8.116493e-001 5.269597e-001 -3.866396e-005 -1.151571e-004 6.932732e-005 9.412463e-005 6.469023e-001 -7.977485e-001
364201296.2257 -7.961397e-001 5.536654e-001 5.493941e-006 2.196349e-006 -6.461657e-005 4.457729e-005 5.911931e-001 -8.399832e-001
368009912.31414 -7.793075e-001 5.803052e-001 -5.684308e-005 -5.488066e-005 3.762327e-006 -2.472060e-004 5.332272e-001 -8.771916e-001
371818528.40259 -7.611133e-001 6.062428e-001 5.567003e-006 -2.093011e-005 -1.295005e-004 -1.179027e-004 4.732423e-001 -9.107830e-001
375627144.49104 -7.426807e-001 6.321701e-001 1.302556e-005 -1.154864e-004 1.634269e-004 3.675311e-005 4.115601e-001 -9.380071e-001
379435760.57949 -7.226626e-001 6.578241e-001 -8.881373e-006 5.411188e-005 1.881822e-004 -7.734553e-005 3.484663e-001 -9.617711e-001
383244376.66794 -7.013964e-001 6.830358e-001 -7.972544e-005 1.709118e-004 1.579672e-006 -1.015352e-004 2.839584e-001 -9.807766e-001
387052992.75639 -9.748560e-001 2.084051e-001 5.808655e-005 7.431770e-005 4.295741e-006 1.785742e-005 9.960526e-001 -5.981965e-002
390861608.84483 -9.687231e-001 2.400507e-001 -6.273472e-005 -1.338336e-004 -1.936069e-004 4.110975e-006 9.876717e-001 -1.239613e-001
394670224.93328 -9.618502e-001 2.709420e-001 3.182622e-005 -6.245182e-005 -9.485488e-005 -1.171807e-004 9.749429e-001 -1.875846e-001
398478841.02173 -9.532856e-001 3.022018e-001 -8.860158e-005 1.016293e-005 2.866418e-005 1.505445e-004 9.598133e-001 -2.512577e-001
402287457.11018 -9.446995e-001 3.341863e-001 9.600156e-005 -2.374662e-004 -4.112013e-005 4.839970e-005 9.413465e-001 -3.124152e-001
406096073.19863 -9.342903e-001 3.652775e-001 -2.274475e-004 2.499325e-005 9.810261e-005 -1.657901e-004 9.195768e-001 -3.730063e-001
409904689.28708 -9.221756e-001 3.964435e-001 1.037525e-004 6.939228e-005 -8.646536e-005 -1.533188e-004 8.927734e-001 -4.321826e-001
413713305.37552 -9.093537e-001 4.267443e-001 -1.929965e-004 8.120604e-005 1.391847e-004 -6.113437e-005 8.632306e-001 -4.893065e-001
417521921.46397 -8.939794e-001 4.563649e-001 -4.191045e-005 -1.451406e-004 1.130185e-004 -5.666481e-005 8.300295e-001 -5.453658e-001
421330537.55242 -8.783582e-001 4.848888e-001 8.296646e-005 1.377384e-004 -1.688294e-004 1.438850e-004 7.926928e-001 -5.983308e-001
425139153.64087 -8.615497e-001 5.128594e-001 -9.434025e-005 7.375480e-005 -7.161184e-005 -1.529469e-004 7.524286e-001 -6.503150e-001
428947769.72932 -8.434821e-001 5.401341e-001 -4.934311e-005 -1.901436e-005 -3.440115e-006 -7.023853e-005 7.087268e-001 -6.990187e-001
432756385.81777 -8.255994e-001 5.661053e-001 -4.240794e-005 -1.030725e-004 9.820488e-005 9.122934e-005 6.619464e-001 -7.449108e-001
436565001.90621 -8.061714e-001 5.917689e-001 -7.526822e-005 -1.086406e-005 7.480545e-005 -3.708858e-005 6.108387e-001 -7.882712e-001
440373617.99466 -7.863228e-001 6.160333e-001 -6.199445e-006 -4.154208e-005 -3.814481e-006 -5.168736e-005 5.574943e-001 -8.282292e-001
444182234.08311 -7.658131e-001 6.390224e-001 9.923436e-005 -1.433302e-004 -2.413490e-004 1.074737e-005 5.009187e-001 -8.645689e-001
447990850.17156 -7.447557e-001 6.609458e-001 4.707672e-005 -4.683588e-005 5.038508e-005 -1.257849e-004 4.415081e-001 -8.963174e-001
451799466.26001 -7.239788e-001 6.833044e-001 -8.771160e-005 1.223191e-004 7.176758e-005 4.249382e-006 3.795033e-001 -9.246269e-001
455608082.34846 -7.028335e-001 7.050464e-001 -8.911467e-006 -1.649748e-005 -1.159944e-005 -1.919673e-007 3.158190e-001 -9.483948e-001
459416698.4369 -6.812090e-001 7.260673e-001 5.604079e-005 1.217097e-004 5.971723e-005 -5.747862e-005 2.504244e-001 -9.664845e-001
463225314.52535 -9.616813e-001 2.537121e-001 1.026688e-004 7.607672e-005 1.480990e-004 1.455900e-004 9.967396e-001 -8.555163e-002
467033930.6138 -9.532365e-001 2.830728e-001 -7.450939e-005 1.196315e-004 -5.647133e-005 2.041309e-005 9.890532e-001 -1.518030e-001
470842546.70225 -9.439979e-001 3.129969e-001 5.646760e-005 -5.625939e-005 1.972083e-005 -1.334951e-004 9.762229e-001 -2.168582e-001
474651162.7907 -9.335718e-001 3.421755e-001 -6.532072e-005 1.072109e-005 -3.517609e-005 -1.483505e-005 9.584178e-001 -2.816082e-001
478459778.87915 -9.231107e-001 3.712139e-001 1.197330e-004 -3.424895e-005 2.742961e-005 7.896015e-005 9.359832e-001 -3.443586e-001
482268394.96759 -9.113324e-001 4.004067e-001 -2.447899e-005 1.509502e-004 -2.473721e-005 -1.419831e-004 9.088619e-001 -4.053053e-001
486077011.05604 -8.985832e-001 4.292332e-001 -4.927093e-005 -3.302639e-005 5.759484e-005 7.240494e-005 8.785113e-001 -4.627260e-001
489885627.14449 -8.851459e-001 4.579936e-001 -1.918388e-005 9.706381e-005 2.528677e-005 -7.825645e-005 8.434711e-001 -5.179626e-001
493694243.23294 -8.704510e-001 4.868995e-001 -1.110029e-004 5.530529e-005 -4.733808e-006 1.134026e-005 8.058679e-001 -5.691991e-001
497502859.32139 -8.545536e-001 5.147597e-001 -5.183196e-005 3.585502e-005 5.916925e-005 -1.776656e-005 7.650201e-001 -6.183715e-001
501311475.40984 -8.415440e-001 5.451427e-001 5.589418e-006 1.071174e-004 1.090520e-004 1.775515e-004 7.191018e-001 -6.624409e-001
505120091.49828 -8.239465e-001 5.739108e-001 -4.354960e-005 -5.783091e-005 -8.909927e-005 1.647934e-004 6.746402e-001 -7.057142e-001
508928707.58673 -8.051716e-001 6.018040e-001 2.001493e-005 -1.066256e-005 2.509310e-005 -1.829212e-004 6.275499e-001 -7.464253e-001
512737323.67518 -7.848817e-001 6.286432e-001 -2.747296e-005 -8.533724e-005 5.591987e-005 1.032649e-004 5.774473e-001 -7.834486e-001
516545939.76363 -7.625591e-001 6.551595e-001 2.464734e-005 -8.736589e-005 5.351136e-005 1.461090e-005 5.272675e-001 -8.173762e-001
520354555.85208 -7.404840e-001 6.803519e-001 -4.940867e-006 -2.583756e-004 -1.702864e-004 1.014225e-005 4.750088e-001 -8.486719e-001
524163171.94053 -7.166631e-001 7.042111e-001 4.447976e-005 -1.687815e-004 -3.845335e-005 -2.355972e-005 4.206571e-001 -8.756211e-001
527971788.02897 -6.922038e-001 7.270700e-001 -8.865559e-005 3.213494e-005 -1.627547e-004 6.281177e-005 3.652606e-001 -9.009591e-001
531780404.11742 -6.670105e-001 7.483941e-001 -5.551016e-005 3.963050e-005 -3.617078e-005 -1.487511e-004 3.094873e-001 -9.223786e-001
535589020.20587 -9.576827e-001 2.703526e-001 1.265031e-005 -4.917871e-005 8.882440e-005 1.200022e-004 9.980561e-001 -4.310951e-002
539397636.29432 -9.465968e-001 3.012872e-001 2.806317e-005 4.004386e-005 -1.087076e-004 -7.814061e-005 9.963158e-001 -1.043363e-001
543206252.38277 -9.344424e-001 3.315820e-001 3.612799e-005 2.917060e-005 -1.014072e-005 6.990749e-005 9.905385e-001 -1.655562e-001
547014868.47122 -9.216105e-001 3.614563e-001 9.102186e-005 -1.961801e-004 9.257241e-006 -7.951967e-005 9.810561e-001 -2.275199e-001
550823484.55966 -9.076247e-001 3.898053e-001 -7.514350e-006 -5.972153e-005 1.227728e-004 1.196350e-004 9.675340e-001 -2.887596e-001
554632100.64811 -8.929964e-001 4.172418e-001 -1.534712e-004 7.381634e-005 -1.327656e-004 -7.190591e-005 9.494772e-001 -3.502912e-001
558440716.73656 -8.785052e-001 4.446011e-001 6.219584e-005 -1.258376e-006 -6.874046e-005 -3.383363e-005 9.277019e-001 -4.111298e-001
562249332.82501 -8.627182e-001 4.707343e-001 9.625707e-005 4.230093e-005 -1.004737e-004 2.913857e-005 9.019725e-001 -4.701738e-001
566057948.91346 -8.469998e-001 4.967320e-001 6.115784e-005 2.535423e-005 -1.233495e-004 -1.292309e-004 8.717361e-001 -5.288122e-001
569866565.00191 -8.312492e-001 5.222331e-001 -1.443413e-005 9.395014e-006 -1.095973e-004 7.798220e-006 8.379528e-001 -5.861626e-001
573675181.09035 -8.146895e-001 5.470394e-001 -1.375045e-004 -3.988624e-005 -2.212919e-005 -1.184952e-004 7.991945e-001 -6.403850e-001
