!Agilent Technologies,E5071C,MY46101273,A.11.02
!Date: Mon Oct 02 17:07:39 2017
!Data & Calibration Information:
!Freq	S11:SOLT2(ON)	S21:SOLT2(ON)	S12:SOLT2(ON)	S22:SOLT2(ON)
!PortZ  Port1:50+j0    Port2:50+j0
!Above PortZ is port z conversion or system Z0 setting when saving the data.
!When reading, reference impedance value at option line is always used.
# Hz S dB R 50
10000000	-5.768777e+001	-1.065277e+002	-9.484980e-004	-2.742982e-001	-5.344856e-003	-2.727591e-001	-5.689745e+001	-9.802136e+001
12806250	-5.649849e+001	-9.658933e+001	-1.792930e-004	-3.439048e-001	-4.747241e-003	-3.448902e-001	-5.601089e+001	-9.876571e+001
15612500	-5.446140e+001	-9.923051e+001	-6.477725e-004	-4.167232e-001	-5.127365e-003	-4.152461e-001	-5.490380e+001	-9.707409e+001
18418750	-5.344164e+001	-9.812118e+001	-1.212021e-003	-4.901769e-001	-6.066849e-003	-4.906616e-001	-5.364770e+001	-1.001894e+002
21225000	-5.190725e+001	-9.573474e+001	-1.567721e-003	-5.668734e-001	-5.576703e-003	-5.694405e-001	-5.207627e+001	-9.484695e+001
24031250	-5.078637e+001	-9.871598e+001	-2.579963e-003	-6.389263e-001	-6.263000e-003	-6.429486e-001	-5.105873e+001	-9.500981e+001
26837500	-4.982997e+001	-9.803128e+001	-3.465597e-003	-7.126095e-001	-6.465264e-003	-7.111107e-001	-5.054185e+001	-9.605058e+001
29643750	-4.918581e+001	-9.697518e+001	-3.652449e-003	-7.864403e-001	-8.046419e-003	-7.862525e-001	-4.951277e+001	-9.811702e+001
32450000	-4.866637e+001	-9.767886e+001	-3.938617e-003	-8.584807e-001	-7.718835e-003	-8.629198e-001	-4.863582e+001	-9.596908e+001
35256250	-4.774069e+001	-9.870610e+001	-4.218443e-003	-9.318790e-001	-8.619422e-003	-9.312683e-001	-4.793787e+001	-9.707794e+001
38062500	-4.710427e+001	-9.830338e+001	-5.401711e-003	-1.002764e+000	-9.226092e-003	-1.001047e+000	-4.742890e+001	-9.852356e+001
40868750	-4.666267e+001	-9.871148e+001	-5.797709e-003	-1.072421e+000	-9.827029e-003	-1.078137e+000	-4.667608e+001	-9.823842e+001
43675000	-4.608518e+001	-9.874389e+001	-5.957797e-003	-1.146463e+000	-1.042764e-002	-1.146495e+000	-4.602257e+001	-9.847986e+001
46481250	-4.540543e+001	-9.744729e+001	-6.203625e-003	-1.221498e+000	-1.074455e-002	-1.219621e+000	-4.573276e+001	-9.802515e+001
49287500	-4.502990e+001	-9.808678e+001	-7.107884e-003	-1.286925e+000	-1.080666e-002	-1.288571e+000	-4.531983e+001	-9.907298e+001
52093750	-4.453380e+001	-9.781225e+001	-7.575291e-003	-1.355671e+000	-1.209249e-002	-1.359760e+000	-4.476616e+001	-9.936107e+001
54900000	-4.418265e+001	-9.851375e+001	-7.918692e-003	-1.428306e+000	-1.257174e-002	-1.432406e+000	-4.428855e+001	-9.958822e+001
57706250	-4.378991e+001	-9.868599e+001	-7.527868e-003	-1.497001e+000	-1.253238e-002	-1.502839e+000	-4.380424e+001	-9.841994e+001
60512500	-4.324844e+001	-9.880638e+001	-8.651197e-003	-1.572460e+000	-1.296971e-002	-1.573471e+000	-4.332135e+001	-9.961361e+001
63318750	-4.291712e+001	-9.856190e+001	-9.210583e-003	-1.644276e+000	-1.334504e-002	-1.646524e+000	-4.300240e+001	-1.000239e+002
66125000	-4.256216e+001	-9.849194e+001	-8.592797e-003	-1.713964e+000	-1.241155e-002	-1.722785e+000	-4.294947e+001	-9.956953e+001
68931250	-4.227688e+001	-9.883653e+001	-9.467121e-003	-1.782880e+000	-1.309912e-002	-1.783758e+000	-4.247588e+001	-1.006779e+002
71737500	-4.184252e+001	-9.835664e+001	-1.062240e-002	-1.852616e+000	-1.419354e-002	-1.862685e+000	-4.201158e+001	-1.001251e+002
74543750	-4.159609e+001	-9.925661e+001	-9.915055e-003	-1.921983e+000	-1.494211e-002	-1.932009e+000	-4.165664e+001	-9.979385e+001
77350000	-4.125179e+001	-9.911762e+001	-1.066380e-002	-1.993567e+000	-1.432691e-002	-2.003287e+000	-4.136501e+001	-1.001599e+002
80156250	-4.095954e+001	-9.892886e+001	-1.124138e-002	-2.069705e+000	-1.480881e-002	-2.067253e+000	-4.110810e+001	-1.011222e+002
82962500	-4.075112e+001	-9.918801e+001	-1.133564e-002	-2.134184e+000	-1.476012e-002	-2.145788e+000	-4.084444e+001	-1.010557e+002
85768750	-4.043495e+001	-9.945961e+001	-1.147931e-002	-2.205151e+000	-1.504241e-002	-2.209035e+000	-4.050015e+001	-1.015289e+002
88575000	-4.015722e+001	-9.984914e+001	-1.139718e-002	-2.280608e+000	-1.515191e-002	-2.283048e+000	-4.026365e+001	-1.020081e+002
91381250	-3.992506e+001	-1.000057e+002	-1.202260e-002	-2.349548e+000	-1.633065e-002	-2.361049e+000	-3.998269e+001	-1.009832e+002
94187500	-3.971891e+001	-9.997489e+001	-1.166198e-002	-2.419628e+000	-1.680636e-002	-2.422993e+000	-3.967858e+001	-1.022304e+002
96993750	-3.936068e+001	-1.006457e+002	-1.228684e-002	-2.484534e+000	-1.585353e-002	-2.498361e+000	-3.947310e+001	-1.024951e+002
99800000	-3.926524e+001	-1.004987e+002	-1.220928e-002	-2.563810e+000	-1.707520e-002	-2.570290e+000	-3.921886e+001	-1.023245e+002
102606250	-3.906195e+001	-1.003273e+002	-1.288497e-002	-2.637028e+000	-1.733821e-002	-2.637165e+000	-3.894812e+001	-1.026127e+002
105412500	-3.874970e+001	-1.004145e+002	-1.342557e-002	-2.704675e+000	-1.696103e-002	-2.708179e+000	-3.876963e+001	-1.029916e+002
108218750	-3.857479e+001	-1.006701e+002	-1.391977e-002	-2.776186e+000	-1.741474e-002	-2.781829e+000	-3.860028e+001	-1.028913e+002
111025000	-3.834887e+001	-1.012825e+002	-1.290400e-002	-2.846740e+000	-1.764422e-002	-2.851096e+000	-3.839372e+001	-1.033133e+002
113831250	-3.810477e+001	-1.010604e+002	-1.346549e-002	-2.910479e+000	-1.769316e-002	-2.920953e+000	-3.808268e+001	-1.040107e+002
116637500	-3.799207e+001	-1.013896e+002	-1.377483e-002	-2.986935e+000	-1.835288e-002	-2.993281e+000	-3.790233e+001	-1.036190e+002
119443750	-3.778017e+001	-1.012489e+002	-1.386800e-002	-3.057332e+000	-1.852467e-002	-3.057812e+000	-3.767262e+001	-1.041551e+002
122250000	-3.756832e+001	-1.012141e+002	-1.468754e-002	-3.126138e+000	-1.824003e-002	-3.135393e+000	-3.759801e+001	-1.040812e+002
125056250	-3.749181e+001	-1.013149e+002	-1.520235e-002	-3.201936e+000	-1.910536e-002	-3.201264e+000	-3.735670e+001	-1.043021e+002
127862500	-3.722919e+001	-1.018432e+002	-1.504716e-002	-3.268134e+000	-1.847048e-002	-3.269056e+000	-3.711151e+001	-1.050739e+002
130668750	-3.706486e+001	-1.023337e+002	-1.474787e-002	-3.339448e+000	-1.922966e-002	-3.345866e+000	-3.700938e+001	-1.047594e+002
133475000	-3.697541e+001	-1.019082e+002	-1.614895e-002	-3.414965e+000	-1.919630e-002	-3.414359e+000	-3.676306e+001	-1.050156e+002
136281250	-3.668740e+001	-1.025383e+002	-1.496643e-002	-3.481231e+000	-1.894848e-002	-3.488178e+000	-3.660496e+001	-1.054471e+002
139087500	-3.654853e+001	-1.025967e+002	-1.551839e-002	-3.548590e+000	-1.990456e-002	-3.557641e+000	-3.647721e+001	-1.055404e+002
141893750	-3.641636e+001	-1.027196e+002	-1.568581e-002	-3.623203e+000	-1.995312e-002	-3.626624e+000	-3.628315e+001	-1.055296e+002
144700000	-3.621417e+001	-1.026559e+002	-1.605958e-002	-3.693242e+000	-2.028536e-002	-3.697084e+000	-3.615701e+001	-1.057453e+002
147506250	-3.611951e+001	-1.030959e+002	-1.590735e-002	-3.765321e+000	-2.080796e-002	-3.768700e+000	-3.603141e+001	-1.064268e+002
150312500	-3.597412e+001	-1.027128e+002	-1.670407e-002	-3.833030e+000	-2.095658e-002	-3.842676e+000	-3.587625e+001	-1.067834e+002
153118750	-3.584860e+001	-1.033360e+002	-1.715684e-002	-3.904158e+000	-2.074775e-002	-3.910498e+000	-3.569557e+001	-1.070161e+002
155925000	-3.564837e+001	-1.032181e+002	-1.697391e-002	-3.973420e+000	-2.176539e-002	-3.982493e+000	-3.561085e+001	-1.067514e+002
158731250	-3.555126e+001	-1.037524e+002	-1.735221e-002	-4.045656e+000	-2.154836e-002	-4.053136e+000	-3.544688e+001	-1.070547e+002
161537500	-3.544107e+001	-1.036776e+002	-1.775361e-002	-4.121738e+000	-2.158247e-002	-4.121270e+000	-3.525224e+001	-1.073814e+002
164343750	-3.533651e+001	-1.039390e+002	-1.780307e-002	-4.188959e+000	-2.159952e-002	-4.196455e+000	-3.514686e+001	-1.076499e+002
167150000	-3.514703e+001	-1.044430e+002	-1.713586e-002	-4.260431e+000	-2.165080e-002	-4.266521e+000	-3.497950e+001	-1.078901e+002
169956250	-3.501982e+001	-1.040798e+002	-1.759843e-002	-4.327704e+000	-2.241530e-002	-4.334846e+000	-3.486447e+001	-1.081548e+002
172762500	-3.489083e+001	-1.041926e+002	-1.807695e-002	-4.399739e+000	-2.321384e-002	-4.405099e+000	-3.476272e+001	-1.082749e+002
175568750	-3.475362e+001	-1.046213e+002	-1.830041e-002	-4.470994e+000	-2.281356e-002	-4.472675e+000	-3.461951e+001	-1.083880e+002
178375000	-3.465614e+001	-1.051914e+002	-1.834291e-002	-4.550539e+000	-2.307329e-002	-4.551864e+000	-3.453215e+001	-1.089370e+002
181181250	-3.453373e+001	-1.050861e+002	-1.931185e-002	-4.607719e+000	-2.241021e-002	-4.616312e+000	-3.438865e+001	-1.089907e+002
183987500	-3.445647e+001	-1.052036e+002	-1.948476e-002	-4.682309e+000	-2.313561e-002	-4.685341e+000	-3.430996e+001	-1.088823e+002
186793750	-3.434982e+001	-1.052850e+002	-1.921489e-002	-4.750191e+000	-2.350689e-002	-4.754266e+000	-3.418179e+001	-1.090905e+002
189600000	-3.420034e+001	-1.055319e+002	-1.906043e-002	-4.825958e+000	-2.361124e-002	-4.828423e+000	-3.407448e+001	-1.097388e+002
192406250	-3.408652e+001	-1.056593e+002	-1.961493e-002	-4.890148e+000	-2.406158e-002	-4.900969e+000	-3.397392e+001	-1.095900e+002
195212500	-3.395790e+001	-1.058564e+002	-1.884241e-002	-4.963697e+000	-2.388036e-002	-4.970088e+000	-3.383734e+001	-1.099843e+002
198018750	-3.388195e+001	-1.061689e+002	-1.996166e-002	-5.035456e+000	-2.366100e-002	-5.038814e+000	-3.372711e+001	-1.101458e+002
200825000	-3.374272e+001	-1.061367e+002	-1.998172e-002	-5.106397e+000	-2.477391e-002	-5.114840e+000	-3.367164e+001	-1.106754e+002
203631250	-3.366649e+001	-1.065017e+002	-2.084792e-002	-5.175156e+000	-2.434831e-002	-5.182799e+000	-3.352495e+001	-1.105439e+002
206437500	-3.357967e+001	-1.065586e+002	-2.100247e-002	-5.246985e+000	-2.475896e-002	-5.250733e+000	-3.343484e+001	-1.108314e+002
209243750	-3.349440e+001	-1.064111e+002	-2.065623e-002	-5.318474e+000	-2.437510e-002	-5.324186e+000	-3.330251e+001	-1.111257e+002
212050000	-3.335775e+001	-1.069953e+002	-2.143114e-002	-5.388348e+000	-2.473281e-002	-5.398489e+000	-3.320262e+001	-1.114346e+002
214856250	-3.326633e+001	-1.070802e+002	-2.077768e-002	-5.457680e+000	-2.470106e-002	-5.469892e+000	-3.310079e+001	-1.114067e+002
217662500	-3.317179e+001	-1.066905e+002	-2.072941e-002	-5.526235e+000	-2.595600e-002	-5.537573e+000	-3.307627e+001	-1.115403e+002
220468750	-3.311100e+001	-1.070359e+002	-2.164821e-002	-5.599695e+000	-2.595792e-002	-5.603359e+000	-3.294792e+001	-1.119577e+002
223275000	-3.298913e+001	-1.072771e+002	-2.214670e-002	-5.668904e+000	-2.630465e-002	-5.678980e+000	-3.283520e+001	-1.122576e+002
226081250	-3.291357e+001	-1.073682e+002	-2.222645e-002	-5.737244e+000	-2.556866e-002	-5.746929e+000	-3.274466e+001	-1.122456e+002
228887500	-3.278146e+001	-1.076556e+002	-2.216624e-002	-5.807996e+000	-2.645666e-002	-5.813889e+000	-3.266879e+001	-1.124824e+002
231693750	-3.270779e+001	-1.077916e+002	-2.232309e-002	-5.881977e+000	-2.609258e-002	-5.886367e+000	-3.257720e+001	-1.127179e+002
234500000	-3.262697e+001	-1.077218e+002	-2.185321e-002	-5.951236e+000	-2.655701e-002	-5.958144e+000	-3.246465e+001	-1.129183e+002
237306250	-3.257284e+001	-1.082807e+002	-2.274646e-002	-6.018605e+000	-2.659971e-002	-6.029248e+000	-3.239857e+001	-1.128899e+002
240112500	-3.244863e+001	-1.080787e+002	-2.228917e-002	-6.089566e+000	-2.658762e-002	-6.095258e+000	-3.234881e+001	-1.132593e+002
242918750	-3.241223e+001	-1.080466e+002	-2.238629e-002	-6.157109e+000	-2.715445e-002	-6.171068e+000	-3.220854e+001	-1.136541e+002
245725000	-3.226300e+001	-1.081463e+002	-2.254242e-002	-6.230436e+000	-2.730203e-002	-6.240584e+000	-3.212248e+001	-1.138734e+002
248531250	-3.218257e+001	-1.085638e+002	-2.307538e-002	-6.302577e+000	-2.698134e-002	-6.308590e+000	-3.204606e+001	-1.139282e+002
251337500	-3.214778e+001	-1.085447e+002	-2.250532e-002	-6.371165e+000	-2.744882e-002	-6.376652e+000	-3.200477e+001	-1.142309e+002
254143750	-3.206097e+001	-1.088543e+002	-2.269462e-002	-6.436331e+000	-2.682119e-002	-6.447590e+000	-3.190598e+001	-1.143741e+002
256950000	-3.198201e+001	-1.090185e+002	-2.278354e-002	-6.509796e+000	-2.765629e-002	-6.520731e+000	-3.179706e+001	-1.146875e+002
259756250	-3.184053e+001	-1.090892e+002	-2.276163e-002	-6.585578e+000	-2.723627e-002	-6.589009e+000	-3.176845e+001	-1.149013e+002
262562500	-3.179536e+001	-1.091543e+002	-2.290565e-002	-6.653118e+000	-2.733577e-002	-6.661791e+000	-3.167378e+001	-1.148231e+002
265368750	-3.174818e+001	-1.093294e+002	-2.340778e-002	-6.718659e+000	-2.686576e-002	-6.733862e+000	-3.159278e+001	-1.150091e+002
268175000	-3.164460e+001	-1.093652e+002	-2.286403e-002	-6.792204e+000	-2.754607e-002	-6.803219e+000	-3.149891e+001	-1.152861e+002
270981250	-3.159182e+001	-1.098052e+002	-2.326086e-002	-6.861396e+000	-2.679690e-002	-6.875880e+000	-3.144116e+001	-1.153133e+002
273787500	-3.151937e+001	-1.095897e+002	-2.207831e-002	-6.937223e+000	-2.754922e-002	-6.945612e+000	-3.135353e+001	-1.156617e+002
276593750	-3.143885e+001	-1.098664e+002	-2.238289e-002	-7.006845e+000	-2.750181e-002	-7.016120e+000	-3.130791e+001	-1.160887e+002
279400000	-3.135594e+001	-1.098116e+002	-2.197475e-002	-7.081164e+000	-2.763097e-002	-7.091267e+000	-3.119470e+001	-1.160941e+002
282206250	-3.128559e+001	-1.099181e+002	-2.211089e-002	-7.150137e+000	-2.827590e-002	-7.159679e+000	-3.110138e+001	-1.163814e+002
285012500	-3.121297e+001	-1.099692e+002	-2.262160e-002	-7.221461e+000	-2.753711e-002	-7.228131e+000	-3.104877e+001	-1.166263e+002
287818750	-3.114503e+001	-1.103093e+002	-2.310447e-002	-7.292474e+000	-2.813103e-002	-7.298306e+000	-3.097932e+001	-1.170075e+002
290625000	-3.107665e+001	-1.103518e+002	-2.301294e-002	-7.361573e+000	-2.763527e-002	-7.369667e+000	-3.090523e+001	-1.172558e+002
293431250	-3.100248e+001	-1.105860e+002	-2.271812e-002	-7.441246e+000	-2.825723e-002	-7.446454e+000	-3.085486e+001	-1.172913e+002
296237500	-3.093572e+001	-1.104485e+002	-2.321062e-002	-7.513361e+000	-2.822568e-002	-7.513556e+000	-3.077340e+001	-1.174044e+002
299043750	-3.085587e+001	-1.107451e+002	-2.378704e-002	-7.586185e+000	-2.863356e-002	-7.589051e+000	-3.067769e+001	-1.176388e+002
301850000	-3.078911e+001	-1.108747e+002	-2.288324e-002	-7.652024e+000	-2.900112e-002	-7.661768e+000	-3.060980e+001	-1.178294e+002
304656250	-3.072872e+001	-1.110081e+002	-2.277691e-002	-7.725598e+000	-2.842604e-002	-7.733396e+000	-3.054672e+001	-1.180897e+002
307462500	-3.067450e+001	-1.113359e+002	-2.313832e-002	-7.796092e+000	-2.826524e-002	-7.809104e+000	-3.053160e+001	-1.181632e+002
310268750	-3.060650e+001	-1.109485e+002	-2.394825e-002	-7.871467e+000	-2.816500e-002	-7.879421e+000	-3.043999e+001	-1.185375e+002
313075000	-3.057500e+001	-1.111405e+002	-2.283376e-002	-7.946544e+000	-2.836559e-002	-7.951980e+000	-3.038855e+001	-1.185636e+002
315881250	-3.047856e+001	-1.113703e+002	-2.412114e-002	-8.016113e+000	-2.810599e-002	-8.021810e+000	-3.034916e+001	-1.189721e+002
318687500	-3.044609e+001	-1.115829e+002	-2.424319e-002	-8.090270e+000	-2.866452e-002	-8.094024e+000	-3.028878e+001	-1.192136e+002
321493750	-3.035179e+001	-1.115945e+002	-2.500936e-002	-8.166477e+000	-2.887931e-002	-8.167213e+000	-3.021052e+001	-1.191841e+002
324300000	-3.033016e+001	-1.116476e+002	-2.438145e-002	-8.237499e+000	-2.992863e-002	-8.241866e+000	-3.013949e+001	-1.192823e+002
327106250	-3.020011e+001	-1.116647e+002	-2.572455e-002	-8.308865e+000	-2.961449e-002	-8.311552e+000	-3.005144e+001	-1.196198e+002
329912500	-3.018069e+001	-1.118648e+002	-2.485330e-002	-8.380085e+000	-2.926527e-002	-8.391953e+000	-3.004210e+001	-1.198926e+002
332718750	-3.014207e+001	-1.119515e+002	-2.517859e-002	-8.455299e+000	-3.002799e-002	-8.461569e+000	-2.996580e+001	-1.200252e+002
335525000	-3.010292e+001	-1.121189e+002	-2.600357e-002	-8.535084e+000	-3.130276e-002	-8.542358e+000	-2.992991e+001	-1.199596e+002
338331250	-3.006443e+001	-1.119668e+002	-2.646671e-002	-8.610929e+000	-3.159126e-002	-8.617168e+000	-2.987815e+001	-1.202666e+002
341137500	-3.000596e+001	-1.117477e+002	-2.808747e-002	-8.688984e+000	-3.222553e-002	-8.693950e+000	-2.985843e+001	-1.202581e+002
343943750	-2.997815e+001	-1.116097e+002	-2.953708e-002	-8.762366e+000	-3.490691e-002	-8.770032e+000	-2.980035e+001	-1.199668e+002
346750000	-2.986222e+001	-1.113360e+002	-3.221280e-002	-8.823103e+000	-3.700976e-002	-8.832066e+000	-2.971569e+001	-1.196980e+002
349556250	-2.972278e+001	-1.113307e+002	-3.372548e-002	-8.873923e+000	-3.776678e-002	-8.888470e+000	-2.959522e+001	-1.197596e+002
352362500	-2.962105e+001	-1.116339e+002	-3.279124e-002	-8.939486e+000	-3.789049e-002	-8.948987e+000	-2.947191e+001	-1.199455e+002
355168750	-2.952390e+001	-1.121337e+002	-3.174201e-002	-9.008485e+000	-3.692885e-002	-9.010895e+000	-2.935599e+001	-1.204426e+002
357975000	-2.947771e+001	-1.123763e+002	-3.166081e-002	-9.079457e+000	-3.638482e-002	-9.085034e+000	-2.930058e+001	-1.207441e+002
360781250	-2.941321e+001	-1.124622e+002	-3.202592e-002	-9.151188e+000	-3.663216e-002	-9.158924e+000	-2.923851e+001	-1.210240e+002
363587500	-2.937827e+001	-1.126305e+002	-3.284969e-002	-9.225211e+000	-3.619973e-002	-9.230985e+000	-2.918517e+001	-1.214535e+002
366393750	-2.932175e+001	-1.125713e+002	-3.351902e-002	-9.297062e+000	-3.739277e-002	-9.301819e+000	-2.913065e+001	-1.212697e+002
369200000	-2.922278e+001	-1.131202e+002	-3.332524e-002	-9.364422e+000	-3.750127e-002	-9.372263e+000	-2.908360e+001	-1.216191e+002
372006250	-2.914909e+001	-1.130076e+002	-3.426076e-002	-9.429765e+000	-3.860027e-002	-9.434844e+000	-2.897058e+001	-1.216698e+002
374812500	-2.908726e+001	-1.131261e+002	-3.467850e-002	-9.495375e+000	-3.824707e-002	-9.504429e+000	-2.890966e+001	-1.221437e+002
377618750	-2.902117e+001	-1.133843e+002	-3.411660e-002	-9.569582e+000	-3.815006e-002	-9.577196e+000	-2.885459e+001	-1.223190e+002
380425000	-2.896207e+001	-1.137933e+002	-3.400456e-002	-9.638157e+000	-3.854283e-002	-9.647549e+000	-2.879692e+001	-1.224781e+002
383231250	-2.893402e+001	-1.138913e+002	-3.468234e-002	-9.710071e+000	-3.883636e-002	-9.713479e+000	-2.873010e+001	-1.227339e+002
386037500	-2.885845e+001	-1.140249e+002	-3.495783e-002	-9.776712e+000	-3.851727e-002	-9.782333e+000	-2.865297e+001	-1.230903e+002
388843750	-2.881395e+001	-1.143258e+002	-3.437157e-002	-9.845217e+000	-3.917122e-002	-9.856214e+000	-2.861754e+001	-1.233188e+002
391650000	-2.877532e+001	-1.144137e+002	-3.466805e-002	-9.916458e+000	-3.950725e-002	-9.928946e+000	-2.859183e+001	-1.236075e+002
394456250	-2.872161e+001	-1.147241e+002	-3.522501e-002	-9.987911e+000	-3.893369e-002	-9.998520e+000	-2.852212e+001	-1.239190e+002
397262500	-2.867538e+001	-1.149938e+002	-3.523266e-002	-1.005723e+001	-3.939438e-002	-1.007118e+001	-2.848987e+001	-1.241547e+002
400068750	-2.864418e+001	-1.151730e+002	-3.590111e-002	-1.012604e+001	-3.958873e-002	-1.013822e+001	-2.843208e+001	-1.243116e+002
402875000	-2.859168e+001	-1.150794e+002	-3.608388e-002	-1.019534e+001	-4.058775e-002	-1.020776e+001	-2.836744e+001	-1.245090e+002
405681250	-2.853288e+001	-1.154913e+002	-3.628713e-002	-1.026913e+001	-4.070107e-002	-1.027740e+001	-2.831020e+001	-1.247201e+002
408487500	-2.848695e+001	-1.155903e+002	-3.624197e-002	-1.033824e+001	-4.064623e-002	-1.034468e+001	-2.827741e+001	-1.249740e+002
411293750	-2.845534e+001	-1.157418e+002	-3.647725e-002	-1.041126e+001	-4.027563e-002	-1.041636e+001	-2.821605e+001	-1.252090e+002
414100000	-2.841436e+001	-1.159334e+002	-3.685509e-002	-1.047748e+001	-4.011746e-002	-1.048906e+001	-2.819294e+001	-1.255025e+002
416906250	-2.838829e+001	-1.159724e+002	-3.692795e-002	-1.054970e+001	-4.005308e-002	-1.055784e+001	-2.815143e+001	-1.257227e+002
419712500	-2.837313e+001	-1.160823e+002	-3.806953e-002	-1.061718e+001	-4.217167e-002	-1.062832e+001	-2.811972e+001	-1.259111e+002
422518750	-2.830604e+001	-1.161589e+002	-3.830801e-002	-1.068923e+001	-4.160056e-002	-1.069875e+001	-2.805464e+001	-1.259439e+002
425325000	-2.827406e+001	-1.164894e+002	-3.924821e-002	-1.075526e+001	-4.217909e-002	-1.076755e+001	-2.801619e+001	-1.260987e+002
428131250	-2.822655e+001	-1.165705e+002	-3.895869e-002	-1.083032e+001	-4.230659e-002	-1.083851e+001	-2.797196e+001	-1.264763e+002
430937500	-2.816860e+001	-1.165828e+002	-3.887698e-002	-1.089247e+001	-4.307776e-002	-1.091131e+001	-2.795479e+001	-1.265978e+002
